(1713559386.317403) can0 140#0000030000000000
(1713559386.317620) can0 174#EC7F005843790C68
(1713559386.317851) can0 178#FC7F083820930C30
(1713559386.318089) can0 17C#068001002F690CB0
(1713559386.319027) can0 400#288000000000002A
(1713559386.319282) can0 541#0440E800007FFFD9
(1713559386.322089) can0 12F#F80002200000004F
(1713559386.322321) can0 128#1388030000EC7828
(1713559386.322571) can0 12D#000000000000005F
(1713559386.322815) can0 12E#000000000000C02E
(1713559386.323061) can0 290#0000000200000057
(1713559386.324177) can0 120#0000000007000025
(1713559386.324422) can0 121#0000000000000035
(1713559386.324668) can0 129#0000000100000031
(1713559386.324906) can0 410#2880008B9F6E8B9F
(1713559386.327477) can0 174#E87F00583B790D58
(1713559386.327710) can0 178#FE7F000023930D9F
(1713559386.327952) can0 17C#0680010040690D7B
(1713559386.329090) can0 400#2880000000000040
(1713559386.329335) can0 551#000000000004C000
(1713559386.329585) can0 5D1#9958000200000000
(1713559386.332250) can0 12F#F810022000000071
(1713559386.332495) can0 12D#000000000000006A
(1713559386.332744) can0 290#0000000200000062
(1713559386.334526) can0 410#2880008B9F6E8BAA
(1713559386.337463) can0 174#E67F005835790E77
(1713559386.337700) can0 178#048000001F930E52
(1713559386.337951) can0 140#0000030000000000
(1713559386.338188) can0 17C#0480010040690EE6
(1713559386.339098) can0 541#0440E800007FFF38
(1713559386.339346) can0 400#2880000000000075
(1713559386.342089) can0 12F#F810022000000090
(1713559386.342324) can0 128#1388030000EC7842
(1713559386.342568) can0 12D#000000000000008B
(1713559386.342812) can0 12E#000000000000C044
(1713559386.343064) can0 290#0000000200000083
(1713559386.344288) can0 120#000000000700004F
(1713559386.344535) can0 121#000000000000005F
(1713559386.344778) can0 129#000000010000005B
(1713559386.345018) can0 410#2880008B9F6E8BC0
(1713559386.347498) can0 174#EA7F005837790FD2
(1713559386.347727) can0 178#0A80015214930F32
(1713559386.347971) can0 17C#008001002C690FC8
(1713559386.349142) can0 551#000000000004C000
(1713559386.349387) can0 400#2880000000000094
(1713559386.349629) can0 552#2EFFFFFFFFFFFF4D
(1713559386.349875) can0 5D1#9958000200000000
(1713559386.350119) can0 5D2#7444540000000000
(1713559386.350377) can0 450#005540001B004A00
(1713559386.352325) can0 12F#F8100220000000A5
(1713559386.352572) can0 12D#00000000000000BE
(1713559386.352818) can0 290#00000002000000B6
(1713559386.354538) can0 410#2880008B9F6E8B21
(1713559386.357512) can0 174#EA7F005843790027
(1713559386.357748) can0 178#0E80026F079300EA
(1713559386.357988) can0 17C#FC7F010024690064
(1713559386.358476) can0 140#0000030000000000
(1713559386.359128) can0 541#0440E800007FFF52
(1713559386.359377) can0 400#28800000000000A1
(1713559386.359617) can0 550#48000C00010000C2
(1713559386.362129) can0 12F#F8100220000000CF
(1713559386.362362) can0 128#1388030000EC7877
(1713559386.362595) can0 12A#1428701C60580026
(1713559386.362840) can0 12D#00000000000000D4
(1713559386.363090) can0 12E#000000000000C071
(1713559386.363358) can0 290#00000002000000DC
(1713559386.363576) can0 5A0#0000006244928043
(1713559386.364417) can0 120#000000000700007A
(1713559386.364669) can0 121#000000000000006A
(1713559386.364916) can0 129#000000010000006E
(1713559386.365155) can0 410#2880008B9F6E8B4B
(1713559386.367523) can0 174#EA7F00584D790133
(1713559386.367756) can0 178#0A800362019301BE
(1713559386.367997) can0 17C#FC7F01003D6901E2
(1713559386.369150) can0 551#000000000004C000
(1713559386.369391) can0 400#28800000000000CB
(1713559386.369630) can0 5D1#9958000200000000
(1713559386.372316) can0 12F#F81002200000002E
(1713559386.372560) can0 12D#0000000000000035
(1713559386.372808) can0 290#000000020000003D
(1713559386.374451) can0 410#2880008B9F6E8B7E
(1713559386.377476) can0 174#EA7F00584B790211
(1713559386.377714) can0 178#02800465FF920279
(1713559386.377954) can0 17C#008001005C690201
(1713559386.378966) can0 140#0000030000000000
(1713559386.379210) can0 541#0440E800007FFF67
(1713559386.379459) can0 400#288000000000002A
(1713559386.379707) can0 4EA#0000000000000000
(1713559386.379953) can0 5B2#0800000000000000
(1713559386.380198) can0 310#FFFFFFFF7D7D0000
(1713559386.380445) can0 540#0000001040009E00
(1713559386.380733) can0 5B0#63420000000000C9
(1713559386.382154) can0 12F#F810022000000044
(1713559386.382390) can0 128#1388030000EC7896
(1713559386.382638) can0 12D#000000000000005F
(1713559386.382884) can0 12E#000000000000C090
(1713559386.383133) can0 290#001000020000005C
(1713559386.384477) can0 410#2880008B9F6E8B9F
(1713559386.384718) can0 120#000000000700009B
(1713559386.384962) can0 121#000000000000008B
(1713559386.385204) can0 129#000000010000008F
(1713559386.387537) can0 174#EA7F00584A790383
(1713559386.387763) can0 178#FC7F057206930339
(1713559386.387999) can0 17C#028001006769030E
(1713559386.389141) can0 551#000000000004C000
(1713559386.389400) can0 5D1#9958000200000000
(1713559386.389641) can0 400#2880000000000040
(1713559386.390461) can0 5D0#9958010200000000
(1713559386.390697) can0 5B1#008A9A6800000042
(1713559386.390935) can0 5CF#7444540000000000
(1713559386.392293) can0 12F#F810022000000071
(1713559386.392540) can0 12D#000000000000006A
(1713559386.392784) can0 290#0010000200000069
(1713559386.394392) can0 410#2880008B9F6E8BAA
(1713559386.397484) can0 174#EE7F00584B790436
(1713559386.397717) can0 178#F67F0674149304CE
(1713559386.397956) can0 17C#068001005C69049C
(1713559386.399104) can0 541#0440E800007FFF86
(1713559386.399356) can0 552#30FFFFFFFFFFFF72
(1713559386.399605) can0 140#0000030000000000
(1713559386.399850) can0 400#2880000000000075
(1713559386.400092) can0 450#005540001B004A00
(1713559386.402153) can0 12F#F810022000000090
(1713559386.402388) can0 128#1388030000EC78A3
(1713559386.402633) can0 12D#000000000000008B
(1713559386.402877) can0 12E#000000000000C0A5
(1713559386.403128) can0 290#0000000200000083
(1713559386.404420) can0 410#2880008B9F6E8BC0
(1713559386.404666) can0 120#00000000070000AE
(1713559386.404910) can0 121#00000000000000BE
(1713559386.405152) can0 129#00000001000000BA
(1713559386.407535) can0 174#F27F00584E7905A0
(1713559386.407768) can0 178#F27F07202793058B
(1713559386.408003) can0 17C#0A8001004D6905AD
(1713559386.409257) can0 550#48000C0001000023
(1713559386.409518) can0 400#2880000000000094
(1713559386.409756) can0 551#000000000004C000
(1713559386.410005) can0 5D1#9958000200000000
(1713559386.412350) can0 12F#F8100220000000A5
(1713559386.412575) can0 12A#1428701C6058004C
(1713559386.412823) can0 12D#00000000000000BE
(1713559386.413069) can0 290#00000002000000B6
(1713559386.414338) can0 410#2880008B9F6E8B21
(1713559386.415942) can0 6B9#0020400000000000
(1713559386.416186) can0 5A2#1410140000000000
(1713559386.417497) can0 174#F67F0058507906FF
(1713559386.417725) can0 178#F27F0842389306B7
(1713559386.417961) can0 17C#06800100466906B1
(1713559386.419087) can0 541#0440E800007FFFB3
(1713559386.419517) can0 400#28800000000000A1
(1713559386.420026) can0 140#0000030000000000
(1713559386.422122) can0 12F#F8100220000000CF
(1713559386.422359) can0 128#1388030000EC78C9
(1713559386.422602) can0 12D#00000000000000D4
(1713559386.422846) can0 12E#000000000000C0CF
(1713559386.423094) can0 290#00000002000000DC
(1713559386.424358) can0 410#2880008B9F6E8B4B
(1713559386.424690) can0 120#00000000070000C4
(1713559386.424934) can0 121#00000000000000D4
(1713559386.425177) can0 129#00000001000000D0
(1713559386.427551) can0 174#FA7F0058517907D6
(1713559386.427780) can0 178#F27F096F4193070E
(1713559386.428020) can0 17C#00800100436907F6
(1713559386.429135) can0 551#000000000004C000
(1713559386.429385) can0 5D1#9958000200000000
(1713559386.429644) can0 400#28800000000000CB
(1713559386.432296) can0 12F#F81002200000002E
(1713559386.432537) can0 12D#0000000000000035
(1713559386.432785) can0 290#000000020000003D
(1713559386.434310) can0 410#2880008B9F6E8B7E
(1713559386.437496) can0 174#FC7F0058537908BD
(1713559386.437721) can0 178#EE7F0A73399308BA
(1713559386.437959) can0 17C#FA7F010040690809
(1713559386.439092) can0 541#0440E800007FFFD9
(1713559386.439615) can0 400#288000000000002A
(1713559386.440557) can0 140#0000030000000000
(1713559386.442108) can0 12F#F810022000000044
(1713559386.442344) can0 128#1388030000EC7828
(1713559386.442596) can0 12D#000000000000005F
(1713559386.442840) can0 12E#000000000000C02E
(1713559386.443085) can0 290#0000000200000057
(1713559386.444360) can0 410#2880008B9F6E8B9F
(1713559386.444787) can0 120#0000000007000025
(1713559386.445036) can0 121#0000000000000035
(1713559386.445280) can0 129#0000000100000031
(1713559386.447547) can0 174#FE7F005851790919
(1713559386.447772) can0 178#EC7F0B6323930945
(1713559386.448008) can0 17C#F67F01003569096E
(1713559386.449154) can0 551#000000000004C000
(1713559386.449406) can0 552#30FFFFFFFFFFFF93
(1713559386.449652) can0 5D1#9958000200000000
(1713559386.449907) can0 400#2880000000000040
(1713559386.450143) can0 5D2#7444540000000000
(1713559386.450388) can0 450#005540001B004A00
(1713559386.452363) can0 12F#F810022000000071
(1713559386.452606) can0 12D#000000000000006A
(1713559386.452855) can0 290#0000000200000062
(1713559386.454305) can0 410#2880008B9F6E8BAA
(1713559386.457509) can0 174#FE7F00584B790A29
(1713559386.457738) can0 178#EC7F0C680C930AF9
(1713559386.457972) can0 17C#F47F01002C690A68
(1713559386.459088) can0 541#0440E800007FFF38
(1713559386.459345) can0 550#48000C0001000049
(1713559386.459709) can0 400#2880000000000075
(1713559386.461086) can0 140#0000030000000000
(1713559386.462074) can0 12F#F810022000000090
(1713559386.462307) can0 128#1388030000EC7842
(1713559386.462583) can0 12A#1428701C60580079
(1713559386.462836) can0 12D#000000000000008B
(1713559386.463078) can0 12E#000000000000C044
(1713559386.463347) can0 290#0000000200000083
(1713559386.463570) can0 5A0#0000006244928076
(1713559386.464358) can0 410#2880008B9F6E8BC0
(1713559386.464879) can0 120#000000000700004F
(1713559386.465127) can0 121#000000000000005F
(1713559386.465371) can0 129#000000010000005B
(1713559386.467561) can0 174#FC7F00583F790BC0
(1713559386.467788) can0 178#EE7F0D2001930BB9
(1713559386.468024) can0 17C#F67F01002C690BCF
(1713559386.469140) can0 551#000000000004C000
(1713559386.469386) can0 5D1#9958000200000000
(1713559386.469803) can0 400#2880000000000094
(1713559386.472319) can0 12F#F8100220000000A5
(1713559386.472554) can0 12D#00000000000000BE
(1713559386.472800) can0 290#00000002000000B6
(1713559386.474352) can0 410#2880008B9F6E8B21
(1713559386.477522) can0 174#FA7F005834790CC0
(1713559386.477754) can0 178#EE7F0E4701930C7E
(1713559386.477992) can0 17C#FC7F010034690CE0
(1713559386.479086) can0 541#0440E800007FFF52
(1713559386.479348) can0 4EA#0000000000000000
(1713559386.479582) can0 5B2#0800000000000000
(1713559386.479827) can0 310#FFFFFFFF7D7D0000
(1713559386.480073) can0 400#28800000000000A1
(1713559386.480421) can0 540#0000001040009E00
(1713559386.480663) can0 5B0#6342000000000028
(1713559386.481615) can0 140#0000030000000000
(1713559386.482095) can0 12F#F8100220000000CF
(1713559386.482330) can0 128#1388030000EC7877
(1713559386.482574) can0 12D#00000000000000D4
(1713559386.482822) can0 12E#000000000000C071
(1713559386.483070) can0 290#00000002000000DC
(1713559386.484357) can0 410#2880008B9F6E8B4B
(1713559386.484970) can0 120#000000000700007A
(1713559386.485224) can0 121#000000000000006A
(1713559386.485471) can0 129#000000010000006E
(1713559386.487577) can0 174#F87F00582F790DFF
(1713559386.487810) can0 178#EE7F0F6DFF920D35
(1713559386.488046) can0 17C#0280010040690D12
(1713559386.489135) can0 551#000000000004C000
(1713559386.489385) can0 5D1#9958000200000000
(1713559386.489897) can0 400#28800000000000CB
(1713559386.490461) can0 5D0#9958010200000000
(1713559386.490697) can0 5B1#008A9A6800000077
(1713559386.490936) can0 5CF#7444540000000000
(1713559386.492336) can0 12F#F81002200000002E
(1713559386.492584) can0 12D#0000000000000035
(1713559386.492828) can0 290#000000020000003D
(1713559386.494356) can0 410#2880008B9F6E8B7E
(1713559386.497535) can0 174#F87F00582C790E54
(1713559386.497768) can0 178#F07F0062FE920E31
(1713559386.498002) can0 17C#0A80010043690E6B
(1713559386.499100) can0 541#0440E800007FFF67
(1713559386.499355) can0 552#2EFFFFFFFFFFFFAC
(1713559386.499602) can0 450#005540001B004A00
(1713559386.499906) can0 400#288000000000002A
(1713559386.502109) can0 12F#F810022000000044
(1713559386.502342) can0 128#1388030000EC7896
(1713559386.502593) can0 12D#000000000000005F
(1713559386.502838) can0 12E#000000000000C090
(1713559386.503088) can0 140#0000030000000000
(1713559386.503344) can0 290#0000000200000057
(1713559386.504360) can0 410#2880008B9F6E8B9F
(1713559386.505067) can0 120#000000000700009B
(1713559386.505313) can0 121#000000000000008B
(1713559386.505554) can0 129#000000010000008F
(1713559386.507576) can0 174#F47F00582C790FF2
(1713559386.507811) can0 178#F87F014807930F22
(1713559386.508047) can0 17C#0C80010042690F2A
(1713559386.509140) can0 551#000000000004C000
(1713559386.509383) can0 550#48000C000100007C
(1713559386.509624) can0 5D1#9958000200000000
(1713559386.509996) can0 400#2880000000000040
(1713559386.512312) can0 12F#F80002200000007A
(1713559386.512552) can0 12A#1428701C60580098
(1713559386.512792) can0 12D#000000000000006A
(1713559386.513039) can0 290#0000000200000062
(1713559386.514353) can0 410#2880008B9F6E8BAA
(1713559386.516218) can0 6B9#0020400000000000
(1713559386.516456) can0 5A2#1410140000000000
(1713559386.517532) can0 174#F27F00582F790016
(1713559386.517777) can0 178#04800000179300F8
(1713559386.518013) can0 17C#0A8001004869004D
(1713559386.519083) can0 541#0440E800007FFF86
(1713559386.520001) can0 400#2880000000000075
(1713559386.522062) can0 12F#F810022000000090
(1713559386.522298) can0 128#1388030000EC78A3
(1713559386.522545) can0 12D#000000000000008B
(1713559386.522789) can0 12E#000000000000C0A5
(1713559386.523039) can0 140#0000030000000000
(1713559386.523291) can0 290#0000000200000083
(1713559386.524357) can0 410#2880008B9F6E8BC0
(1713559386.525155) can0 120#00000000070000AE
(1713559386.525406) can0 121#00000000000000BE
(1713559386.525646) can0 129#00000001000000BA
(1713559386.527582) can0 174#F27F005830790195
(1713559386.527819) can0 178#0A8000001C930164
(1713559386.528058) can0 17C#0480010056690140
(1713559386.529133) can0 551#000000000004C000
(1713559386.529382) can0 5D1#9958000200000000
(1713559386.530090) can0 400#2880000000000094
(1713559386.532292) can0 12F#F8100220000000A5
(1713559386.532538) can0 12D#00000000000000BE
(1713559386.532792) can0 290#00000002000000B6
(1713559386.534354) can0 410#2880008B9F6E8B21
(1713559386.537532) can0 174#EE7F0058347902B6
(1713559386.537765) can0 178#0680000D149302BB
(1713559386.538007) can0 17C#008001005B69028B
(1713559386.539089) can0 541#0440E800007FFFB3
(1713559386.540098) can0 400#28800000000000A1
(1713559386.542060) can0 12F#F8100220000000CF
(1713559386.542295) can0 128#1388030000EC78C9
(1713559386.542539) can0 12D#00000000000000D4
(1713559386.542784) can0 12E#000000000000C0CF
(1713559386.543032) can0 290#00000002000000DC
(1713559386.543282) can0 140#0000030000000000
(1713559386.544338) can0 410#2880008B9F6E8B4B
(1713559386.545254) can0 120#00000000070000C4
(1713559386.545498) can0 121#00000000000000D4
(1713559386.545742) can0 129#00000001000000D0
(1713559386.547582) can0 174#EA7F00583779034E
(1713559386.547820) can0 178#00800000079303AE
(1713559386.548060) can0 17C#FC7F010056690308
(1713559386.549151) can0 551#000000000004C000
(1713559386.549404) can0 552#2EFFFFFFFFFFFFC6
(1713559386.549653) can0 55A#0017160000000000
(1713559386.549901) can0 5D1#9958000200000000
(1713559386.550142) can0 5D2#7444540000000000
(1713559386.550389) can0 400#28800000000000CB
(1713559386.550631) can0 450#005540001B004A00
(1713559386.552357) can0 12F#F81002200000002E
(1713559386.552600) can0 12D#0000000000000035
(1713559386.552849) can0 290#000000020000003D
(1713559386.554318) can0 410#2880008B9F6E8B7E
(1713559386.557589) can0 174#E87F00583A790422
(1713559386.557821) can0 178#0080013601930494
(1713559386.558055) can0 17C#F47F010048690498
(1713559386.559084) can0 541#0440E800007FFFD9
(1713559386.559330) can0 550#48000C000100009D
(1713559386.560196) can0 400#288000000000002A
(1713559386.562076) can0 12F#F810022000000044
(1713559386.562314) can0 128#1388030000EC7828
(1713559386.562549) can0 12A#1428701C605800AD
(1713559386.562798) can0 12D#000000000000005F
(1713559386.563042) can0 12E#000000000000C02E
(1713559386.563288) can0 290#0000000200000057
(1713559386.563525) can0 5A0#0000006244928097
(1713559386.563775) can0 140#0000030000000000
(1713559386.564237) can0 410#2880008B9F6E8B9F
(1713559386.565332) can0 120#0000000007000025
(1713559386.565579) can0 121#0000000000000035
(1713559386.565871) can0 129#0000000100000031
(1713559386.567591) can0 174#E87F0058377905BA
(1713559386.567824) can0 178#0480023007930532
(1713559386.568064) can0 17C#EA7F01003A690576
(1713559386.569134) can0 551#000000000004C000
(1713559386.569384) can0 5D1#9958000200000000
(1713559386.570288) can0 400#2880000000000040
(1713559386.572315) can0 12F#F810022000000071
(1713559386.572556) can0 12D#000000000000006A
(1713559386.572805) can0 290#0000000200000062
(1713559386.574253) can0 410#2880008B9F6E8BAA
(1713559386.577595) can0 174#E87F005827790685
(1713559386.577825) can0 178#0680033111930645
(1713559386.578067) can0 17C#E47F0100296906C4
(1713559386.579051) can0 4EA#0000000000000000
(1713559386.579295) can0 541#0440E800007FFF38
(1713559386.579541) can0 5B2#0800000000000000
(1713559386.579786) can0 310#FFFFFFFF7D7D0000
(1713559386.580290) can0 400#2880000000000075
(1713559386.580937) can0 540#0000001040009E00
(1713559386.581179) can0 5B0#6342000000000042
(1713559386.582097) can0 12F#F810022000000090
(1713559386.582331) can0 128#1388030000EC7842
(1713559386.582578) can0 12D#000000000000008B
(1713559386.582821) can0 12E#000000000000C044
(1713559386.583071) can0 290#0010000200000088
(1713559386.584187) can0 410#2880008B9F6E8BC0
(1713559386.584434) can0 140#0000030000000000
(1713559386.585398) can0 120#000000000700004F
(1713559386.585645) can0 121#000000000000005F
(1713559386.585935) can0 129#000000010000005B
(1713559386.587601) can0 174#E87F0058197907B9
(1713559386.587834) can0 178#0680043815930754
(1713559386.588072) can0 17C#E87F010017690743
(1713559386.589130) can0 551#000000000004C000
(1713559386.589380) can0 5D1#9958000200000000
(1713559386.590382) can0 400#2880000000000094
(1713559386.590618) can0 5B1#008A9A6800000096
(1713559386.590860) can0 5D0#9958010200000000
(1713559386.591101) can0 5CF#7444540000000000
(1713559386.592291) can0 12F#F8000220000000AE
(1713559386.592537) can0 12D#00000000000000BE
(1713559386.592782) can0 290#00100002000000BD
(1713559386.594201) can0 410#2880008B9F6E8B21
(1713559386.597604) can0 174#E87F00581A79088E
(1713559386.597827) can0 178#0680053115930884
(1713559386.598065) can0 17C#F47F0100116908FF
(1713559386.600440) can0 400#28800000000000A1
(1713559386.601501) can0 541#0440E800007FFF52
(1713559386.601754) can0 552#28FFFFFFFFFFFF36
(1713559386.602003) can0 450#005540001B004A00
(1713559386.602237) can0 128#1388030000EC7877
(1713559386.602481) can0 12D#00000000000000D4
(1713559386.602729) can0 12E#000000000000C071
(1713559386.602971) can0 12F#F8100220000000CF
(1713559386.603218) can0 290#00100002000000D7
(1713559386.603806) can0 410#2880008B9F6E8B4B
(1713559386.604804) can0 140#0000030000000000
(1713559386.605504) can0 120#000000000700007A
(1713559386.605756) can0 121#000000000000006A
(1713559386.606004) can0 129#000000010000006E
(1713559386.607551) can0 174#E87F00582D790931
(1713559386.607783) can0 178#088006321793099F
(1713559386.608019) can0 17C#FC7F0100166909BA
(1713559386.609130) can0 551#000000000004C000
(1713559386.609375) can0 550#48000C00010000A8
(1713559386.609615) can0 5D1#9958000200000000
(1713559386.610481) can0 400#28800000000000CB
(1713559386.612360) can0 12F#F81002200000002E
(1713559386.612593) can0 12A#1428701C605800C7
(1713559386.612839) can0 12D#0000000000000035
(1713559386.613085) can0 290#0010000200000036
(1713559386.613827) can0 410#2880008B9F6E8B7E
(1713559386.616432) can0 6B9#0020400000000000
(1713559386.616674) can0 5A2#1410140000000000
(1713559386.617600) can0 174#EA7F005842790A7A
(1713559386.617832) can0 178#0E8007391A930AA2
(1713559386.618071) can0 17C#FC7F01001B690A18
(1713559386.619130) can0 541#0440E800007FFF67
(1713559386.620545) can0 400#288000000000002A
(1713559386.622067) can0 12F#F810022000000044
(1713559386.622301) can0 128#1388030000EC7896
(1713559386.622550) can0 12D#000000000000005F
(1713559386.622797) can0 12E#000000000000C090
(1713559386.623043) can0 290#0000000200000057
(1713559386.623756) can0 410#2880008B9F6E8B9F
(1713559386.625333) can0 140#0000030000000000
(1713559386.625598) can0 120#000000000700009B
(1713559386.625841) can0 121#000000000000008B
(1713559386.626083) can0 129#000000010000008F
(1713559386.627558) can0 174#EA7F00584A790B6B
(1713559386.627790) can0 178#1080082D18930B13
(1713559386.628030) can0 17C#F87F01001B690B6C
(1713559386.629080) can0 551#000000000004C000
(1713559386.629376) can0 5D1#9958000200000000
(1713559386.630582) can0 400#2880000000000040
(1713559386.632296) can0 12F#F810022000000071
(1713559386.632536) can0 12D#000000000000006A
(1713559386.632782) can0 290#0000000200000062
(1713559386.633770) can0 410#2880008B9F6E8BAA
(1713559386.637611) can0 174#E47F005846790C33
(1713559386.637844) can0 178#0C80093015930CC7
(1713559386.638082) can0 17C#F07F01001E690C64
(1713559386.639134) can0 541#0440E800007FFF86
(1713559386.640641) can0 400#2880000000000075
(1713559386.642051) can0 12F#F810022000000090
(1713559386.642287) can0 128#1388030000EC78A3
(1713559386.642533) can0 12D#000000000000008B
(1713559386.642777) can0 12E#000000000000C0A5
(1713559386.643029) can0 290#0000000200000083
(1713559386.643702) can0 410#2880008B9F6E8BC0
(1713559386.645695) can0 120#00000000070000AE
(1713559386.645941) can0 121#00000000000000BE
(1713559386.646183) can0 129#00000001000000BA
(1713559386.646433) can0 140#0000030000000000
(1713559386.647570) can0 174#E27F005842790DFB
(1713559386.647797) can0 178#04800A3214930D1E
(1713559386.648031) can0 17C#EC7F010024690D5C
(1713559386.649097) can0 551#000000000004C000
(1713559386.649399) can0 552#28FFFFFFFFFFFF5C
(1713559386.649642) can0 5D1#9958000200000000
(1713559386.649886) can0 5D2#7444540000000000
(1713559386.650134) can0 450#005540001B004A00
(1713559386.650678) can0 400#2880000000000094
(1713559386.652343) can0 12F#F8100220000000A5
(1713559386.652587) can0 12D#00000000000000BE
(1713559386.652833) can0 290#00000002000000B6
(1713559386.653717) can0 410#2880008B9F6E8B21
(1713559386.657620) can0 174#E87F00583F790E79
(1713559386.657849) can0 178#00800B3612930E71
(1713559386.658092) can0 17C#F67F01002C690EA6
(1713559386.659127) can0 541#0440E800007FFFB3
(1713559386.659400) can0 550#48000C00010000C2
(1713559386.660743) can0 400#28800000000000A1
(1713559386.662078) can0 12F#F8100220000000CF
(1713559386.662313) can0 128#1388030000EC78C9
(1713559386.662546) can0 12A#1428701C60580026
(1713559386.662790) can0 12D#00000000000000D4
(1713559386.663034) can0 12E#000000000000C0CF
(1713559386.663282) can0 290#00000002000000DC
(1713559386.663521) can0 5A0#00000062449280A2
(1713559386.663758) can0 410#2880008B9F6E8B4B
(1713559386.665792) can0 120#00000000070000C4
(1713559386.666036) can0 121#00000000000000D4
(1713559386.666279) can0 129#00000001000000D0
(1713559386.666529) can0 140#0000030000000000
(1713559386.667577) can0 174#F07F00583D790F0C
(1713559386.667809) can0 178#FC7F0C300D930F8B
(1713559386.668048) can0 17C#0280010038690F6C
(1713559386.669084) can0 551#000000000004C000
(1713559386.669333) can0 5D1#9958000200000000
(1713559386.670774) can0 400#28800000000000CB
(1713559386.672308) can0 12F#F81002200000002E
(1713559386.672550) can0 12D#0000000000000035
(1713559386.672798) can0 290#000000020000003D
(1713559386.673668) can0 410#2880008B9F6E8B7E
(1713559386.677632) can0 174#F87F00583D790065
(1713559386.677872) can0 178#FA7F00000C9300C1
(1713559386.678114) can0 17C#0A8001004B6900C1
(1713559386.678902) can0 4EA#0000000000000000
(1713559386.679139) can0 541#0440E800007FFFD9
(1713559386.679386) can0 5B2#0800000000000000
(1713559386.679628) can0 310#FFFFFFFF7D7D0000
(1713559386.680834) can0 400#288000000000002A
(1713559386.681426) can0 540#0000001040009E00
(1713559386.681667) can0 5B0#6342000000000077
(1713559386.682141) can0 12F#F810022000000044
(1713559386.682381) can0 128#1388030000EC7828
(1713559386.682629) can0 12D#000000000000005F
(1713559386.682825) can0 12E#000000000000C02E
(1713559386.683072) can0 290#0000000200000057
(1713559386.683594) can0 410#2880008B9F6E8B9F
(1713559386.685883) can0 120#0000000007000025
(1713559386.686131) can0 121#0000000000000035
(1713559386.686376) can0 129#0000000100000031
(1713559386.686918) can0 140#0000030000000000
(1713559386.687584) can0 174#FA7F00583F7901C1
(1713559386.687820) can0 178#FA7F01300F930155
(1713559386.688057) can0 17C#1080010059690116
(1713559386.689086) can0 551#000000000004C000
(1713559386.689333) can0 5D1#9958000200000000
(1713559386.690493) can0 5D0#9958010200000000
(1713559386.690729) can0 5B1#008A9A68000000A3
(1713559386.690980) can0 400#2880000000000040
(1713559386.691218) can0 5CF#7444540000000000
(1713559386.692316) can0 12F#F810022000000071
(1713559386.692563) can0 12D#000000000000006A
(1713559386.692806) can0 290#0000000200000062
(1713559386.693612) can0 410#2880008B9F6E8BAA
(1713559386.697639) can0 174#F87F00583F79025C
(1713559386.697870) can0 178#FC7F023211930229
(1713559386.698107) can0 17C#0E80010058690206
(1713559386.699159) can0 541#0440E800007FFF38
(1713559386.699402) can0 552#26FFFFFFFFFFFF62
(1713559386.699648) can0 450#005540001B004A00
(1713559386.700930) can0 400#2880000000000075
(1713559386.702150) can0 12F#F810022000000090
(1713559386.702384) can0 128#1388030000EC7842
(1713559386.702630) can0 12D#000000000000008B
(1713559386.702877) can0 12E#000000000000C044
(1713559386.703078) can0 290#0000000200000083
(1713559386.703542) can0 410#2880008B9F6E8BC0
(1713559386.705979) can0 120#000000000700004F
(1713559386.706227) can0 121#000000000000005F
(1713559386.706471) can0 129#000000010000005B
(1713559386.707446) can0 140#0000030000000000
(1713559386.707679) can0 174#F67F00583A7903C9
(1713559386.707915) can0 178#FC7F03360D930302
(1713559386.708151) can0 17C#06800100466903D8
(1713559386.709079) can0 551#000000000004C000
(1713559386.709322) can0 550#48000C0001000023
(1713559386.709562) can0 5D1#9958000200000000
(1713559386.710973) can0 400#2880000000000094
(1713559386.712307) can0 12F#F8100220000000A5
(1713559386.712537) can0 12A#1428701C6058004C
(1713559386.712787) can0 12D#00000000000000BE
(1713559386.713031) can0 290#00000002000000B6
(1713559386.713557) can0 410#2880008B9F6E8B21
(1713559386.716662) can0 6B9#0020400000000000
(1713559386.716903) can0 5A2#1410140000000000
(1713559386.717641) can0 174#F67F00583579041C
(1713559386.717881) can0 178#F87F043507930486
(1713559386.718120) can0 17C#FE7F01002C6904A6
(1713559386.719126) can0 541#0440E800007FFF52
(1713559386.721024) can0 400#28800000000000A1
(1713559386.722114) can0 12F#F8100220000000CF
(1713559386.722348) can0 128#1388030000EC7877
(1713559386.722592) can0 12D#00000000000000D4
(1713559386.722840) can0 12E#000000000000C071
(1713559386.723062) can0 290#00000002000000DC
(1713559386.723510) can0 410#2880008B9F6E8B4B
(1713559386.726073) can0 120#000000000700007A
(1713559386.726325) can0 121#000000000000006A
(1713559386.726573) can0 129#000000010000006E
(1713559386.727596) can0 174#F87F00582F790517
(1713559386.727830) can0 178#F27F05300393054C
(1713559386.728079) can0 140#0000030000000000
(1713559386.728317) can0 17C#FC7F010016690526
(1713559386.729076) can0 551#000000000004C000
(1713559386.729324) can0 5D1#9958000200000000
(1713559386.731068) can0 400#28800000000000CB
(1713559386.732294) can0 12F#F81002200000002E
(1713559386.732538) can0 12D#0000000000000035
(1713559386.732785) can0 290#000000020000003D
(1713559386.733534) can0 410#2880008B9F6E8B7E
(1713559386.737653) can0 174#F87F00582A7906B9
(1713559386.737884) can0 178#F07F0631019306F1
(1713559386.738126) can0 17C#04800100116906F9
(1713559386.739129) can0 541#0440E800007FFF67
(1713559386.741129) can0 400#288000000000002A
(1713559386.742145) can0 12F#F810022000000044
(1713559386.742377) can0 128#1388030000EC7896
(1713559386.742627) can0 12D#000000000000005F
(1713559386.742873) can0 12E#000000000000C090
(1713559386.743119) can0 290#001000020000005C
(1713559386.743527) can0 410#2880008B9F6E8B9F
(1713559386.746196) can0 120#000000000700009B
(1713559386.746440) can0 121#000000000000008B
(1713559386.746682) can0 129#000000010000008F
(1713559386.747605) can0 174#F87F00582F79072D
(1713559386.747838) can0 178#F67F073103930756
(1713559386.748078) can0 17C#0C8001001B690739
(1713559386.748502) can0 140#0000030000000000
(1713559386.749093) can0 551#000000000004C000
(1713559386.749346) can0 552#2CFFFFFFFFFFFF85
(1713559386.749593) can0 5D1#9958000200000000
(1713559386.749837) can0 5D2#7444540000000000
(1713559386.750084) can0 450#005540001B004A00
(1713559386.751117) can0 400#2880000000000040
(1713559386.752287) can0 12F#F810022000000071
(1713559386.752531) can0 12D#000000000000006A
(1713559386.752823) can0 290#0010000200000069
(1713559386.753477) can0 410#2880008B9F6E8BAA
(1713559386.757668) can0 174#F87F00583279080B
(1713559386.757902) can0 178#00800831FE9208A3
(1713559386.758143) can0 17C#0A8001001F690857
(1713559386.759121) can0 541#0440E800007FFF86
(1713559386.759411) can0 550#48000C0001000049
(1713559386.761235) can0 400#2880000000000075
(1713559386.762120) can0 12F#F810022000000090
(1713559386.762352) can0 128#1388030000EC78A3
(1713559386.762584) can0 12A#1428701C60580079
(1713559386.762830) can0 12D#000000000000008B
(1713559386.763074) can0 12E#000000000000C0A5
(1713559386.763338) can0 290#0000000200000083
(1713559386.763568) can0 410#2880008B9F6E8BC0
(1713559386.763803) can0 5A0#00000062449280C8
(1713559386.766263) can0 120#00000000070000AE
(1713559386.766509) can0 121#00000000000000BE
(1713559386.766751) can0 129#00000001000000BA
(1713559386.767610) can0 174#F87F00582D790988
(1713559386.767843) can0 178#06800930F6920996
(1713559386.768087) can0 17C#088001001F6909F0
(1713559386.769031) can0 140#0000030000000000
(1713559386.769277) can0 551#000000000004C000
(1713559386.769526) can0 5D1#9958000200000000
(1713559386.771214) can0 400#2880000000000094
(1713559386.772258) can0 12F#F8100220000000A5
(1713559386.772504) can0 12D#00000000000000BE
(1713559386.772798) can0 290#00000002000000B6
(1713559386.773451) can0 410#2880008B9F6E8B21
(1713559386.777662) can0 174#F87F005829790AA9
(1713559386.777893) can0 178#08800A38F8920A9B
(1713559386.778130) can0 17C#068001001F690AD6
(1713559386.778689) can0 4EA#0000000000000000
(1713559386.778935) can0 5B2#0800000000000000
(1713559386.779181) can0 310#FFFFFFFF7D7D0000
(1713559386.779425) can0 541#0440E800007FFFB3
(1713559386.781317) can0 400#28800000000000A1
(1713559386.781911) can0 540#0000001040009E00
(1713559386.782152) can0 12F#F8100220000000CF
(1713559386.782390) can0 128#1388030000EC78C9
(1713559386.782632) can0 12D#00000000000000D4
(1713559386.782876) can0 12E#000000000000C0CF
(1713559386.783124) can0 290#00000002000000DC
(1713559386.783386) can0 5B0#6342000000000096
(1713559386.783605) can0 410#2880008B9F6E8B4B
(1713559386.786361) can0 120#00000000070000C4
(1713559386.786605) can0 121#00000000000000D4
(1713559386.786847) can0 129#00000001000000D0
(1713559386.787628) can0 174#F47F00582A790B83
(1713559386.787865) can0 178#08800000FB920B5A
(1713559386.788103) can0 17C#0480010026690BDA
(1713559386.789074) can0 551#000000000004C000
(1713559386.789325) can0 5D1#9958000200000000
(1713559386.789575) can0 140#0000030000000000
(1713559386.790444) can0 5D0#9958010200000000
(1713559386.790681) can0 5B1#008A9A68000000C9
(1713559386.790918) can0 5CF#7444540000000000
(1713559386.791311) can0 400#28800000000000CB
(1713559386.792284) can0 12F#F81002200000002E
(1713559386.792528) can0 12D#0000000000000035
(1713559386.792820) can0 290#000000020000003D
(1713559386.793478) can0 410#2880008B9F6E8B7E
(1713559386.797670) can0 174#F07F005830790CAE
(1713559386.797900) can0 178#02800130FF920C62
(1713559386.798141) can0 17C#0080010035690C74
(1713559386.799139) can0 541#0440E800007FFFD9
(1713559386.799394) can0 552#2CFFFFFFFFFFFFB0
(1713559386.799640) can0 450#005540001B004A00
(1713559386.801401) can0 400#288000000000002A
(1713559386.802147) can0 12F#F810022000000044
(1713559386.802383) can0 128#1388030000EC7828
(1713559386.802636) can0 12D#000000000000005F
(1713559386.802877) can0 12E#000000000000C02E
(1713559386.803123) can0 290#0000000200000057
(1713559386.803526) can0 410#2880008B9F6E8B9F
(1713559386.806460) can0 120#0000000007000025
(1713559386.806708) can0 121#0000000000000035
(1713559386.806952) can0 129#0000000100000031
(1713559386.807621) can0 174#EE7F005832790D08
(1713559386.807858) can0 178#FE7F00000D930DA6
(1713559386.808094) can0 17C#0080010045690D21
(1713559386.809076) can0 551#000000000004C000
(1713559386.809320) can0 550#48000C000100007C
(1713559386.809561) can0 5D1#9958000200000000
(1713559386.810091) can0 140#0000030000000000
(1713559386.811416) can0 400#2880000000000040
(1713559386.812260) can0 12F#F810022000000071
(1713559386.812494) can0 12A#1428701C60580098
(1713559386.812739) can0 12D#000000000000006A
(1713559386.813036) can0 290#0000000200000062
(1713559386.813519) can0 410#2880008B9F6E8BAA
(1713559386.816916) can0 6B9#0020400000000000
(1713559386.817156) can0 5A2#1410140000000000
(1713559386.817674) can0 174#EE7F005830790E2C
(1713559386.817908) can0 178#0080015323930E78
(1713559386.818145) can0 17C#0080010058690E9B
(1713559386.819120) can0 541#0440E800007FFF38
(1713559386.821499) can0 400#2880000000000075
(1713559386.822108) can0 12F#F810022000000090
(1713559386.822340) can0 128#1388030000EC7842
(1713559386.822587) can0 12D#000000000000008B
(1713559386.822831) can0 12E#000000000000C044
(1713559386.823081) can0 290#0010000200000088
(1713559386.823494) can0 410#2880008B9F6E8BC0
(1713559386.826554) can0 120#000000000700004F
(1713559386.826801) can0 121#000000000000005F
(1713559386.827046) can0 129#000000010000005B
(1713559386.827636) can0 174#EE7F00582C790F23
(1713559386.827868) can0 178#0280024332930FD3
(1713559386.828104) can0 17C#0080010063690F2E
(1713559386.829072) can0 551#000000000004C000
(1713559386.829322) can0 5D1#9958000200000000
(1713559386.830622) can0 140#0000030000000000
(1713559386.831502) can0 400#2880000000000094
(1713559386.832241) can0 12F#F8100220000000A5
(1713559386.832488) can0 12D#00000000000000BE
(1713559386.832735) can0 290#00100002000000BD
(1713559386.833434) can0 410#2880008B9F6E8B21
(1713559386.837685) can0 174#EE7F00582C790098
(1713559386.837919) can0 178#008003322D930040
(1713559386.838157) can0 17C#FC7F010058690026
(1713559386.839121) can0 541#0440E800007FFF52
(1713559386.841603) can0 400#28800000000000A1
(1713559386.842107) can0 12F#F8100220000000CF
(1713559386.842340) can0 128#1388030000EC7877
(1713559386.842584) can0 12D#00000000000000D4
(1713559386.842832) can0 12E#000000000000C071
(1713559386.843080) can0 290#00000002000000DC
(1713559386.843486) can0 410#2880008B9F6E8B4B
(1713559386.846659) can0 120#000000000700007A
(1713559386.846910) can0 121#000000000000006A
(1713559386.847158) can0 129#000000010000006E
(1713559386.847643) can0 174#F07F0058357901A6
(1713559386.847881) can0 178#FC7F0430209301EF
(1713559386.848123) can0 17C#F87F010035690187
(1713559386.849090) can0 551#000000000004C000
(1713559386.849345) can0 552#28FFFFFFFFFFFFD7
(1713559386.849591) can0 5D1#9958000200000000
(1713559386.849835) can0 5D2#7444540000000000
(1713559386.850083) can0 450#005540001B004A00
(1713559386.851155) can0 140#0000030000000000
(1713559386.851602) can0 400#28800000000000CB
(1713559386.852290) can0 12F#F81002200000002E
(1713559386.852535) can0 12D#0000000000000035
(1713559386.852783) can0 290#000000020000003D
(1713559386.853485) can0 410#2880008B9F6E8B7E
(1713559386.857691) can0 174#F27F0058407902FA
(1713559386.857923) can0 178#FA7F0530159302D0
(1713559386.858160) can0 17C#F47F010017690228
(1713559386.859117) can0 541#0440E800007FFF67
(1713559386.859383) can0 550#48000C000100009D
(1713559386.861695) can0 400#288000000000002A
(1713559386.862124) can0 12F#F810022000000044
(1713559386.862356) can0 128#1388030000EC7896
(1713559386.862591) can0 12A#1428701C605800AD
(1713559386.862840) can0 12D#000000000000005F
(1713559386.863087) can0 12E#000000000000C090
(1713559386.863354) can0 290#0000000200000057
(1713559386.863574) can0 410#2880008B9F6E8B9F
(1713559386.863811) can0 5A0#0000006244928029
(1713559386.866748) can0 120#000000000700009B
(1713559386.866991) can0 121#000000000000008B
(1713559386.867233) can0 129#000000010000008F
(1713559386.867637) can0 174#F27F00584579036E
(1713559386.867874) can0 178#F87F0632099303FC
(1713559386.868112) can0 17C#F47F010013690333
(1713559386.869074) can0 551#000000000004C000
(1713559386.869325) can0 5D1#9958000200000000
(1713559386.871687) can0 140#0000030000000000
(1713559386.871935) can0 400#2880000000000040
(1713559386.872259) can0 12F#F810022000000071
(1713559386.872505) can0 12D#000000000000006A
(1713559386.872753) can0 290#0000000200000062
(1713559386.873440) can0 410#2880008B9F6E8BAA
(1713559386.877695) can0 174#EE7F00583D79047B
(1713559386.877929) can0 178#FA7F0737FE9204E2
(1713559386.878171) can0 17C#F87F010024690479
(1713559386.878485) can0 4EA#0000000000000000
(1713559386.878730) can0 5B2#0800000000000000
(1713559386.878976) can0 310#FFFFFFFF7D7D0000
(1713559386.879218) can0 541#0440E800007FFF86
(1713559386.881790) can0 400#2880000000000075
(1713559386.882112) can0 12F#F810022000000090
(1713559386.882345) can0 128#1388030000EC78A3
(1713559386.882586) can0 12D#000000000000008B
(1713559386.882830) can0 12E#000000000000C0A5
(1713559386.883077) can0 290#0020000200000095
(1713559386.883348) can0 540#0000001040009E00
(1713559386.883564) can0 410#2880008B9F6E8BC0
(1713559386.883805) can0 5B0#63420000000000A3
(1713559386.886846) can0 120#00000000070000AE
(1713559386.887091) can0 121#00000000000000BE
(1713559386.887339) can0 129#00000001000000BA
(1713559386.887646) can0 174#EA7F005835790503
(1713559386.887882) can0 178#FA7F085FFB920548
(1713559386.888120) can0 17C#FA7F01003169054F
(1713559386.889548) can0 551#000000000004C000
(1713559386.889798) can0 5D1#9958000200000000
(1713559386.890462) can0 5D0#9958010200000000
(1713559386.890701) can0 5B1#008A9A6800000028
(1713559386.890938) can0 5CF#7444540000000000
(1713559386.891796) can0 400#2880000000000094
(1713559386.892217) can0 140#0000030000000000
(1713559386.892465) can0 12D#00000000000000BE
(1713559386.892705) can0 12F#F8100220000000A5
(1713559386.892950) can0 290#00200002000000A0
(1713559386.893365) can0 410#2880008B9F6E8B21
(1713559386.897705) can0 174#EA7F005837790627
(1713559386.897931) can0 178#FC7F093004930622
(1713559386.898175) can0 17C#F87F01002D6906C0
(1713559386.899128) can0 541#0440E800007FFFB3
(1713559386.899408) can0 552#28FFFFFFFFFFFF36
(1713559386.899628) can0 450#005540001B004A00
(1713559386.901883) can0 400#28800000000000A1
(1713559386.902145) can0 12F#F8100220000000CF
(1713559386.902393) can0 128#1388030000EC78C9
(1713559386.902627) can0 12D#00000000000000D4
(1713559386.902870) can0 12E#000000000000C0CF
(1713559386.903117) can0 290#00000002000000DC
(1713559386.903522) can0 410#2880008B9F6E8B4B
(1713559386.906945) can0 120#00000000070000C4
(1713559386.907187) can0 121#00000000000000D4
(1713559386.907429) can0 129#00000001000000D0
(1713559386.907668) can0 174#EE7F00583A7907D6
(1713559386.907900) can0 178#FE7F0A370F93074F
(1713559386.908145) can0 17C#F87F0100216907D7
(1713559386.909075) can0 551#000000000004C000
(1713559386.909319) can0 550#48000C00010000A8
(1713559386.909559) can0 5D1#9958000200000000
(1713559386.911892) can0 400#28800000000000CB
(1713559386.912261) can0 12F#F81002200000002E
(1713559386.912499) can0 12A#1428701C605800C7
(1713559386.912744) can0 12D#0000000000000035
(1713559386.912994) can0 140#0000030000000000
(1713559386.913242) can0 290#000000020000003D
(1713559386.913482) can0 410#2880008B9F6E8B7E
(1713559386.917142) can0 6B9#0020400000000000
(1713559386.917382) can0 5A2#1410140000000000
(1713559386.917702) can0 174#F27F0058377908EA
(1713559386.917935) can0 178#FC7F0B310F93084D
(1713559386.918175) can0 17C#FE7F01001969089B
(1713559386.919115) can0 541#0440E800007FFFD9
(1713559386.921985) can0 400#288000000000002A
(1713559386.922234) can0 12D#000000000000005F
(1713559386.922471) can0 128#1388030000EC7828
(1713559386.922723) can0 12E#000000000000C02E
(1713559386.922959) can0 12F#F810022000000044
(1713559386.923206) can0 290#0000000200000057
(1713559386.923445) can0 410#2880008B9F6E8B9F
(1713559386.927094) can0 120#0000000007000025
(1713559386.927354) can0 121#0000000000000035
(1713559386.927587) can0 129#0000000100000031
(1713559386.927812) can0 174#F47F005835790927
(1713559386.928001) can0 178#FA7F00000A930931
(1713559386.928239) can0 17C#00800100146909A2
(1713559386.929065) can0 551#000000000004C000
(1713559386.929314) can0 5D1#9958000200000000
(1713559386.931992) can0 400#2880000000000040
(1713559386.932249) can0 12F#F810022000000071
(1713559386.932495) can0 12D#000000000000006A
(1713559386.932744) can0 290#0000000200000062
(1713559386.933279) can0 140#0000030000000000
(1713559386.933514) can0 410#2880008B9F6E8BAA
(1713559386.937714) can0 174#F47F005834790A8F
(1713559386.937940) can0 178#F67F013707930AD9
(1713559386.938176) can0 17C#FE7F010014690A24
(1713559386.939120) can0 541#0440E800007FFF38
(1713559386.942081) can0 400#2880000000000075
(1713559386.942312) can0 128#1388030000EC7842
(1713559386.942558) can0 12D#000000000000008B
(1713559386.942802) can0 12E#000000000000C044
(1713559386.943050) can0 12F#F810022000000090
(1713559386.943296) can0 290#0000000200000083
(1713559386.943536) can0 410#2880008B9F6E8BC0
(1713559386.947137) can0 120#000000000700004F
(1713559386.947386) can0 121#000000000000005F
(1713559386.947629) can0 129#000000010000005B
(1713559386.947861) can0 174#F27F005834790B41
(1713559386.948095) can0 178#F07F022E0C930B0D
(1713559386.948334) can0 17C#F87F010022690BC7
(1713559386.949085) can0 551#000000000004C000
(1713559386.949337) can0 552#28FFFFFFFFFFFF5C
(1713559386.949583) can0 5D1#9958000200000000
(1713559386.949827) can0 5D2#7444540000000000
(1713559386.950075) can0 450#005540001B004A00
(1713559386.952086) can0 400#2880000000000094
(1713559386.952326) can0 12F#F8100220000000A5
(1713559386.952573) can0 12D#00000000000000BE
(1713559386.952819) can0 290#00000002000000B6
(1713559386.953170) can0 410#2880008B9F6E8B21
(1713559386.953808) can0 140#0000030000000000
(1713559386.957717) can0 174#F27F00583A790C1B
(1713559386.957946) can0 178#F07F033114930C6D
(1713559386.958183) can0 17C#FA7F010038690C39
(1713559386.959112) can0 541#0440E800007FFF52
(1713559386.959385) can0 550#48000C00010000C2
(1713559386.962144) can0 12F#F8100220000000CF
(1713559386.962377) can0 128#1388030000EC7877
(1713559386.962611) can0 12A#1428701C60580026
(1713559386.962855) can0 12D#00000000000000D4
(1713559386.963103) can0 12E#000000000000C071
(1713559386.963386) can0 290#00000002000000DC
(1713559386.963600) can0 400#28800000000000A1
(1713559386.963836) can0 410#2880008B9F6E8B4B
(1713559386.964073) can0 5A0#0000006244928043
(1713559386.967240) can0 120#000000000700007A
(1713559386.967486) can0 121#000000000000006A
(1713559386.967734) can0 129#000000010000006E
(1713559386.967962) can0 174#F47F00584A790D9D
(1713559386.968196) can0 178#F47F04301C930D83
(1713559386.968434) can0 17C#FE7F010040690D09
(1713559386.969072) can0 551#000000000004C000
(1713559386.969321) can0 5D1#9958000200000000
(1713559386.972184) can0 400#28800000000000CB
(1713559386.972429) can0 12D#0000000000000035
(1713559386.972671) can0 12F#F81002200000002E
(1713559386.972919) can0 290#000000020000003D
(1713559386.973160) can0 410#2880008B9F6E8B7E
(1713559386.973902) can0 6AB#A5CD1C2E77A3E100
(1713559386.974337) can0 140#0000030000000000
(1713559386.977720) can0 174#F47F005856790EA8
(1713559386.977952) can0 178#F47F00001C930E7E
(1713559386.978192) can0 17C#FE7F01003D690EE3
(1713559386.978442) can0 4EA#0000000000000000
(1713559386.978687) can0 5B2#0800000000000000
(1713559386.978933) can0 310#FFFFFFFF7D7D0000
(1713559386.979177) can0 541#0440E800007FFF67
(1713559386.982106) can0 12F#F810022000000044
(1713559386.982335) can0 128#1388030000EC7896
(1713559386.982586) can0 12D#000000000000005F
(1713559386.982832) can0 12E#000000000000C090
(1713559386.983078) can0 290#0000000200000057
(1713559386.983354) can0 400#288000000000002A
(1713559386.983569) can0 410#2880008B9F6E8B9F
(1713559386.983813) can0 540#0000001040009E00
(1713559386.984060) can0 5B0#63420000000000C9
(1713559386.987403) can0 120#000000000700009B
(1713559386.987622) can0 121#000000000000008B
(1713559386.987863) can0 129#000000010000008F
(1713559386.988048) can0 174#F27F005851790FEC
(1713559386.988284) can0 178#F07F01380F930F07
(1713559386.988525) can0 17C#008001003D690F5F
(1713559386.989068) can0 551#000000000004C000
(1713559386.989318) can0 5D1#9958000200000000
(1713559386.990470) can0 5D0#9958010200000000
(1713559386.990706) can0 5B1#008A9A6800000042
(1713559386.990944) can0 5CF#7444540000000000
(1713559386.992281) can0 400#2880000000000040
(1713559386.992526) can0 12D#000000000000006A
(1713559386.992768) can0 12F#F810022000000071
(1713559386.993016) can0 290#0000000200000062
(1713559386.993253) can0 410#2880008B9F6E8BAA
(1713559386.994867) can0 140#0000030000000000
(1713559386.997735) can0 174#EE7F0058427900C1
(1713559386.997965) can0 178#F27F023206930080
(1713559386.998207) can0 17C#048001003A690007
(1713559386.999125) can0 541#0440E800007FFF86
(1713559386.999401) can0 552#0AFFFFFFFFFFFF77
(1713559386.999626) can0 450#005540001B004A00
(1713559387.002188) can0 12F#F810022000000090
(1713559387.002421) can0 128#1388030000EC78A3
(1713559387.002667) can0 12D#000000000000008B
(1713559387.002911) can0 12E#000000000000C0A5
(1713559387.003164) can0 290#0000000200000083
(1713559387.003413) can0 400#2880000000000075
(1713559387.003650) can0 410#2880008B9F6E8BC0
(1713559387.007483) can0 120#00000000070000AE
(1713559387.007722) can0 121#00000000000000BE
(1713559387.007963) can0 129#00000001000000BA
(1713559387.008196) can0 174#EE7F005834790191
(1713559387.008429) can0 178#F47F033206930124
(1713559387.008667) can0 17C#0480010034690113
(1713559387.009115) can0 551#000000000004C000
(1713559387.009356) can0 550#48000C0001000023
(1713559387.009597) can0 5D1#9958000200000000
(1713559387.012261) can0 12F#F8100220000000A5
(1713559387.012491) can0 12A#1428701C6058004C
(1713559387.012739) can0 12D#00000000000000BE
(1713559387.012985) can0 290#00000002000000B6
(1713559387.013231) can0 400#2880000000000094
(1713559387.013467) can0 410#2880008B9F6E8B21
(1713559387.015397) can0 140#0000030000000000
(1713559387.017296) can0 6B9#0020400000000000
(1713559387.017540) can0 5A2#1410140000000000
(1713559387.017777) can0 174#F07F00582D790295
(1713559387.018010) can0 178#F67F04350F9302C5
(1713559387.018250) can0 17C#028001002F69027F
(1713559387.019110) can0 541#0440E800007FFFB3
(1713559387.022108) can0 12F#F8100220000000CF
(1713559387.022343) can0 128#1388030000EC78C9
(1713559387.022587) can0 12D#00000000000000D4
(1713559387.022833) can0 12E#000000000000C0CF
(1713559387.023079) can0 290#00000002000000DC
(1713559387.023345) can0 400#28800000000000A1
(1713559387.023565) can0 410#2880008B9F6E8B4B
(1713559387.027574) can0 120#00000000070000C4
(1713559387.027817) can0 121#00000000000000D4
(1713559387.028058) can0 129#00000001000000D0
(1713559387.028290) can0 174#F27F00582D790332
(1713559387.028528) can0 178#F27F000014930320
(1713559387.028766) can0 17C#028001001C6903C6
(1713559387.029126) can0 551#000000000004C000
(1713559387.029376) can0 5D1#9958000200000000
(1713559387.032243) can0 12F#F81002200000002E
(1713559387.032488) can0 12D#0000000000000035
(1713559387.032736) can0 290#000000020000003D
(1713559387.032983) can0 400#28800000000000CB
(1713559387.033224) can0 410#2880008B9F6E8B7E
(1713559387.035926) can0 140#0000030000000000
(1713559387.037703) can0 174#F47F00583079042F
(1713559387.037940) can0 178#EA7F01320F9304A2
(1713559387.038181) can0 17C#00800100FE6804F0
(1713559387.039067) can0 541#0440E800007FFFD9
(1713559387.042103) can0 12F#F810022000000044
(1713559387.042339) can0 128#1388030000EC7828
(1713559387.042589) can0 12D#000000000000005F
(1713559387.042834) can0 12E#000000000000C02E
(1713559387.043080) can0 290#0000000200000057
(1713559387.043345) can0 400#288000000000002A
(1713559387.043570) can0 410#2880008B9F6E8B9F
(1713559387.047673) can0 120#0000000007000025
(1713559387.047926) can0 121#0000000000000035
(1713559387.048164) can0 129#0000000100000031
(1713559387.048401) can0 174#F47F005830790532
(1713559387.048634) can0 178#E87F02300693051F
(1713559387.048871) can0 17C#FE7F0100EF6805DB
(1713559387.049145) can0 551#000000000004C000
(1713559387.049395) can0 552#0AFFFFFFFFFFFF96
(1713559387.049641) can0 5D1#9958000200000000
(1713559387.049883) can0 5D2#7444540000000000
(1713559387.050131) can0 450#005540001B004A00
(1713559387.052288) can0 12F#F810022000000071
(1713559387.052533) can0 12D#000000000000006A
(1713559387.052781) can0 290#0000000200000062
(1713559387.053029) can0 400#2880000000000040
(1713559387.053266) can0 410#2880008B9F6E8BAA
(1713559387.055424) can0 6E2#0544000000000000
(1713559387.056456) can0 140#0000030000000000
(1713559387.057700) can0 174#F47F00582979068E
(1713559387.057938) can0 178#F07F033201930694
(1713559387.058177) can0 17C#FE7F0100FA68066D
(1713559387.059060) can0 541#0440E800007FFF38
(1713559387.059304) can0 550#48000C0001000049
(1713559387.062119) can0 12F#F810022000000090
(1713559387.062351) can0 128#1388030000EC7842
(1713559387.062583) can0 12A#1428701C60580079
(1713559387.062829) can0 12D#000000000000008B
(1713559387.063074) can0 12E#000000000000C044
(1713559387.063344) can0 290#0000000200000083
(1713559387.063573) can0 400#2880000000000075
(1713559387.063812) can0 410#2880008B9F6E8BC0
(1713559387.064050) can0 5A0#0000006244928076
(1713559387.067769) can0 120#000000000700004F
(1713559387.068014) can0 121#000000000000005F
(1713559387.068266) can0 129#000000010000005B
(1713559387.068499) can0 174#F47F005825790799
(1713559387.068729) can0 178#F67F043304930745
(1713559387.068970) can0 17C#FE7F01001369072F
(1713559387.069217) can0 551#000000000004C000
(1713559387.069467) can0 5D1#9958000200000000
(1713559387.072256) can0 12F#F8100220000000A5
(1713559387.072504) can0 12D#00000000000000BE
(1713559387.072750) can0 290#00000002000000B6
(1713559387.072995) can0 400#2880000000000094
(1713559387.073232) can0 410#2880008B9F6E8B21
(1713559387.076985) can0 140#0000030000000000
(1713559387.077722) can0 174#F67F00582C79081B
(1713559387.077950) can0 178#F47F05310D93088A
(1713559387.078188) can0 17C#FA7F0100276908D3
(1713559387.078439) can0 4EA#0000000000000000
(1713559387.078683) can0 5B2#0800000000000000
(1713559387.078930) can0 310#FFFFFFFF7D7D0000
(1713559387.081505) can0 541#0440E800007FFF52
(1713559387.082101) can0 12F#F8100220000000CF
(1713559387.082335) can0 128#1388030000EC7877
(1713559387.082580) can0 12D#00000000000000D4
(1713559387.082827) can0 12E#000000000000C071
(1713559387.083073) can0 290#00100002000000D7
(1713559387.083347) can0 400#28800000000000A1
(1713559387.083560) can0 410#2880008B9F6E8B4B
(1713559387.083804) can0 540#0000001040009E00
(1713559387.084046) can0 5B0#6342000000000028
(1713559387.087775) can0 174#F47F00582F790930
(1713559387.088020) can0 120#000000000700007A
(1713559387.088272) can0 121#000000000000006A
(1713559387.088528) can0 129#000000010000006E
(1713559387.088759) can0 178#F67F06301893099F
(1713559387.088995) can0 17C#F47F0100316909D2
(1713559387.089239) can0 551#000000000004C000
(1713559387.089489) can0 5D1#9958000200000000
(1713559387.090529) can0 5D0#9958010200000000
(1713559387.090765) can0 5B1#008A9A6800000077
(1713559387.091003) can0 5CF#7444540000000000
(1713559387.092332) can0 12F#F81002200000002E
(1713559387.092529) can0 12D#0000000000000035
(1713559387.092772) can0 290#0010000200000036
(1713559387.093018) can0 400#28800000000000CB
(1713559387.093258) can0 410#2880008B9F6E8B7E
(1713559387.097511) can0 140#0000030000000000
(1713559387.097742) can0 174#F27F005829790AC1
(1713559387.097974) can0 178#FE7F07311C930A9B
(1713559387.098208) can0 17C#F47F010032690A79
(1713559387.099075) can0 541#0440E800007FFF67
(1713559387.099336) can0 552#00FFFFFFFFFFFFA5
(1713559387.099577) can0 450#005540001B004A00
(1713559387.102148) can0 12F#F810022000000044
(1713559387.102381) can0 128#1388030000EC7896
(1713559387.102631) can0 12D#000000000000005F
(1713559387.102876) can0 12E#000000000000C090
(1713559387.103123) can0 290#0000000200000057
(1713559387.103395) can0 400#288000000000002A
(1713559387.103612) can0 410#2880008B9F6E8B9F
(1713559387.107772) can0 174#F07F005824790BE3
(1713559387.108015) can0 120#000000000700009B
(1713559387.108260) can0 121#000000000000008B
(1713559387.108502) can0 129#000000010000008F
(1713559387.108740) can0 178#0480083814930B3F
(1713559387.108978) can0 17C#F87F010031690B53
(1713559387.109232) can0 551#000000000004C000
(1713559387.109473) can0 550#48000C000100007C
(1713559387.109709) can0 5D1#9958000200000000
(1713559387.112309) can0 12F#F810022000000071
(1713559387.112541) can0 12A#1428701C60580098
(1713559387.112787) can0 12D#000000000000006A
(1713559387.113034) can0 290#0000000200000062
(1713559387.113235) can0 400#2880000000000040
(1713559387.113471) can0 410#2880008B9F6E8BAA
(1713559387.117502) can0 6B9#0020400000000000
(1713559387.117745) can0 5A2#1410140000000000
(1713559387.117979) can0 174#F07F00582A790CB9
(1713559387.118229) can0 140#0000030000000000
(1713559387.118465) can0 178#0680000006930C49
(1713559387.118704) can0 17C#FC7F01002F690C78
(1713559387.119078) can0 541#0440E800007FFF86
(1713559387.122060) can0 12F#F810022000000090
(1713559387.122295) can0 128#1388030000EC78A3
(1713559387.122540) can0 12D#000000000000008B
(1713559387.122784) can0 12E#000000000000C0A5
(1713559387.123036) can0 290#0000000200000083
(1713559387.123282) can0 400#2880000000000075
(1713559387.123569) can0 410#2880008B9F6E8BC0
(1713559387.127777) can0 174#EC7F005835790D38
(1713559387.128014) can0 178#02800000F8920DF0
(1713559387.128261) can0 120#00000000070000AE
(1713559387.128507) can0 121#00000000000000BE
(1713559387.128749) can0 129#00000001000000BA
(1713559387.128987) can0 17C#FC7F01002D690D66
(1713559387.129233) can0 551#000000000004C000
(1713559387.129483) can0 5D1#9958000200000000
(1713559387.132298) can0 12F#F8000220000000AE
(1713559387.132537) can0 12D#00000000000000BE
(1713559387.132784) can0 290#00000002000000B6
(1713559387.133018) can0 410#2880008B9F6E8B21
(1713559387.133263) can0 400#2880000000000094
(1713559387.137728) can0 174#EC7F00583A790E99
(1713559387.137959) can0 178#FE7F0152F6920E39
(1713559387.138195) can0 17C#FC7F010027690E4E
(1713559387.138569) can0 140#0000030000000000
(1713559387.139060) can0 541#0440E800007FFFB3
(1713559387.142051) can0 12F#F8100220000000CF
(1713559387.142287) can0 128#1388030000EC78C9
(1713559387.142531) can0 12D#00000000000000D4
(1713559387.142774) can0 12E#000000000000C0CF
(1713559387.143022) can0 290#00000002000000DC
(1713559387.143268) can0 400#28800000000000A1
(1713559387.143508) can0 410#2880008B9F6E8B4B
(1713559387.147791) can0 174#F07F00583A790F86
(1713559387.148025) can0 178#F67F026FFE920F64
(1713559387.148269) can0 120#00000000070000C4
(1713559387.148513) can0 121#00000000000000D4
(1713559387.148755) can0 129#00000001000000D0
(1713559387.148995) can0 17C#F87F010022690FB3
(1713559387.149241) can0 551#000000000004C000
(1713559387.149495) can0 552#00FFFFFFFFFFFFCF
(1713559387.149741) can0 5D1#9958000200000000
(1713559387.150029) can0 5D2#7444540000000000
(1713559387.150277) can0 450#005540001B004A00
(1713559387.152332) can0 12F#F81002200000002E
(1713559387.152577) can0 12D#0000000000000035
(1713559387.152823) can0 290#000000020000003D
(1713559387.153064) can0 410#2880008B9F6E8B7E
(1713559387.153310) can0 400#28800000000000CB
(1713559387.157748) can0 174#F07F00583A79003D
(1713559387.157985) can0 178#F47F03620A930082
(1713559387.158224) can0 17C#F47F01002769003A
(1713559387.159054) can0 541#0440E800007FFFD9
(1713559387.159304) can0 140#0000030000000000
(1713559387.159548) can0 550#48000C000100009D
(1713559387.162073) can0 12F#F810022000000044
(1713559387.162310) can0 128#1388030000EC7828
(1713559387.162545) can0 12A#1428701C605800AD
(1713559387.162795) can0 12D#000000000000005F
(1713559387.163039) can0 12E#000000000000C02E
(1713559387.163285) can0 290#0000000200000057
(1713559387.163534) can0 400#288000000000002A
(1713559387.163773) can0 410#2880008B9F6E8B9F
(1713559387.164058) can0 5A0#0000006244928097
(1713559387.167794) can0 174#F07F00583B7901AF
(1713559387.168022) can0 178#F67F04650F930153
(1713559387.168264) can0 17C#F47F01002F69012B
(1713559387.168510) can0 120#0000000007000025
(1713559387.168758) can0 121#0000000000000035
(1713559387.169002) can0 129#0000000100000031
(1713559387.169248) can0 551#000000000004C000
(1713559387.169496) can0 5D1#9958000200000000
(1713559387.172304) can0 12F#F810022000000071
(1713559387.172549) can0 12D#000000000000006A
(1713559387.172804) can0 290#0000000200000062
(1713559387.173035) can0 410#2880008B9F6E8BAA
(1713559387.173281) can0 400#2880000000000040
(1713559387.177761) can0 174#F07F00583F79028E
(1713559387.177996) can0 178#FE7F05721193020C
(1713559387.178239) can0 17C#FC7F0100356902C9
(1713559387.178488) can0 4EA#0000000000000000
(1713559387.178734) can0 5B2#0800000000000000
(1713559387.178980) can0 310#FFFFFFFF7D7D0000
(1713559387.179224) can0 541#0440E800007FFF38
(1713559387.179629) can0 140#0000030000000000
(1713559387.182048) can0 12F#F810022000000090
(1713559387.182282) can0 128#1388030000EC7842
(1713559387.182528) can0 12D#000000000000008B
(1713559387.182773) can0 12E#000000000000C044
(1713559387.183025) can0 290#0000000200000083
(1713559387.183271) can0 400#2880000000000075
(1713559387.183512) can0 410#2880008B9F6E8BC0
(1713559387.183885) can0 540#0000001040009E00
(1713559387.184127) can0 5B0#6342000000000042
(1713559387.187800) can0 174#EE7F0058407903E5
(1713559387.188029) can0 178#048006741193030E
(1713559387.188267) can0 17C#0680010034690393
(1713559387.188513) can0 120#000000000700004F
(1713559387.188764) can0 121#000000000000005F
(1713559387.189005) can0 129#000000010000005B
(1713559387.189252) can0 551#000000000004C000
(1713559387.189502) can0 5D1#9958000200000000
(1713559387.190544) can0 5D0#9958010200000000
(1713559387.190768) can0 5B1#008A9A6800000096
(1713559387.191011) can0 5CF#7444540000000000
(1713559387.192343) can0 12F#F8100220000000A5
(1713559387.192584) can0 12D#00000000000000BE
(1713559387.192830) can0 290#00000002000000B6
(1713559387.193073) can0 410#2880008B9F6E8B21
(1713559387.193319) can0 400#2880000000000094
(1713559387.197750) can0 174#E87F00583D7904A8
(1713559387.197985) can0 178#028007200C930486
(1713559387.198223) can0 17C#0C800100266904B3
(1713559387.199068) can0 541#0440E800007FFF52
(1713559387.199332) can0 552#00FFFFFFFFFFFF2E
(1713559387.199572) can0 450#005540001B004A00
(1713559387.200155) can0 140#0000030000000000
(1713559387.202099) can0 12F#F8100220000000CF
(1713559387.202332) can0 128#1388030000EC7877
(1713559387.202576) can0 12D#00000000000000D4
(1713559387.202824) can0 12E#000000000000C071
(1713559387.203072) can0 290#00000002000000DC
(1713559387.203311) can0 410#2880008B9F6E8B4B
(1713559387.203557) can0 400#28800000000000A1
(1713559387.207803) can0 174#E47F00583479058D
(1713559387.208033) can0 178#FC7F08420193053A
(1713559387.208271) can0 17C#0C8001001C690589
(1713559387.208519) can0 120#000000000700007A
(1713559387.208771) can0 121#000000000000006A
(1713559387.209019) can0 129#000000010000006E
(1713559387.209266) can0 550#48000C00010000A8
(1713559387.209509) can0 551#000000000004C000
(1713559387.209760) can0 5D1#9958000200000000
(1713559387.212310) can0 12F#F800022000000025
(1713559387.212544) can0 12A#1428701C605800C7
(1713559387.212790) can0 12D#0000000000000035
(1713559387.213038) can0 290#000000020000003D
(1713559387.213286) can0 410#2880008B9F6E8B7E
(1713559387.213526) can0 400#28800000000000CB
(1713559387.217713) can0 6B9#0020400000000000
(1713559387.217949) can0 174#E67F00582A790601
(1713559387.218185) can0 178#F87F096FFB9206D0
(1713559387.218425) can0 17C#088001001F69064B
(1713559387.218669) can0 5A2#1410140000000000
(1713559387.219055) can0 541#0440E800007FFF67
(1713559387.220684) can0 140#0000030000000000
(1713559387.222060) can0 12F#F810022000000044
(1713559387.222293) can0 128#1388030000EC7896
(1713559387.222543) can0 12D#000000000000005F
(1713559387.222789) can0 12E#000000000000C090
(1713559387.223035) can0 290#0000000200000057
(1713559387.223276) can0 410#2880008B9F6E8B9F
(1713559387.223525) can0 400#288000000000002A
(1713559387.227812) can0 174#EE7F005825790748
(1713559387.228038) can0 178#F47F0A73FC9207B5
(1713559387.228280) can0 17C#008001002C690720
(1713559387.228544) can0 120#000000000700009B
(1713559387.228788) can0 121#000000000000008B
(1713559387.229031) can0 129#000000010000008F
(1713559387.229277) can0 551#000000000004C000
(1713559387.229525) can0 5D1#9958000200000000
(1713559387.232291) can0 12F#F810022000000071
(1713559387.232538) can0 12D#000000000000006A
(1713559387.232783) can0 290#0000000200000062
(1713559387.233019) can0 410#2880008B9F6E8BAA
(1713559387.233501) can0 400#2880000000000040
(1713559387.237762) can0 174#F27F0058297908FB
(1713559387.237993) can0 178#F07F0B630393086A
(1713559387.238229) can0 17C#F67F0100386908F6
(1713559387.239057) can0 541#0440E800007FFF86
(1713559387.241215) can0 140#0000030000000000
(1713559387.242050) can0 12F#F810022000000090
(1713559387.242286) can0 128#1388030000EC78A3
(1713559387.242532) can0 12D#000000000000008B
(1713559387.242775) can0 12E#000000000000C0A5
(1713559387.243027) can0 290#0000000200000083
(1713559387.243267) can0 410#2880008B9F6E8BC0
(1713559387.243521) can0 400#2880000000000075
(1713559387.247823) can0 174#F27F00583079097D
(1713559387.248043) can0 178#EA7F0C680C93090D
(1713559387.248288) can0 17C#F87F01003F690960
(1713559387.248644) can0 120#00000000070000AE
(1713559387.248890) can0 121#00000000000000BE
(1713559387.249132) can0 129#00000001000000BA
(1713559387.249378) can0 551#000000000004C000
(1713559387.249630) can0 552#00FFFFFFFFFFFF44
(1713559387.249877) can0 5D1#9958000200000000
(1713559387.250123) can0 5D2#7444540000000000
(1713559387.250371) can0 450#005540001B004A00
(1713559387.252345) can0 410#2880008B9F6E8B21
(1713559387.252589) can0 12D#00000000000000BE
(1713559387.252829) can0 12F#F8100220000000A5
(1713559387.253075) can0 290#00000002000000B6
(1713559387.253583) can0 400#2880000000000094
(1713559387.257773) can0 174#F07F005838790AEC
(1713559387.257999) can0 178#EC7F0D2011930A06
(1713559387.258235) can0 17C#FE7F01003A690A1D
(1713559387.259051) can0 541#0440E800007FFFB3
(1713559387.259293) can0 550#48000C00010000C2
(1713559387.261744) can0 140#0000030000000000
(1713559387.262068) can0 12F#F8100220000000CF
(1713559387.262304) can0 128#1388030000EC78C9
(1713559387.262538) can0 12A#1428701C60580026
(1713559387.262782) can0 12D#00000000000000D4
(1713559387.263026) can0 12E#000000000000C0CF
(1713559387.263275) can0 290#00000002000000DC
(1713559387.263513) can0 410#2880008B9F6E8B4B
(1713559387.263759) can0 400#28800000000000A1
(1713559387.263998) can0 5A0#00000062449280A2
(1713559387.267828) can0 174#F07F005837790B77
(1713559387.268052) can0 178#F67F0E4711930B5E
(1713559387.268287) can0 17C#028001002A690B03
(1713559387.268748) can0 120#00000000070000C4
(1713559387.268992) can0 121#00000000000000D4
(1713559387.269234) can0 129#00000001000000D0
(1713559387.269480) can0 551#000000000004C000
(1713559387.269727) can0 5D1#9958000200000000
(1713559387.272302) can0 12F#F81002200000002E
(1713559387.272547) can0 12D#0000000000000035
(1713559387.272794) can0 290#000000020000003D
(1713559387.273034) can0 410#2880008B9F6E8B7E
(1713559387.273686) can0 400#28800000000000CB
(1713559387.277683) can0 4EA#0000000000000000
(1713559387.277909) can0 174#F47F005834790CC1
(1713559387.278138) can0 178#04800F6D0C930C11
(1713559387.278379) can0 17C#0080010024690CE3
(1713559387.278626) can0 5B2#0800000000000000
(1713559387.278870) can0 310#FFFFFFFF7D7D0000
(1713559387.279112) can0 541#0440E800007FFFD9
(1713559387.282051) can0 12F#F810022000000044
(1713559387.282288) can0 128#1388030000EC7828
(1713559387.282538) can0 12D#000000000000005F
(1713559387.282782) can0 12E#000000000000C02E
(1713559387.283032) can0 140#0000030000000000
(1713559387.283278) can0 290#0000000200000057
(1713559387.283519) can0 410#2880008B9F6E8B9F
(1713559387.283766) can0 400#288000000000002A
(1713559387.284374) can0 540#0000001040009E00
(1713559387.284615) can0 5B0#6342000000000077
(1713559387.287778) can0 174#F67F00583A790D6F
(1713559387.288014) can0 178#068000620A930DA7
(1713559387.288249) can0 17C#FE7F010029690DDA
(1713559387.288794) can0 120#0000000007000025
(1713559387.289041) can0 121#0000000000000035
(1713559387.289333) can0 129#0000000100000031
(1713559387.289580) can0 551#000000000004C000
(1713559387.289836) can0 5D1#9958000200000000
(1713559387.290508) can0 5D0#9958010200000000
(1713559387.290746) can0 5B1#008A9A68000000A3
(1713559387.290983) can0 5CF#7444540000000000
(1713559387.292329) can0 410#2880008B9F6E8BAA
(1713559387.292572) can0 12D#000000000000006A
(1713559387.292815) can0 12F#F810022000000071
(1713559387.293063) can0 290#0000000200000062
(1713559387.293791) can0 400#2880000000000040
(1713559387.297829) can0 174#F47F005848790EB9
(1713559387.298063) can0 178#FE7F01480C930E6C
(1713559387.298300) can0 17C#FE7F010029690EFD
(1713559387.299120) can0 541#0440E800007FFF38
(1713559387.299398) can0 552#00FFFFFFFFFFFF71
(1713559387.299622) can0 450#005540001B004A00
(1713559387.302096) can0 12F#F810022000000090
(1713559387.302330) can0 128#1388030000EC7842
(1713559387.302576) can0 12D#000000000000008B
(1713559387.302820) can0 12E#000000000000C044
(1713559387.303070) can0 140#0000030000000000
(1713559387.303328) can0 290#0000000200000083
(1713559387.303563) can0 410#2880008B9F6E8BC0
(1713559387.303814) can0 400#2880000000000075
(1713559387.307785) can0 174#F07F00584B790F41
(1713559387.308021) can0 178#F27F00000A930FAD
(1713559387.308261) can0 17C#FE7F010022690F60
(1713559387.308887) can0 120#000000000700004F
(1713559387.309135) can0 121#000000000000005F
(1713559387.309380) can0 129#000000010000005B
(1713559387.309668) can0 550#48000C0001000023
(1713559387.309915) can0 551#000000000004C000
(1713559387.310165) can0 5D1#9958000200000000
(1713559387.312280) can0 410#2880008B9F6E8B21
(1713559387.312504) can0 12A#1428701C6058004C
(1713559387.312752) can0 12D#00000000000000BE
(1713559387.312994) can0 12F#F8000220000000AE
(1713559387.313240) can0 290#00000002000000B6
(1713559387.313884) can0 400#2880000000000094
(1713559387.317839) can0 174#EE7F0058427900C1
(1713559387.318072) can0 178#F27F0000FE9200D4
(1713559387.318318) can0 17C#FC7F0100276900E8
(1713559387.318561) can0 6B9#0020400000000000
(1713559387.318803) can0 5A2#1410140000000000
(1713559387.319121) can0 541#0440E800007FFF52
(1713559387.322107) can0 12F#F8100220000000CF
(1713559387.322289) can0 128#1388030000EC7877
(1713559387.322533) can0 12D#00000000000000D4
(1713559387.322781) can0 12E#000000000000C071
(1713559387.323029) can0 290#00000002000000DC
(1713559387.323267) can0 410#2880008B9F6E8B4B
(1713559387.323518) can0 140#0000030000000000
(1713559387.323907) can0 400#28800000000000A1
(1713559387.327796) can0 174#EE7F005830790197
(1713559387.328035) can0 178#FC7F000DF1920101
(1713559387.328274) can0 17C#FA7F01003A6901BB
(1713559387.328986) can0 120#000000000700007A
(1713559387.329238) can0 121#000000000000006A
(1713559387.329486) can0 129#000000010000006E
(1713559387.329780) can0 551#000000000004C000
(1713559387.330028) can0 5D1#9958000200000000
(1713559387.332229) can0 410#2880008B9F6E8B7E
(1713559387.332469) can0 12D#0000000000000035
(1713559387.332711) can0 12F#F81002200000002E
(1713559387.332959) can0 290#000000020000003D
(1713559387.333989) can0 400#28800000000000CB
(1713559387.337848) can0 174#F07F00582A79021F
(1713559387.338082) can0 178#06800000F092022E
(1713559387.338317) can0 17C#FA7F010043690257
(1713559387.339102) can0 541#0440E800007FFF67
(1713559387.342106) can0 12F#F810022000000044
(1713559387.342289) can0 128#1388030000EC7896
(1713559387.342539) can0 12D#000000000000005F
(1713559387.342785) can0 12E#000000000000C090
(1713559387.343031) can0 290#0000000200000057
(1713559387.343271) can0 410#2880008B9F6E8B9F
(1713559387.343868) can0 140#0000030000000000
(1713559387.344116) can0 400#288000000000002A
(1713559387.347800) can0 174#F27F00582F790331
(1713559387.348035) can0 178#08800136F8920352
(1713559387.348277) can0 17C#FA7F010037690304
(1713559387.349066) can0 551#000000000004C000
(1713559387.349312) can0 120#000000000700009B
(1713559387.349556) can0 121#000000000000008B
(1713559387.349798) can0 129#000000010000008F
(1713559387.350044) can0 552#00FFFFFFFFFFFF90
(1713559387.350290) can0 5D1#9958000200000000
(1713559387.350582) can0 5D2#7444540000000000
(1713559387.350830) can0 450#005540001B004A00
(1713559387.351846) can0 410#2880008B9F6E8BAA
(1713559387.352337) can0 12F#F810022000000071
(1713559387.352581) can0 12D#000000000000006A
(1713559387.352829) can0 290#0000000200000062
(1713559387.354092) can0 400#2880000000000040
(1713559387.357851) can0 174#F27F005837790476
(1713559387.358083) can0 178#06800230FF92045D
(1713559387.358322) can0 17C#FC7F01002769049C
(1713559387.359096) can0 541#0440E800007FFF86
(1713559387.359352) can0 550#48000C0001000049
(1713559387.361823) can0 410#2880008B9F6E8BC0
(1713559387.362116) can0 12F#F810022000000090
(1713559387.362352) can0 128#1388030000EC78A3
(1713559387.362584) can0 12A#1428701C60580079
(1713559387.362830) can0 12D#000000000000008B
(1713559387.363074) can0 12E#000000000000C0A5
(1713559387.363276) can0 290#0010000200000088
(1713559387.363514) can0 5A0#00000062449280C8
(1713559387.364102) can0 400#2880000000000075
(1713559387.364404) can0 140#0000030000000000
(1713559387.367806) can0 174#F07F00583A790554
(1713559387.368041) can0 178#068003310193057A
(1713559387.368280) can0 17C#FE7F01001B690519
(1713559387.369179) can0 120#00000000070000AE
(1713559387.369426) can0 121#00000000000000BE
(1713559387.369668) can0 129#00000001000000BA
(1713559387.369913) can0 551#000000000004C000
(1713559387.370164) can0 5D1#9958000200000000
(1713559387.371793) can0 410#2880008B9F6E8B21
(1713559387.372299) can0 12F#F8100220000000A5
(1713559387.372546) can0 12D#00000000000000BE
(1713559387.372792) can0 290#00100002000000BD
(1713559387.374186) can0 400#2880000000000094
(1713559387.377470) can0 4EA#0000000000000000
(1713559387.377715) can0 5B2#0800000000000000
(1713559387.377950) can0 174#EE7F00583A7906CB
(1713559387.378186) can0 178#04800438039306EE
(1713559387.378422) can0 17C#FE7F010017690634
(1713559387.378667) can0 310#FFFFFFFF7D7D0000
(1713559387.379092) can0 541#0440E800007FFFB3
(1713559387.381776) can0 410#2880008B9F6E8B4B
(1713559387.382104) can0 12F#F8100220000000CF
(1713559387.382338) can0 128#1388030000EC78C9
(1713559387.382582) can0 12D#00000000000000D4
(1713559387.382826) can0 12E#000000000000C0CF
(1713559387.383073) can0 290#00000002000000DC
(1713559387.384256) can0 400#28800000000000A1
(1713559387.384886) can0 540#0000001040009E00
(1713559387.385134) can0 140#0000030000000000
(1713559387.385376) can0 5B0#6342000000000096
(1713559387.387818) can0 174#EE7F00583A7907D6
(1713559387.388051) can0 178#FE7F0531049307DA
(1713559387.388296) can0 17C#FE7F010022690788
(1713559387.389049) can0 551#000000000004C000
(1713559387.389301) can0 120#00000000070000C4
(1713559387.389545) can0 121#00000000000000D4
(1713559387.389787) can0 129#00000001000000D0
(1713559387.390028) can0 5D1#9958000200000000
(1713559387.390474) can0 5D0#9958010200000000
(1713559387.390710) can0 5B1#008A9A68000000C9
(1713559387.390948) can0 5CF#7444540000000000
(1713559387.391693) can0 410#2880008B9F6E8B7E
(1713559387.392285) can0 12F#F80001200000002C
(1713559387.392530) can0 12D#0000000000000035
(1713559387.392778) can0 290#000000020000003D
(1713559387.394283) can0 400#28800000000000CB
(1713559387.397871) can0 174#F07F005837790850
(1713559387.398107) can0 178#F87F06320393083C
(1713559387.398345) can0 17C#FA7F01003A69084E
(1713559387.399107) can0 541#0440E800007FFFD9
(1713559387.399389) can0 552#00FFFFFFFFFFFFA5
(1713559387.399611) can0 450#005540001B004A00
(1713559387.401713) can0 410#2880008B9F6E8B9F
(1713559387.402147) can0 12F#F810022000000044
(1713559387.402383) can0 128#1388030000EC7828
(1713559387.402633) can0 12D#000000000000005F
(1713559387.402878) can0 12E#000000000000C02E
(1713559387.403124) can0 290#001000020000005C
(1713559387.404355) can0 400#288000000000002A
(1713559387.405506) can0 140#0000030000000000
(1713559387.407834) can0 174#F07F0058347909C1
(1713559387.408068) can0 178#FA7F0739019309D4
(1713559387.408304) can0 17C#F87F01004D69092B
(1713559387.409050) can0 551#000000000004C000
(1713559387.409295) can0 550#48000C000100007C
(1713559387.409542) can0 120#0000000007000025
(1713559387.409790) can0 121#0000000000000035
(1713559387.410035) can0 129#0000000100000031
(1713559387.410275) can0 5D1#9958000200000000
(1713559387.411636) can0 410#2880008B9F6E8BAA
(1713559387.412254) can0 12F#F810022000000071
(1713559387.412488) can0 12A#1428701C60580098
(1713559387.412734) can0 12D#000000000000006A
(1713559387.412978) can0 290#0010000200000069
(1713559387.414392) can0 400#2880000000000040
(1713559387.417880) can0 174#F07F005830790AE0
(1713559387.418108) can0 178#FC7F082D06930ABD
(1713559387.418344) can0 17C#FC7F01004B690A60
(1713559387.418592) can0 6B9#0020400000000000
(1713559387.418837) can0 5A2#1410140000000000
(1713559387.419119) can0 541#0440E800007FFF38
(1713559387.421662) can0 410#2880008B9F6E8BC0
(1713559387.422107) can0 12F#F810022000000090
(1713559387.422341) can0 128#1388030000EC7842
(1713559387.422595) can0 12D#000000000000008B
(1713559387.422833) can0 12E#000000000000C044
(1713559387.423082) can0 290#0010000200000088
(1713559387.424442) can0 400#2880000000000075
(1713559387.426038) can0 140#0000030000000000
(1713559387.427837) can0 174#F27F005835790BCE
(1713559387.428070) can0 178#F87F09300C930BC6
(1713559387.428306) can0 17C#0480010035690B4E
(1713559387.429044) can0 551#000000000004C000
(1713559387.429294) can0 5D1#9958000200000000
(1713559387.429540) can0 120#000000000700004F
(1713559387.429789) can0 121#000000000000005F
(1713559387.430034) can0 129#000000010000005B
(1713559387.431581) can0 410#2880008B9F6E8B21
(1713559387.432273) can0 12F#F8100220000000A5
(1713559387.432520) can0 12D#00000000000000BE
(1713559387.432766) can0 290#00100002000000BD
(1713559387.434488) can0 400#2880000000000094
(1713559387.437887) can0 174#F67F005840790C35
(1713559387.438108) can0 178#FA7F0A320D930C39
(1713559387.438344) can0 17C#0C80010022690C5D
(1713559387.439092) can0 541#0440E800007FFF52
(1713559387.441612) can0 410#2880008B9F6E8B4B
(1713559387.442106) can0 12F#F8100220000000CF
(1713559387.442346) can0 128#1388030000EC7877
(1713559387.442585) can0 12D#00000000000000D4
(1713559387.442841) can0 12E#000000000000C071
(1713559387.443083) can0 290#00000002000000DC
(1713559387.444535) can0 400#28800000000000A1
(1713559387.446567) can0 140#0000030000000000
(1713559387.447841) can0 174#F67F00583F790DE6
(1713559387.448073) can0 178#FE7F0B360F930D6A
(1713559387.448311) can0 17C#1080010019690DEA
(1713559387.449061) can0 551#000000000004C000
(1713559387.449317) can0 552#00FFFFFFFFFFFFCF
(1713559387.449571) can0 120#000000000700007A
(1713559387.449823) can0 121#000000000000006A
(1713559387.450071) can0 129#000000010000006E
(1713559387.450312) can0 5D1#9958000200000000
(1713559387.450556) can0 5D2#7444540000000000
(1713559387.450804) can0 450#005540001B004A00
(1713559387.451533) can0 410#2880008B9F6E8B7E
(1713559387.452280) can0 12F#F81002200000002E
(1713559387.452526) can0 12D#0000000000000035
(1713559387.452775) can0 290#000000020000003D
(1713559387.454573) can0 400#28800000000000CB
(1713559387.457905) can0 174#F87F005834790E40
(1713559387.458135) can0 178#04800C3012930E7A
(1713559387.458373) can0 17C#0E80010011690E79
(1713559387.459093) can0 541#0440E800007FFF67
(1713559387.459350) can0 550#48000C000100009D
(1713559387.461555) can0 410#2880008B9F6E8B9F
(1713559387.462121) can0 12F#F810022000000044
(1713559387.462356) can0 128#1388030000EC7896
(1713559387.462589) can0 12A#1428701C605800AD
(1713559387.462839) can0 12D#000000000000005F
(1713559387.463093) can0 12E#000000000000C090
(1713559387.463347) can0 290#0020000200000041
(1713559387.463570) can0 5A0#0000006244928029
(1713559387.464635) can0 400#288000000000002A
(1713559387.467051) can0 140#0000030000000000
(1713559387.467847) can0 174#F87F00582A790F4C
(1713559387.468084) can0 178#0A80000014930FCE
(1713559387.468324) can0 17C#0880010011690FB7
(1713559387.469051) can0 551#000000000004C000
(1713559387.469298) can0 5D1#9958000200000000
(1713559387.469657) can0 120#000000000700009B
(1713559387.469901) can0 121#000000000000008B
(1713559387.470143) can0 129#000000010000008F
(1713559387.471501) can0 410#2880008B9F6E8BAA
(1713559387.472275) can0 12F#F80002200000007A
(1713559387.472521) can0 12D#000000000000006A
(1713559387.472767) can0 290#0020000200000074
(1713559387.474628) can0 400#2880000000000040
(1713559387.477269) can0 4EA#0000000000000000
(1713559387.477511) can0 5B2#0800000000000000
(1713559387.477758) can0 310#FFFFFFFF7D7D0000
(1713559387.477998) can0 174#F87F00582C7900F2
(1713559387.478230) can0 178#0C800130149300A3
(1713559387.478472) can0 17C#00800100176900DB
(1713559387.479088) can0 541#0440E800007FFF86
(1713559387.481529) can0 410#2880008B9F6E8BC0
(1713559387.482092) can0 12F#F810022000000090
(1713559387.482329) can0 128#1388030000EC78A3
(1713559387.482574) can0 12D#000000000000008B
(1713559387.482819) can0 12E#000000000000C0A5
(1713559387.483071) can0 290#0000000200000083
(1713559387.484734) can0 400#2880000000000075
(1713559387.485362) can0 540#0000001040009E00
(1713559387.485601) can0 5B0#63420000000000A3
(1713559387.487627) can0 140#0000030000000000
(1713559387.487896) can0 174#F67F005835790175
(1713559387.488133) can0 178#0A80023217930178
(1713559387.488370) can0 17C#FE7F01001F69016B
(1713559387.489045) can0 551#000000000004C000
(1713559387.489294) can0 5D1#9958000200000000
(1713559387.489754) can0 120#00000000070000AE
(1713559387.490000) can0 121#00000000000000BE
(1713559387.490243) can0 129#00000001000000BA
(1713559387.490509) can0 5D0#9958010200000000
(1713559387.490747) can0 5B1#008A9A6800000028
(1713559387.490985) can0 5CF#7444540000000000
(1713559387.491448) can0 410#2880008B9F6E8B21
(1713559387.492273) can0 12F#F8100220000000A5
(1713559387.492521) can0 12D#00000000000000BE
(1713559387.492767) can0 290#00000002000000B6
(1713559387.494710) can0 400#2880000000000094
(1713559387.497911) can0 174#F27F00583F790234
(1713559387.498149) can0 178#0080033615930210
(1713559387.498383) can0 17C#FC7F0100296902DB
(1713559387.499102) can0 541#0440E800007FFFB3
(1713559387.499384) can0 552#00FFFFFFFFFFFF2E
(1713559387.499605) can0 450#005540001B004A00
(1713559387.501470) can0 410#2880008B9F6E8B4B
(1713559387.502140) can0 12F#F8100220000000CF
(1713559387.502376) can0 128#1388030000EC78C9
(1713559387.502620) can0 12D#00000000000000D4
(1713559387.502864) can0 12E#000000000000C0CF
(1713559387.503112) can0 290#00000002000000DC
(1713559387.504817) can0 400#28800000000000A1
(1713559387.507907) can0 174#F07F00583F790393
(1713559387.508134) can0 178#F67F04350F9303D8
(1713559387.508384) can0 140#0000030000000000
(1713559387.508621) can0 17C#FA7F01002C69039C
(1713559387.509046) can0 551#000000000004C000
(1713559387.509289) can0 550#48000C00010000A8
(1713559387.509529) can0 5D1#9958000200000000
(1713559387.509851) can0 120#00000000070000C4
(1713559387.510095) can0 121#00000000000000D4
(1713559387.510337) can0 129#00000001000000D0
(1713559387.511399) can0 410#2880008B9F6E8B7E
(1713559387.512298) can0 12F#F81002200000002E
(1713559387.512534) can0 12A#1428701C605800C7
(1713559387.512780) can0 12D#0000000000000035
(1713559387.513028) can0 290#000000020000003D
(1713559387.514813) can0 400#28800000000000CB
(1713559387.517907) can0 174#F27F0058387904F0
(1713559387.518137) can0 178#F47F05300D93048B
(1713559387.518378) can0 17C#F87F01002A690470
(1713559387.518627) can0 6B9#0020400000000000
(1713559387.518873) can0 5A2#1410140000000000
(1713559387.519113) can0 541#0440E800007FFFD9
(1713559387.521422) can0 410#2880008B9F6E8B9F
(1713559387.522108) can0 12F#F810022000000044
(1713559387.522346) can0 128#1388030000EC7828
(1713559387.522595) can0 12D#000000000000005F
(1713559387.522840) can0 12E#000000000000C02E
(1713559387.523086) can0 290#001000020000005C
(1713559387.524916) can0 400#288000000000002A
(1713559387.527910) can0 174#F47F005834790534
(1713559387.528145) can0 178#F87F06310F93050D
(1713559387.528388) can0 17C#F87F010026690567
(1713559387.528687) can0 140#0000030000000000
(1713559387.529103) can0 551#000000000004C000
(1713559387.529351) can0 5D1#9958000200000000
(1713559387.529949) can0 120#0000000007000025
(1713559387.530198) can0 121#0000000000000035
(1713559387.530441) can0 129#0000000100000031
(1713559387.531348) can0 410#2880008B9F6E8BAA
(1713559387.532234) can0 12F#F810022000000071
(1713559387.532479) can0 12D#000000000000006A
(1713559387.532723) can0 290#0010000200000069
(1713559387.534898) can0 400#2880000000000040
(1713559387.537910) can0 174#F47F005838790619
(1713559387.538143) can0 178#FC7F07310F930629
(1713559387.538383) can0 17C#FE7F01002C69069C
(1713559387.539094) can0 541#0440E800007FFF38
(1713559387.541340) can0 410#2880008B9F6E8BC0
(1713559387.542096) can0 12F#F810022000000090
(1713559387.542331) can0 128#1388030000EC7842
(1713559387.542577) can0 12D#000000000000008B
(1713559387.542820) can0 12E#000000000000C044
(1713559387.543075) can0 290#0000000200000083
(1713559387.545003) can0 400#2880000000000075
(1713559387.547915) can0 174#F27F00584579071A
(1713559387.548154) can0 178#008008310A9307DA
(1713559387.548399) can0 17C#048001003F6907DD
(1713559387.549058) can0 551#000000000004C000
(1713559387.549307) can0 140#0000030000000000
(1713559387.549552) can0 552#00FFFFFFFFFFFF44
(1713559387.549800) can0 55A#0017160000000000
(1713559387.550052) can0 120#000000000700004F
(1713559387.550300) can0 121#000000000000005F
(1713559387.550544) can0 129#000000010000005B
(1713559387.550784) can0 5D1#9958000200000000
(1713559387.551030) can0 5D2#7444540000000000
(1713559387.551284) can0 450#005540001B004A00
(1713559387.551520) can0 410#2880008B9F6E8B21
(1713559387.552303) can0 12F#F8100120000000AC
(1713559387.552549) can0 12D#00000000000000BE
(1713559387.552795) can0 290#00000002000000B6
(1713559387.554994) can0 400#2880000000000094
(1713559387.557915) can0 174#F07F00584879089E
(1713559387.558146) can0 178#02800930039308AF
(1713559387.558384) can0 17C#088001004B690893
(1713559387.559256) can0 550#48000C00010000C2
(1713559387.561325) can0 410#2880008B9F6E8B4B
(1713559387.561564) can0 541#0440E800007FFF52
(1713559387.562096) can0 12F#F8100220000000CF
(1713559387.562330) can0 128#1388030000EC7877
(1713559387.562564) can0 12A#1428701C60580026
(1713559387.562808) can0 12D#00000000000000D4
(1713559387.563057) can0 12E#000000000000C071
(1713559387.563305) can0 290#00000002000000DC
(1713559387.563554) can0 5A0#0000006244928043
(1713559387.565106) can0 400#28800000000000A1
(1713559387.567920) can0 174#F27F005840790935
(1713559387.568153) can0 178#00800A38FE92096B
(1713559387.568389) can0 17C#0A8001004D690931
(1713559387.569041) can0 551#000000000004C000
(1713559387.569292) can0 5D1#9958000200000000
(1713559387.569693) can0 140#0000030000000000
(1713559387.570144) can0 120#000000000700007A
(1713559387.570396) can0 121#000000000000006A
(1713559387.570644) can0 129#000000010000006E
(1713559387.571341) can0 410#2880008B9F6E8B7E
(1713559387.572273) can0 12F#F800022000000025
(1713559387.572518) can0 12D#0000000000000035
(1713559387.572766) can0 290#000000020000003D
(1713559387.575093) can0 400#28800000000000CB
(1713559387.577067) can0 4EA#0000000000000000
(1713559387.577306) can0 5B2#0800000000000000
(1713559387.577552) can0 310#FFFFFFFF7D7D0000
(1713559387.577923) can0 174#F47F005837790A03
(1713559387.578165) can0 178#F87F0000FE920A6E
(1713559387.578400) can0 17C#068001004B690AA8
(1713559387.579084) can0 541#0440E800007FFF67
(1713559387.581329) can0 410#2880008B9F6E8B9F
(1713559387.582101) can0 12F#F810022000000044
(1713559387.582334) can0 128#1388030000EC7896
(1713559387.582585) can0 12D#000000000000005F
(1713559387.582831) can0 12E#000000000000C090
(1713559387.583077) can0 290#0000000200000057
(1713559387.585199) can0 400#288000000000002A
(1713559387.585785) can0 540#0000001040009E00
(1713559387.586023) can0 5B0#63420000000000C9
(1713559387.587926) can0 174#F47F00582F790B0A
(1713559387.588157) can0 178#F07F013003930BE5
(1713559387.588394) can0 17C#0280010050690B44
(1713559387.589047) can0 551#000000000004C000
(1713559387.589288) can0 5D1#9958000200000000
(1713559387.590222) can0 140#0000030000000000
(1713559387.590468) can0 120#000000000700009B
(1713559387.590712) can0 121#000000000000008B
(1713559387.590954) can0 129#000000010000008F
(1713559387.591190) can0 5B1#008A9A6800000042
(1713559387.591427) can0 410#2880008B9F6E8BAA
(1713559387.591669) can0 5D0#9958010200000000
(1713559387.591907) can0 5CF#7444540000000000
(1713559387.592279) can0 12F#F810022000000071
(1713559387.592525) can0 12D#000000000000006A
(1713559387.592773) can0 290#0000000200000062
(1713559387.595191) can0 400#2880000000000040
(1713559387.597930) can0 174#F27F00582D790C89
(1713559387.598161) can0 178#F47F000009930CD5
(1713559387.598397) can0 17C#FE7F010051690C83
(1713559387.599097) can0 541#0440E800007FFF86
(1713559387.599358) can0 552#00FFFFFFFFFFFF71
(1713559387.599599) can0 450#005540001B004A00
(1713559387.601326) can0 410#2880008B9F6E8BC0
(1713559387.602140) can0 12F#F810022000000090
(1713559387.602376) can0 128#1388030000EC78A3
(1713559387.602621) can0 12D#000000000000008B
(1713559387.602866) can0 12E#000000000000C0A5
(1713559387.603118) can0 290#0000000200000083
(1713559387.605281) can0 400#2880000000000075
(1713559387.607936) can0 174#F07F00582C790DA1
(1713559387.608162) can0 178#0280015312930D42
(1713559387.608403) can0 17C#FA7F01004A690D6F
(1713559387.609088) can0 551#000000000004C000
(1713559387.609282) can0 550#48000C0001000023
(1713559387.609523) can0 5D1#9958000200000000
(1713559387.610337) can0 120#00000000070000AE
(1713559387.610583) can0 121#00000000000000BE
(1713559387.610825) can0 129#00000001000000BA
(1713559387.611075) can0 140#0000030000000000
(1713559387.611356) can0 410#2880008B9F6E8B21
(1713559387.612251) can0 12F#F8100220000000A5
(1713559387.612483) can0 12A#1428701C6058004C
(1713559387.612732) can0 12D#00000000000000BE
(1713559387.612978) can0 290#00000002000000B6
(1713559387.615284) can0 400#2880000000000094
(1713559387.617935) can0 174#EC7F00582C790E84
(1713559387.618164) can0 178#1080024317930E74
(1713559387.618403) can0 17C#F67F01003D690E31
(1713559387.618698) can0 6B9#0020400000000000
(1713559387.618942) can0 5A2#1410140000000000
(1713559387.619185) can0 541#0440E800007FFFB3
(1713559387.621328) can0 410#2880008B9F6E8B4B
(1713559387.622106) can0 12F#F8100220000000CF
(1713559387.622343) can0 128#1388030000EC78C9
(1713559387.622587) can0 12D#00000000000000D4
(1713559387.622831) can0 12E#000000000000C0CF
(1713559387.623079) can0 290#00000002000000DC
(1713559387.625384) can0 400#28800000000000A1
(1713559387.627943) can0 174#EC7F005832790F88
(1713559387.628170) can0 178#1680033215930FB5
(1713559387.628410) can0 17C#FA7F010035690F9B
(1713559387.629082) can0 551#000000000004C000
(1713559387.629284) can0 5D1#9958000200000000
(1713559387.630434) can0 120#00000000070000C4
(1713559387.630676) can0 121#00000000000000D4
(1713559387.630919) can0 129#00000001000000D0
(1713559387.631279) can0 140#0000030000000000
(1713559387.631520) can0 410#2880008B9F6E8B7E
(1713559387.632237) can0 12F#F81002200000002E
(1713559387.632483) can0 12D#0000000000000035
(1713559387.632731) can0 290#000000020000003D
(1713559387.635382) can0 400#28800000000000CB
(1713559387.637947) can0 174#EC7F00583B7900B0
(1713559387.638185) can0 178#128004300F93005C
(1713559387.638427) can0 17C#048001003269000B
(1713559387.639087) can0 541#0440E800007FFFD9
(1713559387.641329) can0 410#2880008B9F6E8B9F
(1713559387.642093) can0 12F#F810022000000044
(1713559387.642332) can0 128#1388030000EC7828
(1713559387.642584) can0 12D#000000000000005F
(1713559387.642826) can0 12E#000000000000C02E
(1713559387.643072) can0 290#0000000200000057
(1713559387.645483) can0 400#288000000000002A
(1713559387.647951) can0 174#EE7F00583F790111
(1713559387.648185) can0 178#0A80053009930145
(1713559387.648423) can0 17C#0A8001002D690189
(1713559387.649103) can0 551#000000000004C000
(1713559387.649323) can0 552#00FFFFFFFFFFFF90
(1713559387.649557) can0 5D1#9958000200000000
(1713559387.649801) can0 5D2#7444540000000000
(1713559387.650049) can0 450#005540001B004A00
(1713559387.650531) can0 120#0000000007000025
(1713559387.650779) can0 121#0000000000000035
(1713559387.651023) can0 129#0000000100000031
(1713559387.651422) can0 410#2880008B9F6E8BAA
(1713559387.651812) can0 140#0000030000000000
(1713559387.652277) can0 12F#F810022000000071
(1713559387.652524) can0 12D#000000000000006A
(1713559387.652771) can0 290#0000000200000062
(1713559387.655481) can0 400#2880000000000040
(1713559387.657950) can0 174#EE7F00583779023A
(1713559387.658182) can0 178#0680063207930249
(1713559387.658423) can0 17C#0C80010021690277
(1713559387.659088) can0 541#0440E800007FFF38
(1713559387.659346) can0 550#48000C0001000049
(1713559387.661322) can0 410#2880008B9F6E8BC0
(1713559387.662110) can0 12F#F810022000000090
(1713559387.662345) can0 128#1388030000EC7842
(1713559387.662577) can0 12A#1428701C60580079
(1713559387.662823) can0 12D#000000000000008B
(1713559387.663067) can0 12E#000000000000C044
(1713559387.663352) can0 290#0000000200000083
(1713559387.663559) can0 5A0#0000006244928076
(1713559387.665568) can0 400#2880000000000075
(1713559387.667955) can0 174#EE7F005837790327
(1713559387.668190) can0 178#0480073707930357
(1713559387.668428) can0 17C#0C80010011690342
(1713559387.669088) can0 551#000000000004C000
(1713559387.669338) can0 5D1#9958000200000000
(1713559387.670630) can0 120#000000000700004F
(1713559387.670878) can0 121#000000000000005F
(1713559387.671122) can0 129#000000010000005B
(1713559387.671359) can0 410#2880008B9F6E8B21
(1713559387.672253) can0 12F#F8100220000000A5
(1713559387.672501) can0 12D#00000000000000BE
(1713559387.672750) can0 140#0000030000000000
(1713559387.672997) can0 290#00000002000000B6
(1713559387.675578) can0 400#2880000000000094
(1713559387.676809) can0 4EA#0000000000000000
(1713559387.677102) can0 5B2#0800000000000000
(1713559387.677348) can0 310#FFFFFFFF7D7D0000
(1713559387.677958) can0 174#EC7F00583F7904C2
(1713559387.678197) can0 178#0280085F06930466
(1713559387.678443) can0 17C#06800100066904EB
(1713559387.679080) can0 541#0440E800007FFF52
(1713559387.681269) can0 410#2880008B9F6E8B4B
(1713559387.682099) can0 12F#F8100220000000CF
(1713559387.682333) can0 128#1388030000EC7877
(1713559387.682577) can0 12D#00000000000000D4
(1713559387.682825) can0 12E#000000000000C071
(1713559387.683073) can0 290#00000002000000DC
(1713559387.685667) can0 400#28800000000000A1
(1713559387.686263) can0 540#0000001040009E00
(1713559387.686506) can0 5B0#6342000000000028
(1713559387.687956) can0 174#EC7F005846790514
(1713559387.688188) can0 178#FE7F093007930533
(1713559387.688426) can0 17C#FC7F01000C690531
(1713559387.689084) can0 551#000000000004C000
(1713559387.689334) can0 5D1#9958000200000000
(1713559387.690523) can0 5D0#9958010200000000
(1713559387.690758) can0 5B1#008A9A6800000077
(1713559387.691007) can0 120#000000000700007A
(1713559387.691259) can0 121#000000000000006A
(1713559387.691508) can0 129#000000010000006E
(1713559387.691747) can0 410#2880008B9F6E8B7E
(1713559387.691985) can0 5CF#7444540000000000
(1713559387.692227) can0 12F#F81002200000002E
(1713559387.692473) can0 12D#0000000000000035
(1713559387.692721) can0 290#000000020000003D
(1713559387.692972) can0 140#0000030000000000
(1713559387.695666) can0 400#28800000000000CB
(1713559387.697912) can0 174#EE7F005848790680
(1713559387.698142) can0 178#F67F0A3711930691
(1713559387.698430) can0 17C#FE7F01001F690638
(1713559387.699096) can0 541#0440E800007FFF67
(1713559387.699366) can0 552#00FFFFFFFFFFFFA5
(1713559387.699600) can0 450#005540001B004A00
(1713559387.701215) can0 410#2880008B9F6E8B9F
(1713559387.702208) can0 12F#F810022000000044
(1713559387.702443) can0 128#1388030000EC7896
(1713559387.702693) can0 12D#000000000000005F
(1713559387.702938) can0 12E#000000000000C090
(1713559387.703185) can0 290#0000000200000057
(1713559387.705790) can0 400#288000000000002A
(1713559387.707973) can0 174#EE7F00584879079D
(1713559387.708196) can0 178#F27F0B311493076F
(1713559387.708434) can0 17C#068001002C6907F3
(1713559387.709083) can0 551#000000000004C000
(1713559387.709328) can0 550#48000C000100007C
(1713559387.709568) can0 5D1#9958000200000000
(1713559387.710875) can0 120#000000000700009B
(1713559387.711118) can0 121#000000000000008B
(1713559387.711383) can0 129#000000010000008F
(1713559387.711598) can0 410#2880008B9F6E8BAA
(1713559387.712255) can0 12F#F810022000000071
(1713559387.712489) can0 12A#1428701C60580098
(1713559387.712735) can0 12D#000000000000006A
(1713559387.712983) can0 290#0000000200000062
(1713559387.713401) can0 140#0000030000000000
(1713559387.715766) can0 400#2880000000000040
(1713559387.717918) can0 174#EE7F0058437908A6
(1713559387.718153) can0 178#F47F0000159308B3
(1713559387.718392) can0 17C#108001002C690822
(1713559387.718882) can0 6B9#0020400000000000
(1713559387.719125) can0 541#0440E800007FFF86
(1713559387.719416) can0 5A2#1410140000000000
(1713559387.721168) can0 410#2880008B9F6E8BC0
(1713559387.722102) can0 12F#F810022000000090
(1713559387.722337) can0 128#1388030000EC78A3
(1713559387.722583) can0 12D#000000000000008B
(1713559387.722827) can0 12E#000000000000C0A5
(1713559387.723077) can0 290#0010000200000088
(1713559387.725862) can0 400#2880000000000075
(1713559387.727987) can0 174#F07F00583B790947
(1713559387.728212) can0 178#F87F0137159309E4
(1713559387.728447) can0 17C#1080010022690936
(1713559387.729076) can0 551#000000000004C000
(1713559387.729329) can0 5D1#9958000200000000
(1713559387.730828) can0 410#2880008B9F6E8B21
(1713559387.731072) can0 120#00000000070000AE
(1713559387.731336) can0 121#00000000000000BE
(1713559387.731561) can0 129#00000001000000BA
(1713559387.732185) can0 12F#F8100220000000A5
(1713559387.732432) can0 12D#00000000000000BE
(1713559387.732678) can0 290#00100002000000BD
(1713559387.733934) can0 140#0000030000000000
(1713559387.735861) can0 400#2880000000000094
(1713559387.737934) can0 174#F07F005834790AE6
(1713559387.738169) can0 178#FA7F022E0F930AF4
(1713559387.738409) can0 17C#0C8001001F690ABE
(1713559387.739035) can0 541#0440E800007FFFB3
(1713559387.740803) can0 410#2880008B9F6E8B4B
(1713559387.742157) can0 12F#F8100220000000CF
(1713559387.742391) can0 128#1388030000EC78C9
(1713559387.742638) can0 12D#00000000000000D4
(1713559387.742876) can0 12E#000000000000C0CF
(1713559387.743135) can0 290#00000002000000DC
(1713559387.745963) can0 400#28800000000000A1
(1713559387.747989) can0 174#F27F005832790B44
(1713559387.748219) can0 178#FC7F033104930B9D
(1713559387.748464) can0 17C#088001001C690B46
(1713559387.749100) can0 551#000000000004C000
(1713559387.749352) can0 552#00FFFFFFFFFFFFCF
(1713559387.749597) can0 5D1#9958000200000000
(1713559387.749842) can0 5D2#7444540000000000
(1713559387.750090) can0 450#005540001B004A00
(1713559387.750777) can0 410#2880008B9F6E8B7E
(1713559387.751062) can0 120#00000000070000C4
(1713559387.751306) can0 121#00000000000000D4
(1713559387.751553) can0 129#00000001000000D0
(1713559387.752277) can0 12F#F81002200000002E
(1713559387.752474) can0 12D#0000000000000035
(1713559387.752721) can0 290#000000020000003D
(1713559387.754465) can0 140#0000030000000000
(1713559387.755958) can0 400#28800000000000CB
(1713559387.757935) can0 174#F47F005834790CC1
(1713559387.758169) can0 178#00800430F6920C84
(1713559387.758406) can0 17C#0680010017690C94
(1713559387.759031) can0 541#0440E800007FFFD9
(1713559387.759272) can0 550#48000C000100009D
(1713559387.760753) can0 410#2880008B9F6E8B9F
(1713559387.762206) can0 12F#F810022000000044
(1713559387.762442) can0 128#1388030000EC7828
(1713559387.762677) can0 12A#1428701C605800AD
(1713559387.762926) can0 12D#000000000000005F
(1713559387.763173) can0 12E#000000000000C02E
(1713559387.763419) can0 290#0000000200000057
(1713559387.763653) can0 5A0#0000006244928097
(1713559387.766061) can0 400#288000000000002A
(1713559387.767995) can0 174#F47F005838790DD6
(1713559387.768230) can0 178#04800000F4920D29
(1713559387.768469) can0 17C#0880010016690D07
(1713559387.769092) can0 551#000000000004C000
(1713559387.769335) can0 5D1#9958000200000000
(1713559387.770718) can0 410#2880008B9F6E8BAA
(1713559387.771160) can0 120#0000000007000025
(1713559387.771411) can0 121#0000000000000035
(1713559387.771652) can0 129#0000000100000031
(1713559387.772242) can0 12F#F810022000000071
(1713559387.772488) can0 12D#000000000000006A
(1713559387.772737) can0 290#0000000200000062
(1713559387.774996) can0 140#0000030000000000
(1713559387.776058) can0 400#2880000000000040
(1713559387.776604) can0 4EA#0000000000000000
(1713559387.776849) can0 5B2#0800000000000000
(1713559387.777095) can0 310#FFFFFFFF7D7D0000
(1713559387.777951) can0 174#F27F00583F790EA8
(1713559387.778187) can0 178#04800138FC920E9B
(1713559387.778423) can0 17C#068001001C690E2E
(1713559387.779027) can0 541#0440E800007FFF38
(1713559387.780701) can0 410#2880008B9F6E8BC0
(1713559387.782149) can0 12F#F810022000000090
(1713559387.782382) can0 128#1388030000EC7842
(1713559387.782628) can0 12D#000000000000008B
(1713559387.782872) can0 12E#000000000000C044
(1713559387.783124) can0 290#0000000200000083
(1713559387.786159) can0 400#2880000000000075
(1713559387.786787) can0 540#0000001040009E00
(1713559387.787027) can0 5B0#6342000000000042
(1713559387.788009) can0 174#EE7F00583F790FB7
(1713559387.788246) can0 178#0080023201930FAB
(1713559387.788484) can0 17C#0080010021690F4D
(1713559387.789077) can0 551#000000000004C000
(1713559387.789335) can0 5D1#9958000200000000
(1713559387.790559) can0 5D0#9958010200000000
(1713559387.790793) can0 410#2880008B9F6E8B21
(1713559387.791030) can0 5B1#008A9A6800000096
(1713559387.791269) can0 5CF#7444540000000000
(1713559387.791516) can0 120#000000000700004F
(1713559387.791763) can0 121#000000000000005F
(1713559387.792007) can0 129#000000010000005B
(1713559387.792255) can0 12D#00000000000000BE
(1713559387.792495) can0 12F#F8100220000000A5
(1713559387.792743) can0 290#00000002000000B6
(1713559387.795527) can0 140#0000030000000000
(1713559387.796149) can0 400#2880000000000094
(1713559387.797952) can0 174#EC7F00584279007B
(1713559387.798185) can0 178#FC7F033201930061
(1713559387.798424) can0 17C#FA7F0100226900B2
(1713559387.799042) can0 541#0440E800007FFF52
(1713559387.799296) can0 552#00FFFFFFFFFFFF2E
(1713559387.799545) can0 450#005540001B004A00
(1713559387.800592) can0 410#2880008B9F6E8B4B
(1713559387.802297) can0 12F#F8100220000000CF
(1713559387.802530) can0 128#1388030000EC7877
(1713559387.802774) can0 12D#00000000000000D4
(1713559387.803022) can0 12E#000000000000C071
(1713559387.803271) can0 290#00000002000000DC
(1713559387.806254) can0 400#28800000000000A1
(1713559387.808012) can0 174#EA7F00584A7901B9
(1713559387.808244) can0 178#FE7F04350393013A
(1713559387.808487) can0 17C#F87F01001F6901B8
(1713559387.809079) can0 551#000000000004C000
(1713559387.809323) can0 550#48000C00010000A8
(1713559387.809571) can0 5D1#9958000200000000
(1713559387.810617) can0 410#2880008B9F6E8B7E
(1713559387.811384) can0 120#000000000700007A
(1713559387.811615) can0 121#000000000000006A
(1713559387.811862) can0 129#000000010000006E
(1713559387.812157) can0 12F#F81002200000002E
(1713559387.812392) can0 12A#1428701C605800C7
(1713559387.812638) can0 12D#0000000000000035
