(1713559162.386643) can0 410#2880008B9F6E8B4B
(1713559162.388359) can0 140#0000030000000000
(1713559162.388899) can0 400#28800000000000CB
(1713559162.389139) can0 541#0440E800007FFFB3
(1713559162.394201) can0 174#EE7F005137790BCE
(1713559162.394443) can0 12D#0000000000000035
(1713559162.394685) can0 12F#F810012000000027
(1713559162.394919) can0 178#088002430A930BEB
(1713559162.395153) can0 17C#F67F01002A690BCA
(1713559162.395405) can0 290#000000020000003D
(1713559162.395966) can0 410#2880008B9F6E8B7E
(1713559162.398963) can0 400#288000000000002A
(1713559162.399207) can0 551#000000000004C000
(1713559162.399458) can0 5D1#9958000200000000
(1713559162.399703) can0 540#0000001040009E00
(1713559162.399943) can0 5B0#6342000000000077
(1713559162.404069) can0 120#0000000007000025
(1713559162.404314) can0 121#0000000000000035
(1713559162.404552) can0 128#1388030000EC7828
(1713559162.404796) can0 129#0000000100000031
(1713559162.405046) can0 12D#000000000000005F
(1713559162.405289) can0 12E#000000000000C02E
(1713559162.405533) can0 12F#F81001200000004D
(1713559162.405763) can0 174#EC7F00512F790C33
(1713559162.405996) can0 178#0680033207930C30
(1713559162.406234) can0 17C#FE7F01002D690CC1
(1713559162.406480) can0 290#0000000200000057
(1713559162.406720) can0 410#2880008B9F6E8B9F
(1713559162.408850) can0 140#0000030000000000
(1713559162.409094) can0 400#2880000000000040
(1713559162.409335) can0 541#0440E800007FFFD9
(1713559162.409580) can0 550#48000C000100007C
(1713559162.409824) can0 552#00FFFFFFFFFFFFA5
(1713559162.410070) can0 450#005500001B004A00
(1713559162.414218) can0 174#EC7F005132790DB3
(1713559162.414466) can0 12F#F810012000000078
(1713559162.414700) can0 12A#1428701C60580098
(1713559162.414946) can0 12D#000000000000006A
(1713559162.415182) can0 178#FE7F043004930DFF
(1713559162.415423) can0 17C#0280010034690D5C
(1713559162.415673) can0 290#0000000200000062
(1713559162.415978) can0 410#2880008B9F6E8BAA
(1713559162.419087) can0 400#2880000000000075
(1713559162.419340) can0 551#000000000004C000
(1713559162.419583) can0 5D1#9958000200000000
(1713559162.424192) can0 120#000000000700004F
(1713559162.424437) can0 121#000000000000005F
(1713559162.424671) can0 128#1388030000EC7842
(1713559162.424915) can0 129#000000010000005B
(1713559162.425161) can0 12D#000000000000008B
(1713559162.425413) can0 12E#000000000000C044
(1713559162.425647) can0 12F#F810012000000099
(1713559162.425874) can0 174#EE7F00513B790EAD
(1713559162.426107) can0 178#F87F053004930E61
(1713559162.426345) can0 17C#028001003B690EFD
(1713559162.426600) can0 290#0000000200000083
(1713559162.426838) can0 410#2880008B9F6E8BC0
(1713559162.429123) can0 541#0440E800007FFF38
(1713559162.429318) can0 400#2880000000000094
(1713559162.429569) can0 140#0000030000000000
(1713559162.434207) can0 174#F27F005143790FF6
(1713559162.434448) can0 12D#00000000000000BE
(1713559162.434688) can0 12F#F8100120000000AC
(1713559162.434920) can0 178#F07F063206930F34
(1713559162.435158) can0 17C#FC7F01003D690F44
(1713559162.435406) can0 290#00000002000000B6
(1713559162.435951) can0 410#2880008B9F6E8B21
(1713559162.439118) can0 551#000000000004C000
(1713559162.439401) can0 400#28800000000000A1
(1713559162.439604) can0 5D1#9958000200000000
(1713559162.440293) can0 4EA#0000000000000000
(1713559162.440541) can0 5B2#0800000000000000
(1713559162.440784) can0 310#FFFFFFFF7D7D0000
(1713559162.444188) can0 12F#F8100120000000C6
(1713559162.444432) can0 120#000000000700007A
(1713559162.444683) can0 121#000000000000006A
(1713559162.444917) can0 128#1388030000EC7877
(1713559162.445166) can0 129#000000010000006E
(1713559162.445410) can0 12D#00000000000000D4
(1713559162.445666) can0 12E#000000000000C071
(1713559162.445890) can0 174#F47F00514579009B
(1713559162.446119) can0 178#EC7F07370D9300B4
(1713559162.446360) can0 17C#F87F010034690015
(1713559162.446608) can0 290#00000002000000DC
(1713559162.446847) can0 410#2880008B9F6E8B4B
(1713559162.449225) can0 400#28800000000000CB
(1713559162.449862) can0 140#0000030000000000
(1713559162.451519) can0 541#0440E800007FFF52
(1713559162.454207) can0 174#F07F0051437901EA
(1713559162.454453) can0 12D#0000000000000035
(1713559162.454695) can0 12F#F810012000000027
(1713559162.454931) can0 178#EC7F085F15930183
(1713559162.455169) can0 17C#F67F01002A690118
(1713559162.455418) can0 290#000000020000003D
(1713559162.455666) can0 6B9#0020400000000000
(1713559162.455910) can0 5A2#1410140000000000
(1713559162.456150) can0 410#2880008B9F6E8B7E
(1713559162.459064) can0 550#48000C000100009D
(1713559162.459308) can0 551#000000000004C000
(1713559162.459560) can0 400#288000000000002A
(1713559162.459803) can0 552#00FFFFFFFFFFFFCF
(1713559162.460049) can0 5D1#9958000200000000
(1713559162.460291) can0 5D2#7444540000000000
(1713559162.460539) can0 450#005500001B004A00
(1713559162.464249) can0 12F#F81001200000004D
(1713559162.464493) can0 120#000000000700009B
(1713559162.464737) can0 121#000000000000008B
(1713559162.464971) can0 128#1388030000EC7896
(1713559162.465214) can0 129#000000010000008F
(1713559162.465448) can0 12A#1428701C605800AD
(1713559162.465697) can0 12D#000000000000005F
(1713559162.465951) can0 12E#000000000000C090
(1713559162.466176) can0 174#EE7F00513B790231
(1713559162.466404) can0 178#F47F093012930299
(1713559162.466644) can0 17C#FA7F01002469028D
(1713559162.466890) can0 290#0000000200000057
(1713559162.467130) can0 410#2880008B9F6E8B9F
(1713559162.467394) can0 5A0#0000006244928029
(1713559162.469117) can0 541#0440E800007FFF67
(1713559162.469374) can0 400#2880000000000040
(1713559162.470383) can0 140#0000030000000000
(1713559162.470867) can0 5D0#9958010200000000
(1713559162.471105) can0 5B1#008A9A6800000028
(1713559162.471344) can0 5CF#7444540000000000
(1713559162.474211) can0 174#EE7F0051347903AA
(1713559162.474457) can0 12D#000000000000006A
(1713559162.474705) can0 12F#F810012000000078
(1713559162.474941) can0 178#F87F0A37099303ED
(1713559162.475179) can0 17C#FA7F010021690319
(1713559162.475428) can0 290#0000000200000062
(1713559162.475972) can0 410#2880008B9F6E8BAA
(1713559162.479126) can0 551#000000000004C000
(1713559162.479402) can0 400#2880000000000075
(1713559162.479618) can0 5D1#9958000200000000
(1713559162.484187) can0 12F#F810012000000099
(1713559162.484423) can0 128#1388030000EC78A3
(1713559162.484667) can0 120#00000000070000AE
(1713559162.484913) can0 121#00000000000000BE
(1713559162.485155) can0 129#00000001000000BA
(1713559162.485401) can0 12D#000000000000008B
(1713559162.485645) can0 12E#000000000000C0A5
(1713559162.485877) can0 174#EE7F00512D790462
(1713559162.486119) can0 178#F87F0B310693043B
(1713559162.486353) can0 17C#FA7F01001F69046B
(1713559162.486604) can0 290#0000000200000083
(1713559162.486844) can0 410#2880008B9F6E8BC0
(1713559162.489114) can0 541#0440E800007FFF86
(1713559162.489418) can0 400#2880000000000094
(1713559162.490910) can0 140#0000030000000000
(1713559162.494225) can0 174#EE7F00512C7905F0
(1713559162.494470) can0 12D#00000000000000BE
(1713559162.494711) can0 12F#F8100120000000AC
(1713559162.494948) can0 178#F67F00000993059A
(1713559162.495188) can0 17C#FC7F01001F6905A5
(1713559162.495435) can0 290#00000002000000B6
(1713559162.495973) can0 410#2880008B9F6E8B21
(1713559162.499067) can0 551#000000000004C000
(1713559162.499329) can0 5D1#9958000200000000
(1713559162.499564) can0 400#28800000000000A1
(1713559162.500021) can0 540#0000001040009E00
(1713559162.500264) can0 5B0#6342000000000096
(1713559162.504224) can0 12F#F8100120000000C6
(1713559162.504456) can0 128#1388030000EC78C9
(1713559162.504702) can0 120#00000000070000C4
(1713559162.504946) can0 121#00000000000000D4
(1713559162.505189) can0 129#00000001000000D0
(1713559162.505433) can0 12D#00000000000000D4
(1713559162.505679) can0 12E#000000000000C0CF
(1713559162.505910) can0 174#EA7F005234790610
(1713559162.506141) can0 178#F67F013711930658
(1713559162.506381) can0 17C#028001001769062F
(1713559162.506629) can0 290#00000002000000DC
(1713559162.506867) can0 410#2880008B9F6E8B4B
(1713559162.509066) can0 550#48000C00010000A8
(1713559162.509312) can0 541#0440E800007FFFB3
(1713559162.509559) can0 400#28800000000000CB
(1713559162.509804) can0 552#00FFFFFFFFFFFF2E
(1713559162.510050) can0 450#005500001B004A00
(1713559162.511482) can0 140#0000030000000000
(1713559162.514242) can0 174#E67F005138790706
(1713559162.514484) can0 12F#F810012000000027
(1713559162.514720) can0 12A#1428701C605800C7
(1713559162.514966) can0 12D#0000000000000035
(1713559162.515197) can0 178#F67F022E1893075C
(1713559162.515439) can0 17C#06800100106907D1
(1713559162.515686) can0 290#000000020000003D
(1713559162.515927) can0 410#2880008B9F6E8B7E
(1713559162.519069) can0 551#000000000004C000
(1713559162.519328) can0 5D1#9958000200000000
(1713559162.519574) can0 400#288000000000002A
(1713559162.524230) can0 12F#F81001200000004D
(1713559162.524463) can0 128#1388030000EC7828
(1713559162.524713) can0 12D#000000000000005F
(1713559162.524961) can0 120#0000000007000025
(1713559162.525210) can0 121#0000000000000035
(1713559162.525454) can0 129#0000000100000031
(1713559162.525698) can0 12E#000000000000C02E
(1713559162.525928) can0 174#E67F00513779083B
(1713559162.526160) can0 178#FA7F03311A930878
(1713559162.526400) can0 17C#06800100136908E6
(1713559162.526644) can0 290#0000000200000057
(1713559162.526884) can0 410#2880008B9F6E8B9F
(1713559162.529118) can0 541#0440E800007FFFD9
(1713559162.529620) can0 400#2880000000000040
(1713559162.532004) can0 140#0000030000000000
(1713559162.534243) can0 174#E87F0051347909AB
(1713559162.534488) can0 12D#000000000000006A
(1713559162.534736) can0 12F#F810012000000078
(1713559162.534971) can0 178#048004301C930957
(1713559162.535207) can0 17C#02800100216909B9
(1713559162.535456) can0 290#0000000200000062
(1713559162.535835) can0 410#2880008B9F6E8BAA
(1713559162.539063) can0 551#000000000004C000
(1713559162.539343) can0 5D1#9958000200000000
(1713559162.539619) can0 400#2880000000000075
(1713559162.540042) can0 4EA#0000000000000000
(1713559162.540286) can0 5B2#0800000000000000
(1713559162.540532) can0 310#FFFFFFFF7D7D0000
(1713559162.544182) can0 12F#F810012000000099
(1713559162.544413) can0 128#1388030000EC7842
(1713559162.544658) can0 12D#000000000000008B
(1713559162.544904) can0 120#000000000700004F
(1713559162.545152) can0 121#000000000000005F
(1713559162.545397) can0 129#000000010000005B
(1713559162.545641) can0 12E#000000000000C044
(1713559162.545871) can0 174#EA7F005132790A33
(1713559162.546107) can0 178#088000001D930A9E
(1713559162.546343) can0 17C#FE7F010032690A11
(1713559162.546594) can0 290#0010000200000088
(1713559162.546833) can0 410#2880008B9F6E8BC0
(1713559162.549126) can0 541#0440E800007FFF38
(1713559162.549711) can0 400#2880000000000094
(1713559162.552528) can0 140#0000030000000000
(1713559162.554247) can0 174#EC7F005134790BF8
(1713559162.554494) can0 12D#00000000000000BE
(1713559162.554734) can0 12F#F8100120000000AC
(1713559162.554970) can0 178#0080013818930B41
(1713559162.555204) can0 17C#FA7F010042690B2D
(1713559162.555451) can0 290#00100002000000BD
(1713559162.555698) can0 6B9#0020400000000000
(1713559162.555935) can0 410#2880008B9F6E8B21
(1713559162.556179) can0 5A2#1410140000000000
(1713559162.559015) can0 550#48000C00010000C2
(1713559162.559261) can0 551#000000000004C000
(1713559162.559516) can0 552#00FFFFFFFFFFFF44
(1713559162.559768) can0 400#28800000000000A1
(1713559162.560010) can0 55A#0017160000000000
(1713559162.560256) can0 5D1#9958000200000000
(1713559162.560499) can0 5D2#7444540000000000
(1713559162.560746) can0 450#005500001B004A00
(1713559162.564288) can0 12F#F8100120000000C6
(1713559162.564518) can0 128#1388030000EC7877
(1713559162.564752) can0 12A#1428701C60580026
(1713559162.565001) can0 120#000000000700007A
(1713559162.565252) can0 121#000000000000006A
(1713559162.565501) can0 129#000000010000006E
(1713559162.565744) can0 12D#00000000000000D4
(1713559162.565993) can0 12E#000000000000C071
(1713559162.566223) can0 174#EE7F00513A790C18
(1713559162.566454) can0 178#F47F023211930C5D
(1713559162.566693) can0 17C#F87F010050690CDF
(1713559162.566941) can0 290#00000002000000DC
(1713559162.567180) can0 410#2880008B9F6E8B4B
(1713559162.567422) can0 5A0#0000006244928043
(1713559162.569112) can0 541#0440E800007FFF52
(1713559162.569804) can0 400#28800000000000CB
(1713559162.570929) can0 5D0#9958010200000000
(1713559162.571164) can0 5B1#008A9A6800000042
(1713559162.571405) can0 5CF#7444540000000000
(1713559162.573044) can0 140#0000030000000000
(1713559162.574245) can0 174#EE7F005137790D80
(1713559162.574490) can0 12D#0000000000000035
(1713559162.574733) can0 12F#F810012000000027
(1713559162.574965) can0 178#F07F033207930D5E
(1713559162.575201) can0 17C#F27F010056690DAF
(1713559162.575450) can0 290#000000020000003D
(1713559162.575731) can0 410#2880008B9F6E8B7E
(1713559162.579069) can0 551#000000000004C000
(1713559162.579331) can0 5D1#9958000200000000
(1713559162.579815) can0 400#288000000000002A
(1713559162.584186) can0 12F#F81001200000004D
(1713559162.584416) can0 128#1388030000EC7896
(1713559162.584665) can0 12D#000000000000005F
(1713559162.584912) can0 12E#000000000000C090
(1713559162.585158) can0 120#000000000700009B
(1713559162.585402) can0 121#000000000000008B
(1713559162.585645) can0 129#000000010000008F
(1713559162.585872) can0 174#EA7F00512F790EDA
(1713559162.586107) can0 178#F27F043507930E3C
(1713559162.586339) can0 17C#EE7F01004D690E12
(1713559162.586585) can0 290#0000000200000057
(1713559162.586825) can0 410#2880008B9F6E8B9F
(1713559162.589113) can0 541#0440E800007FFF67
(1713559162.589906) can0 400#2880000000000040
(1713559162.593572) can0 140#0000030000000000
(1713559162.594253) can0 174#EC7F005132790F89
(1713559162.594497) can0 12D#000000000000006A
(1713559162.594746) can0 12F#F810012000000078
(1713559162.594982) can0 178#FA7F00000C930F7A
(1713559162.595220) can0 17C#F07F010031690FF5
(1713559162.595469) can0 290#0000000200000062
(1713559162.595704) can0 410#2880008B9F6E8BAA
(1713559162.599064) can0 551#000000000004C000
(1713559162.599314) can0 5D1#9958000200000000
(1713559162.599903) can0 400#2880000000000075
(1713559162.600537) can0 540#0000001040009E00
(1713559162.600779) can0 5B0#63420000000000A3
(1713559162.604265) can0 12F#F810012000000099
(1713559162.604497) can0 128#1388030000EC78A3
(1713559162.604742) can0 12D#000000000000008B
(1713559162.604987) can0 12E#000000000000C0A5
(1713559162.605235) can0 120#00000000070000AE
(1713559162.605479) can0 121#00000000000000BE
(1713559162.605721) can0 129#00000001000000BA
(1713559162.605956) can0 174#EE7F00513D79000E
(1713559162.606193) can0 178#FA7F01320F93006F
(1713559162.606433) can0 17C#F67F010014690024
(1713559162.606686) can0 290#0000000200000083
(1713559162.606926) can0 410#2880008B9F6E8BC0
(1713559162.609064) can0 550#48000C0001000023
(1713559162.609305) can0 541#0440E800007FFF86
(1713559162.609557) can0 552#00FFFFFFFFFFFF71
(1713559162.609802) can0 450#005500001B004A00
(1713559162.610054) can0 400#2880000000000094
(1713559162.614101) can0 140#0000030000000000
(1713559162.614327) can0 174#EE7F0051427901DD
(1713559162.614573) can0 12D#00000000000000BE
(1713559162.614808) can0 12A#1428701C6058004C
(1713559162.615045) can0 12F#F8100120000000AC
(1713559162.615279) can0 178#F47F023012930177
(1713559162.615520) can0 17C#FC7F0100136901DB
(1713559162.615766) can0 290#00000002000000B6
(1713559162.616002) can0 410#2880008B9F6E8B21
(1713559162.619064) can0 551#000000000004C000
(1713559162.619314) can0 5D1#9958000200000000
(1713559162.619999) can0 400#28800000000000A1
(1713559162.624137) can0 12F#F8100120000000C6
(1713559162.624373) can0 128#1388030000EC78C9
(1713559162.624616) can0 12D#00000000000000D4
(1713559162.624860) can0 12E#000000000000C0CF
(1713559162.625094) can0 174#F07F00513D79028C
(1713559162.625340) can0 120#00000000070000C4
(1713559162.625597) can0 121#00000000000000D4
(1713559162.625877) can0 129#00000001000000D0
(1713559162.626109) can0 178#F07F033214930271
(1713559162.626351) can0 17C#008001002A69024C
(1713559162.626599) can0 290#00000002000000DC
(1713559162.626837) can0 410#2880008B9F6E8B4B
(1713559162.629116) can0 541#0440E800007FFFB3
(1713559162.630101) can0 400#28800000000000CB
(1713559162.634328) can0 174#F07F005134790312
(1713559162.634565) can0 12D#0000000000000035
(1713559162.634806) can0 12F#F810012000000027
(1713559162.635055) can0 140#0000030000000000
(1713559162.635285) can0 178#EE7F04330D9303D9
(1713559162.635524) can0 17C#02800100406903B4
(1713559162.635772) can0 290#000000020000003D
(1713559162.636011) can0 410#2880008B9F6E8B7E
(1713559162.639058) can0 551#000000000004C000
(1713559162.639327) can0 5D1#9958000200000000
(1713559162.639798) can0 4EA#0000000000000000
(1713559162.640042) can0 5B2#0800000000000000
(1713559162.640288) can0 310#FFFFFFFF7D7D0000
(1713559162.640536) can0 400#288000000000002A
(1713559162.644133) can0 12F#F81001200000004D
(1713559162.644371) can0 128#1388030000EC7828
(1713559162.644621) can0 12D#000000000000005F
(1713559162.644865) can0 12E#000000000000C02E
(1713559162.645097) can0 174#EE7F00512F790461
(1713559162.645345) can0 120#0000000007000025
(1713559162.645593) can0 121#0000000000000035
(1713559162.645886) can0 129#0000000100000031
(1713559162.646117) can0 178#F47F053104930495
(1713559162.646358) can0 17C#068001004069048E
(1713559162.646603) can0 290#001000020000005C
(1713559162.646846) can0 410#2880008B9F6E8B9F
(1713559162.649120) can0 541#0440E800007FFFD9
(1713559162.650198) can0 400#2880000000000040
(1713559162.654322) can0 174#EC7F00513479055E
(1713559162.654575) can0 12D#000000000000006A
(1713559162.654816) can0 12F#F810012000000078
(1713559162.655048) can0 178#FE7F0630049305C3
(1713559162.655298) can0 140#0000030000000000
(1713559162.655539) can0 17C#088001002F690544
(1713559162.655780) can0 290#0010000200000069
(1713559162.656016) can0 410#2880008B9F6E8BAA
(1713559162.656265) can0 6B9#0020400000000000
(1713559162.656508) can0 5A2#1410140000000000
(1713559162.659017) can0 550#48000C0001000049
(1713559162.659263) can0 551#000000000004C000
(1713559162.659518) can0 552#00FFFFFFFFFFFF90
(1713559162.659764) can0 5D1#9958000200000000
(1713559162.660007) can0 5D2#7444540000000000
(1713559162.660253) can0 400#2880000000000075
(1713559162.660493) can0 450#005500001B004A00
(1713559162.664192) can0 12F#F810012000000099
(1713559162.664425) can0 128#1388030000EC7842
(1713559162.664658) can0 12A#1428701C60580079
(1713559162.664904) can0 12D#000000000000008B
(1713559162.665148) can0 12E#000000000000C044
(1713559162.665394) can0 120#000000000700004F
(1713559162.665642) can0 121#000000000000005F
(1713559162.665886) can0 129#000000010000005B
(1713559162.666162) can0 174#EC7F005140790637
(1713559162.666400) can0 178#028007310F930688
(1713559162.666641) can0 17C#06800100266906E1
(1713559162.666893) can0 290#0000000200000083
(1713559162.667136) can0 410#2880008B9F6E8BC0
(1713559162.667399) can0 5A0#0000006244928076
(1713559162.669112) can0 541#0440E800007FFF38
(1713559162.670307) can0 400#2880000000000094
(1713559162.670947) can0 5D0#9958010200000000
(1713559162.671184) can0 5B1#008A9A6800000077
(1713559162.671424) can0 5CF#7444540000000000
(1713559162.674328) can0 174#EC7F00514679072F
(1713559162.674575) can0 12D#00000000000000BE
(1713559162.674823) can0 12F#F8100120000000AC
(1713559162.675057) can0 178#028008381893077A
(1713559162.675298) can0 17C#FE7F01002469078D
(1713559162.675547) can0 290#00000002000000B6
(1713559162.675794) can0 140#0000030000000000
(1713559162.676030) can0 410#2880008B9F6E8B21
(1713559162.679065) can0 551#000000000004C000
(1713559162.679315) can0 5D1#9958000200000000
(1713559162.680289) can0 400#28800000000000A1
(1713559162.684142) can0 12F#F8100120000000C6
(1713559162.684365) can0 128#1388030000EC7877
(1713559162.684609) can0 12D#00000000000000D4
(1713559162.684858) can0 12E#000000000000C071
(1713559162.685090) can0 174#EE7F00513F7908E5
(1713559162.685327) can0 178#0680000014930826
(1713559162.685575) can0 120#000000000700007A
(1713559162.685828) can0 121#000000000000006A
(1713559162.686076) can0 129#000000010000006E
(1713559162.686329) can0 17C#F67F01001F69084C
(1713559162.686612) can0 290#00000002000000DC
(1713559162.686850) can0 410#2880008B9F6E8B4B
(1713559162.689104) can0 541#0440E800007FFF52
(1713559162.690400) can0 400#28800000000000CB
(1713559162.694346) can0 174#EE7F00513079097E
(1713559162.694585) can0 12D#0000000000000035
(1713559162.694827) can0 12F#F810012000000027
(1713559162.695072) can0 178#08800000079309AE
(1713559162.695307) can0 17C#F07F010019690987
(1713559162.695555) can0 290#000000020000003D
(1713559162.695793) can0 410#2880008B9F6E8B7E
(1713559162.696189) can0 140#0000030000000000
(1713559162.699062) can0 551#000000000004C000
(1713559162.699311) can0 5D1#9958000200000000
(1713559162.700390) can0 400#288000000000002A
(1713559162.700987) can0 540#0000001040009E00
(1713559162.701228) can0 5B0#63420000000000C9
(1713559162.704173) can0 12F#F81001200000004D
(1713559162.704405) can0 128#1388030000EC7896
(1713559162.704656) can0 12D#000000000000005F
(1713559162.704903) can0 12E#000000000000C090
(1713559162.705131) can0 174#EE7F00512A790A4E
(1713559162.705366) can0 178#06800152FE920A33
(1713559162.705612) can0 120#000000000700009B
(1713559162.705856) can0 121#000000000000008B
(1713559162.706098) can0 129#000000010000008F
(1713559162.706335) can0 17C#EE7F01001F690A1D
(1713559162.706624) can0 290#0000000200000057
(1713559162.706869) can0 410#2880008B9F6E8B9F
(1713559162.709067) can0 550#48000C000100007C
(1713559162.709309) can0 541#0440E800007FFF67
(1713559162.709561) can0 552#00FFFFFFFFFFFFA5
(1713559162.709807) can0 450#005500001B004A00
(1713559162.710505) can0 400#2880000000000040
(1713559162.714341) can0 174#F07F00512D790B61
(1713559162.714573) can0 12A#1428701C60580098
(1713559162.714821) can0 12D#000000000000006A
(1713559162.715067) can0 12F#F810012000000078
(1713559162.715314) can0 178#0280026FFF920B56
(1713559162.715545) can0 17C#F07F01002C690B1C
(1713559162.715790) can0 290#0000000200000062
(1713559162.716026) can0 410#2880008B9F6E8BAA
(1713559162.716716) can0 140#0000030000000000
(1713559162.719108) can0 551#000000000004C000
(1713559162.719310) can0 5D1#9958000200000000
(1713559162.720483) can0 400#2880000000000075
(1713559162.724137) can0 12F#F810012000000099
(1713559162.724372) can0 128#1388030000EC78A3
(1713559162.724618) can0 12D#000000000000008B
(1713559162.724862) can0 12E#000000000000C0A5
(1713559162.725090) can0 174#F27F005135790C9C
(1713559162.725325) can0 178#FE7F036207930CF3
(1713559162.725564) can0 17C#F07F010034690C5B
(1713559162.725809) can0 120#00000000070000AE
(1713559162.726055) can0 121#00000000000000BE
(1713559162.726297) can0 129#00000001000000BA
(1713559162.726549) can0 290#0000000200000083
(1713559162.726838) can0 410#2880008B9F6E8BC0
(1713559162.729106) can0 541#0440E800007FFF86
(1713559162.730594) can0 400#2880000000000094
(1713559162.734344) can0 174#F47F00513A790DD4
(1713559162.734590) can0 12D#00000000000000BE
(1713559162.734830) can0 12F#F8100120000000AC
(1713559162.735064) can0 178#FE7F046512930D80
(1713559162.735298) can0 17C#EE7F010037690D72
(1713559162.735549) can0 290#00000002000000B6
(1713559162.735781) can0 410#2880008B9F6E8B21
(1713559162.737241) can0 140#0000030000000000
(1713559162.739484) can0 551#000000000004C000
(1713559162.739732) can0 4EA#0000000000000000
(1713559162.739978) can0 5B2#0800000000000000
(1713559162.740223) can0 310#FFFFFFFF7D7D0000
(1713559162.740464) can0 5D1#9958000200000000
(1713559162.740710) can0 400#28800000000000A1
(1713559162.744130) can0 12F#F8100120000000C6
(1713559162.744364) can0 128#1388030000EC78C9
(1713559162.744608) can0 12D#00000000000000D4
(1713559162.744852) can0 12E#000000000000C0CF
(1713559162.745080) can0 174#F47F00513A790EF3
(1713559162.745310) can0 178#FE7F057214930E19
(1713559162.745547) can0 17C#F67F010037690E3E
(1713559162.745793) can0 120#00000000070000C4
(1713559162.746037) can0 121#00000000000000D4
(1713559162.746279) can0 129#00000001000000D0
(1713559162.746528) can0 290#00000002000000DC
(1713559162.746765) can0 410#2880008B9F6E8B4B
(1713559162.749108) can0 541#0440E800007FFFB3
(1713559162.750690) can0 400#28800000000000CB
(1713559162.754354) can0 174#F47F005134790FE7
(1713559162.754598) can0 12D#0000000000000035
(1713559162.754840) can0 12F#F810012000000027
(1713559162.755076) can0 178#FE7F06740F930F4B
(1713559162.755312) can0 17C#FC7F010037690F4B
(1713559162.755563) can0 290#000000020000003D
(1713559162.755807) can0 410#2880008B9F6E8B7E
(1713559162.756050) can0 6B9#0020400000000000
(1713559162.756293) can0 5A2#1410140000000000
(1713559162.757769) can0 140#0000030000000000
(1713559162.759071) can0 550#48000C000100009D
(1713559162.759317) can0 551#000000000004C000
(1713559162.759577) can0 552#00FFFFFFFFFFFFCF
(1713559162.759771) can0 5D1#9958000200000000
(1713559162.760015) can0 5D2#7444540000000000
(1713559162.760261) can0 450#005500001B004A00
(1713559162.760685) can0 400#288000000000002A
(1713559162.764198) can0 12F#F81001200000004D
(1713559162.764435) can0 128#1388030000EC7828
(1713559162.764669) can0 12A#1428701C605800AD
(1713559162.764920) can0 12D#000000000000005F
(1713559162.765164) can0 12E#000000000000C02E
(1713559162.765398) can0 174#F07F00512F7900AD
(1713559162.765632) can0 178#FE7F07200D930066
(1713559162.765881) can0 120#0000000007000025
(1713559162.766129) can0 121#0000000000000035
(1713559162.766373) can0 129#0000000100000031
(1713559162.766613) can0 17C#FE7F010035690049
(1713559162.766860) can0 290#0000000200000057
(1713559162.767099) can0 410#2880008B9F6E8B9F
(1713559162.767382) can0 5A0#0000006244928097
(1713559162.769105) can0 541#0440E800007FFFD9
(1713559162.770790) can0 400#2880000000000040
(1713559162.771026) can0 5B1#008A9A6800000096
(1713559162.771268) can0 5D0#9958010200000000
(1713559162.771507) can0 5CF#7444540000000000
(1713559162.774360) can0 174#EC7F00513479012A
(1713559162.774606) can0 12D#000000000000006A
(1713559162.774854) can0 12F#F810012000000078
(1713559162.775088) can0 178#FE7F08420C930171
(1713559162.775345) can0 17C#008001002C69016E
(1713559162.775577) can0 290#0000000200000062
(1713559162.775813) can0 410#2880008B9F6E8BAA
(1713559162.778299) can0 140#0000030000000000
(1713559162.779113) can0 551#000000000004C000
(1713559162.779382) can0 5D1#9958000200000000
(1713559162.780822) can0 400#2880000000000075
(1713559162.784129) can0 12F#F810012000000099
(1713559162.784361) can0 128#1388030000EC7842
(1713559162.784607) can0 12D#000000000000008B
(1713559162.784851) can0 12E#000000000000C044
(1713559162.785081) can0 174#EC7F00513D79028E
(1713559162.785318) can0 178#0080096F06930297
(1713559162.785558) can0 17C#008001001E690262
(1713559162.785810) can0 290#0000000200000083
(1713559162.786056) can0 120#000000000700004F
(1713559162.786304) can0 121#000000000000005F
(1713559162.786548) can0 129#000000010000005B
(1713559162.786788) can0 410#2880008B9F6E8BC0
(1713559162.789054) can0 541#0440E800007FFF38
(1713559162.790891) can0 400#2880000000000094
(1713559162.794369) can0 174#EC7F00514679035B
(1713559162.794615) can0 12D#00000000000000BE
(1713559162.794855) can0 12F#F8100120000000AC
(1713559162.795093) can0 178#06800A7303930399
(1713559162.795358) can0 17C#FE7F010019690354
(1713559162.795579) can0 290#00000002000000B6
(1713559162.795814) can0 410#2880008B9F6E8B21
(1713559162.798814) can0 140#0000030000000000
(1713559162.799116) can0 551#000000000004C000
(1713559162.799384) can0 5D1#9958000200000000
(1713559162.800919) can0 400#28800000000000A1
(1713559162.801517) can0 540#0000001040009E00
(1713559162.801759) can0 5B0#6342000000000028
(1713559162.804168) can0 12F#F8100120000000C6
(1713559162.804401) can0 128#1388030000EC7877
(1713559162.804646) can0 12D#00000000000000D4
(1713559162.804893) can0 12E#000000000000C071
(1713559162.805125) can0 174#EE7F0051487904BB
(1713559162.805361) can0 178#0A800B63049304B4
(1713559162.805601) can0 17C#FC7F010024690410
(1713559162.805850) can0 290#00000002000000DC
(1713559162.806098) can0 120#000000000700007A
(1713559162.806350) can0 121#000000000000006A
(1713559162.806598) can0 129#000000010000006E
(1713559162.806836) can0 410#2880008B9F6E8B4B
(1713559162.809017) can0 550#48000C00010000A8
(1713559162.809259) can0 541#0440E800007FFF52
(1713559162.809513) can0 552#00FFFFFFFFFFFF2E
(1713559162.809759) can0 450#005500001B004A00
(1713559162.810987) can0 400#28800000000000CB
(1713559162.814393) can0 174#EC7F00513F7905DE
(1713559162.814622) can0 12A#1428701C605800C7
(1713559162.814865) can0 12D#0000000000000035
(1713559162.815107) can0 12F#F810012000000027
(1713559162.815350) can0 178#08800C680A930537
(1713559162.815584) can0 17C#FE7F01002A6905BE
(1713559162.815831) can0 290#000000020000003D
(1713559162.816071) can0 410#2880008B9F6E8B7E
(1713559162.819103) can0 551#000000000004C000
(1713559162.819384) can0 140#0000030000000000
(1713559162.819596) can0 5D1#9958000200000000
(1713559162.821020) can0 400#288000000000002A
(1713559162.824140) can0 12F#F81001200000004D
(1713559162.824372) can0 128#1388030000EC7896
(1713559162.824622) can0 12D#000000000000005F
(1713559162.824868) can0 12E#000000000000C090
(1713559162.825100) can0 174#EA7F00522D79068B
(1713559162.825337) can0 178#00800D200D93062A
(1713559162.825576) can0 17C#0280010021690602
(1713559162.825822) can0 290#0000000200000057
(1713559162.826062) can0 410#2880008B9F6E8B9F
(1713559162.826308) can0 120#000000000700009B
(1713559162.826553) can0 121#000000000000008B
(1713559162.826795) can0 129#000000010000008F
(1713559162.829056) can0 541#0440E800007FFF67
(1713559162.831083) can0 400#2880000000000040
(1713559162.834392) can0 174#EA7F005121790726
(1713559162.834636) can0 12D#000000000000006A
(1713559162.834883) can0 12F#F810012000000078
(1713559162.835115) can0 178#FA7F0E470F930768
(1713559162.835394) can0 17C#02800100166907BD
(1713559162.835605) can0 290#0000000200000062
(1713559162.835840) can0 410#2880008B9F6E8BAA
(1713559162.839103) can0 551#000000000004C000
(1713559162.839358) can0 5D1#9958000200000000
(1713559162.839609) can0 4EA#0000000000000000
(1713559162.839847) can0 5B2#0800000000000000
(1713559162.840096) can0 140#0000030000000000
(1713559162.840341) can0 310#FFFFFFFF7D7D0000
(1713559162.841113) can0 400#2880000000000075
(1713559162.844130) can0 12F#F810012000000099
(1713559162.844365) can0 128#1388030000EC78A3
(1713559162.844611) can0 12D#000000000000008B
(1713559162.844855) can0 12E#000000000000C0A5
(1713559162.845085) can0 174#EC7F0051247908C7
(1713559162.845324) can0 178#00800F6D0F930880
(1713559162.845561) can0 17C#0280010019690880
(1713559162.845814) can0 290#0000000200000083
(1713559162.846054) can0 410#2880008B9F6E8BC0
(1713559162.846301) can0 120#00000000070000AE
(1713559162.846546) can0 121#00000000000000BE
(1713559162.846788) can0 129#00000001000000BA
(1713559162.849058) can0 541#0440E800007FFF86
(1713559162.851128) can0 400#2880000000000094
(1713559162.854388) can0 174#EC7F00522D7909E3
(1713559162.854633) can0 12D#00000000000000BE
(1713559162.854873) can0 12F#F8100120000000AC
(1713559162.855107) can0 178#088000620D930958
(1713559162.855350) can0 17C#02800100276909BC
(1713559162.855591) can0 290#00000002000000B6
(1713559162.855825) can0 410#2880008B9F6E8B21
(1713559162.856073) can0 6B9#0020400000000000
(1713559162.856317) can0 5A2#1410140000000000
(1713559162.859063) can0 550#48000C00010000C2
(1713559162.859308) can0 551#000000000004C000
(1713559162.859565) can0 552#00FFFFFFFFFFFF44
(1713559162.859806) can0 5D1#9958000200000000
(1713559162.860050) can0 5D2#7444540000000000
(1713559162.860296) can0 450#005500001B004A00
(1713559162.860546) can0 140#0000030000000000
(1713559162.861216) can0 400#28800000000000A1
(1713559162.864243) can0 12F#F8100120000000C6
(1713559162.864474) can0 128#1388030000EC78C9
(1713559162.864709) can0 12A#1428701C60580026
(1713559162.864953) can0 12D#00000000000000D4
(1713559162.865173) can0 12E#000000000000C0CF
(1713559162.865378) can0 174#EC7F00513A790AEC
(1713559162.865609) can0 178#0A8001480A930AD4
(1713559162.865845) can0 17C#FC7F010031690A27
(1713559162.866091) can0 290#00100002000000D7
(1713559162.866329) can0 410#2880008B9F6E8B4B
(1713559162.866576) can0 120#00000000070000C4
(1713559162.866820) can0 121#00000000000000D4
(1713559162.867062) can0 129#00000001000000D0
(1713559162.867300) can0 5A0#00000062449280A2
(1713559162.869049) can0 541#0440E800007FFFB3
(1713559162.870937) can0 5D0#9958010200000000
(1713559162.871173) can0 5B1#008A9A68000000A3
(1713559162.871420) can0 400#28800000000000CB
(1713559162.871658) can0 5CF#7444540000000000
(1713559162.874405) can0 174#EC7F005142790BB5
(1713559162.874650) can0 12D#0000000000000035
(1713559162.874891) can0 12F#F810012000000027
(1713559162.875131) can0 178#0480000009930B26
(1713559162.875383) can0 17C#F47F010032690B64
(1713559162.875611) can0 290#0010000200000036
(1713559162.875849) can0 410#2880008B9F6E8B7E
(1713559162.879108) can0 551#000000000004C000
(1713559162.879377) can0 5D1#9958000200000000
(1713559162.880917) can0 140#0000030000000000
(1713559162.881308) can0 400#288000000000002A
(1713559162.884187) can0 12F#F81001200000004D
(1713559162.884415) can0 128#1388030000EC7828
(1713559162.884664) can0 12D#000000000000005F
(1713559162.884908) can0 12E#000000000000C02E
(1713559162.885140) can0 174#EE7F005140790C5F
(1713559162.885376) can0 178#FC7F00000C930C8E
(1713559162.885610) can0 17C#F27F010032690CE4
(1713559162.885856) can0 290#0000000200000057
(1713559162.886096) can0 410#2880008B9F6E8B9F
(1713559162.886445) can0 120#0000000007000025
(1713559162.886693) can0 121#0000000000000035
(1713559162.886937) can0 129#0000000100000031
(1713559162.889049) can0 541#0440E800007FFFD9
(1713559162.891326) can0 400#2880000000000040
(1713559162.892974) can0 6AB#ACC2A57596A3C162
(1713559162.894354) can0 174#F07F005135790D3B
(1713559162.894600) can0 12D#000000000000006A
(1713559162.894848) can0 12F#F810012000000078
(1713559162.895082) can0 178#F47F000D0F930D82
(1713559162.895316) can0 17C#F27F010031690D75
(1713559162.895565) can0 290#0000000200000062
(1713559162.895811) can0 410#2880008B9F6E8BAA
(1713559162.899100) can0 551#000000000004C000
(1713559162.899357) can0 5D1#9958000200000000
(1713559162.901405) can0 400#2880000000000075
(1713559162.901654) can0 140#0000030000000000
(1713559162.902020) can0 540#0000001040009E00
(1713559162.902263) can0 5B0#6342000000000042
(1713559162.904220) can0 12F#F810012000000099
(1713559162.904457) can0 128#1388030000EC7842
(1713559162.904697) can0 12D#000000000000008B
(1713559162.904939) can0 12E#000000000000C044
(1713559162.905169) can0 174#EE7F00512F790EB3
(1713559162.905404) can0 178#EA7F00000D930E51
(1713559162.905638) can0 17C#F67F01002D690E29
(1713559162.905888) can0 290#0010000200000088
(1713559162.906128) can0 410#2880008B9F6E8BC0
(1713559162.906532) can0 120#000000000700004F
(1713559162.906780) can0 121#000000000000005F
(1713559162.907024) can0 129#000000010000005B
(1713559162.909015) can0 550#48000C0001000023
(1713559162.909259) can0 541#0440E800007FFF38
(1713559162.909511) can0 552#00FFFFFFFFFFFF71
(1713559162.909757) can0 450#005500001B004A00
(1713559162.911419) can0 400#2880000000000094
(1713559162.914371) can0 174#EE7F005130790F30
(1713559162.914604) can0 12A#1428701C6058004C
(1713559162.914851) can0 12D#00000000000000BE
(1713559162.915091) can0 12F#F8100120000000AC
(1713559162.915328) can0 178#E47F013607930F2E
(1713559162.915562) can0 17C#FA7F010027690F80
(1713559162.915809) can0 290#00100002000000BD
(1713559162.916092) can0 410#2880008B9F6E8B21
(1713559162.919100) can0 551#000000000004C000
(1713559162.919352) can0 5D1#9958000200000000
(1713559162.921501) can0 400#28800000000000A1
(1713559162.921966) can0 140#0000030000000000
(1713559162.924181) can0 12F#F8100120000000C6
(1713559162.924412) can0 128#1388030000EC7877
(1713559162.924663) can0 12D#00000000000000D4
(1713559162.924909) can0 12E#000000000000C071
(1713559162.925137) can0 174#EE7F005135790002
(1713559162.925373) can0 178#E67F023006930077
(1713559162.925613) can0 17C#FE7F01001E6900F9
(1713559162.925861) can0 290#00000002000000DC
(1713559162.926099) can0 410#2880008B9F6E8B4B
(1713559162.926631) can0 120#000000000700007A
(1713559162.926884) can0 121#000000000000006A
(1713559162.927132) can0 129#000000010000006E
(1713559162.931416) can0 541#0440E800007FFF52
(1713559162.931660) can0 400#28800000000000CB
(1713559162.934358) can0 12F#F810012000000027
(1713559162.934604) can0 12D#0000000000000035
(1713559162.934837) can0 174#F27F00513A79019B
(1713559162.935071) can0 178#EC7F03310A9301FF
(1713559162.935308) can0 17C#FE7F01001B69016D
(1713559162.935558) can0 290#000000020000003D
(1713559162.935797) can0 410#2880008B9F6E8B7E
(1713559162.939097) can0 551#000000000004C000
(1713559162.939347) can0 4EA#0000000000000000
(1713559162.939592) can0 5B2#0800000000000000
(1713559162.939836) can0 310#FFFFFFFF7D7D0000
(1713559162.940076) can0 5D1#9958000200000000
(1713559162.941600) can0 400#288000000000002A
(1713559162.942488) can0 140#0000030000000000
(1713559162.944185) can0 12F#F81001200000004D
(1713559162.944416) can0 128#1388030000EC7896
(1713559162.944667) can0 12D#000000000000005F
(1713559162.944915) can0 12E#000000000000C090
(1713559162.945147) can0 174#F67F0051347902DC
(1713559162.945383) can0 178#F07F04380F930259
(1713559162.945623) can0 17C#FE7F0100226902E1
(1713559162.945872) can0 290#0000000200000057
(1713559162.946110) can0 410#2880008B9F6E8B9F
(1713559162.946717) can0 120#000000000700009B
(1713559162.946962) can0 121#000000000000008B
(1713559162.947204) can0 129#000000010000008F
(1713559162.949055) can0 541#0440E800007FFF67
(1713559162.951601) can0 400#2880000000000040
(1713559162.954370) can0 12F#F810012000000078
(1713559162.954616) can0 12D#000000000000006A
(1713559162.954847) can0 174#F67F005127790355
(1713559162.955077) can0 178#F27F05310D930396
(1713559162.955317) can0 17C#0080010032690345
(1713559162.955565) can0 290#0000000200000062
(1713559162.955801) can0 410#2880008B9F6E8BAA
(1713559162.956049) can0 6B9#0020400000000000
(1713559162.956303) can0 5A2#1410140000000000
(1713559162.959070) can0 550#48000C0001000049
(1713559162.959312) can0 551#000000000004C000
(1713559162.959568) can0 552#00FFFFFFFFFFFF90
(1713559162.959812) can0 5D1#9958000200000000
(1713559162.960058) can0 5D2#7444540000000000
(1713559162.960303) can0 450#005500001B004A00
(1713559162.961694) can0 400#2880000000000075
(1713559162.963014) can0 140#0000030000000000
(1713559162.964243) can0 12F#F810012000000099
(1713559162.964476) can0 128#1388030000EC78A3
(1713559162.964708) can0 12A#1428701C60580079
(1713559162.964962) can0 12D#000000000000008B
(1713559162.965200) can0 12E#000000000000C0A5
(1713559162.965431) can0 174#F67F00512279048F
(1713559162.965663) can0 178#F67F06320C930427
(1713559162.965903) can0 17C#028001003F690429
(1713559162.966155) can0 290#0010000200000088
(1713559162.966393) can0 410#2880008B9F6E8BC0
(1713559162.966629) can0 5A0#00000062449280C8
(1713559162.966875) can0 120#00000000070000AE
(1713559162.967121) can0 121#00000000000000BE
(1713559162.967383) can0 129#00000001000000BA
(1713559162.969047) can0 541#0440E800007FFF86
(1713559162.970950) can0 5D0#9958010200000000
(1713559162.971186) can0 5B1#008A9A68000000C9
(1713559162.971425) can0 5CF#7444540000000000
(1713559162.971694) can0 400#2880000000000094
(1713559162.974353) can0 410#2880008B9F6E8B21
(1713559162.974600) can0 12D#00000000000000BE
(1713559162.974841) can0 12F#F8100120000000AC
(1713559162.975071) can0 174#F47F00512A790524
(1713559162.975304) can0 178#FA7F07390D930542
(1713559162.975540) can0 17C#04800100436905A5
(1713559162.975785) can0 290#00100002000000BD
(1713559162.979101) can0 551#000000000004C000
(1713559162.979350) can0 5D1#9958000200000000
(1713559162.981796) can0 400#28800000000000A1
(1713559162.983540) can0 140#0000030000000000
(1713559162.984178) can0 12F#F8100120000000C6
(1713559162.984414) can0 128#1388030000EC78C9
(1713559162.984658) can0 12D#00000000000000D4
(1713559162.984902) can0 12E#000000000000C0CF
(1713559162.985134) can0 174#EC7F00513279067C
(1713559162.985374) can0 178#F67F082D0F9306CA
(1713559162.985606) can0 17C#028001003B690615
(1713559162.985851) can0 290#00100002000000D7
(1713559162.986088) can0 410#2880008B9F6E8B4B
(1713559162.986905) can0 120#00000000070000C4
(1713559162.987152) can0 121#00000000000000D4
(1713559162.987395) can0 129#00000001000000D0
(1713559162.989091) can0 541#0440E800007FFFB3
(1713559162.991795) can0 400#28800000000000CB
(1713559162.994301) can0 410#2880008B9F6E8B7E
(1713559162.994547) can0 12D#0000000000000035
(1713559162.994789) can0 12F#F810012000000027
(1713559162.995024) can0 174#E87F00513079070B
(1713559162.995260) can0 178#F27F09300F9307BE
(1713559162.995501) can0 17C#FA7F01002F690764
(1713559162.995745) can0 290#0010000200000036
(1713559162.999096) can0 551#000000000004C000
(1713559162.999348) can0 5D1#9958000200000000
(1713559163.001896) can0 400#288000000000002A
(1713559163.002544) can0 540#0000001040009E00
(1713559163.002785) can0 5B0#6342000000000077
(1713559163.004067) can0 140#0000030000000000
(1713559163.004311) can0 12D#000000000000005F
(1713559163.004549) can0 128#1388030000EC7828
(1713559163.004794) can0 12E#000000000000C02E
(1713559163.005035) can0 12F#F81001200000004D
(1713559163.005269) can0 174#EC7F00512D790844
(1713559163.005502) can0 178#EE7F0A3207930892
(1713559163.005743) can0 17C#F47F0100276908D2
(1713559163.005984) can0 290#001000020000005C
(1713559163.006222) can0 410#2880008B9F6E8B9F
(1713559163.007012) can0 120#0000000007000025
(1713559163.007260) can0 121#0000000000000035
(1713559163.007506) can0 129#0000000100000031
(1713559163.009071) can0 550#48000C000100007C
(1713559163.009313) can0 541#0440E800007FFFD9
(1713559163.009563) can0 552#00FFFFFFFFFFFFA5
(1713559163.009764) can0 450#005500001B004A00
(1713559163.011892) can0 400#2880000000000040
(1713559163.014245) can0 410#2880008B9F6E8BAA
(1713559163.014491) can0 12D#000000000000006A
(1713559163.014725) can0 12A#1428701C60580098
(1713559163.014973) can0 12F#F810012000000078
(1713559163.015205) can0 174#F07F00512F790958
(1713559163.015440) can0 178#F07F0B36FF9209DB
(1713559163.015673) can0 17C#F27F01002D690913
(1713559163.015918) can0 290#0010000200000069
(1713559163.019093) can0 551#000000000004C000
(1713559163.019348) can0 5D1#9958000200000000
(1713559163.021993) can0 400#2880000000000075
(1713559163.024189) can0 12F#F810012000000099
(1713559163.024422) can0 128#1388030000EC7842
(1713559163.024665) can0 12D#000000000000008B
(1713559163.024910) can0 12E#000000000000C044
(1713559163.025158) can0 140#0000030000000000
(1713559163.025389) can0 174#F27F005134790A5D
(1713559163.025621) can0 178#F47F0C30FF920AF7
(1713559163.025860) can0 17C#F67F010042690A8B
(1713559163.026107) can0 290#0000000200000083
(1713559163.026345) can0 410#2880008B9F6E8BC0
(1713559163.027099) can0 120#000000000700004F
(1713559163.027350) can0 121#000000000000005F
(1713559163.027593) can0 129#000000010000005B
(1713559163.029098) can0 541#0440E800007FFF38
(1713559163.031987) can0 400#2880000000000094
(1713559163.034193) can0 410#2880008B9F6E8B21
(1713559163.034432) can0 12F#F8100120000000AC
(1713559163.034680) can0 12D#00000000000000BE
(1713559163.034908) can0 174#EE7F005134790B42
(1713559163.035149) can0 178#FA7F000006930B01
(1713559163.035385) can0 17C#FA7F010050690B36
(1713559163.035631) can0 290#00000002000000B6
(1713559163.038950) can0 4EA#0000000000000000
(1713559163.039197) can0 551#000000000004C000
(1713559163.039443) can0 5B2#0800000000000000
(1713559163.039687) can0 310#FFFFFFFF7D7D0000
(1713559163.039928) can0 5D1#9958000200000000
(1713559163.042095) can0 400#28800000000000A1
(1713559163.044185) can0 12F#F8100120000000C6
(1713559163.044418) can0 128#1388030000EC7877
(1713559163.044660) can0 12D#00000000000000D4
(1713559163.044909) can0 12E#000000000000C071
(1713559163.045159) can0 140#0000030000000000
(1713559163.045389) can0 174#EE7F005134790C11
(1713559163.045627) can0 178#0080013007930C10
(1713559163.045865) can0 17C#008001004A690CBA
(1713559163.046111) can0 290#00000002000000DC
(1713559163.046351) can0 410#2880008B9F6E8B4B
(1713559163.047192) can0 120#000000000700007A
(1713559163.047443) can0 121#000000000000006A
(1713559163.047693) can0 129#000000010000006E
(1713559163.049105) can0 541#0440E800007FFF52
(1713559163.052149) can0 400#28800000000000CB
(1713559163.054142) can0 410#2880008B9F6E8B7E
(1713559163.054384) can0 12F#F810012000000027
(1713559163.054630) can0 12D#0000000000000035
(1713559163.054862) can0 174#F07F005134790DB4
(1713559163.055094) can0 178#0880023206930DC9
(1713559163.055345) can0 17C#FE7F010032690D42
(1713559163.055581) can0 290#000000020000003D
(1713559163.055829) can0 6B9#0020400000000000
(1713559163.056074) can0 5A2#1410140000000000
(1713559163.056319) can0 6E2#0544000000000000
(1713559163.059016) can0 550#48000C000100009D
(1713559163.059262) can0 551#000000000004C000
(1713559163.059516) can0 552#00FFFFFFFFFFFFCF
(1713559163.059761) can0 5D1#9958000200000000
(1713559163.060005) can0 5D2#7444540000000000
(1713559163.060251) can0 450#005500001B004A00
(1713559163.062190) can0 400#288000000000002A
(1713559163.064167) can0 410#2880008B9F6E8B9F
(1713559163.064398) can0 128#1388030000EC7896
(1713559163.064632) can0 12A#1428701C605800AD
(1713559163.064883) can0 12D#000000000000005F
(1713559163.065129) can0 12E#000000000000C090
(1713559163.065371) can0 12F#F81001200000004D
(1713559163.065607) can0 174#F07F005130790E95
(1713559163.065857) can0 140#0000030000000000
(1713559163.066089) can0 178#0A80033601930EFA
(1713559163.066325) can0 17C#FA7F010013690EB3
(1713559163.066572) can0 290#001000020000005C
(1713559163.066814) can0 5A0#0000006244928029
(1713559163.067300) can0 120#000000000700009B
(1713559163.067547) can0 121#000000000000008B
(1713559163.067786) can0 129#000000010000008F
(1713559163.069091) can0 541#0440E800007FFF67
(1713559163.071006) can0 5D0#9958010200000000
(1713559163.071243) can0 5B1#008A9A6800000028
(1713559163.071480) can0 5CF#7444540000000000
(1713559163.072231) can0 400#2880000000000040
(1713559163.074109) can0 410#2880008B9F6E8BAA
(1713559163.074403) can0 12F#F810012000000078
(1713559163.074649) can0 12D#000000000000006A
(1713559163.074879) can0 174#F07F00512F790F16
(1713559163.075115) can0 178#04800435FB920F9C
(1713559163.075352) can0 17C#F67F010001690F0E
(1713559163.075596) can0 290#0010000200000069
(1713559163.079047) can0 551#000000000004C000
(1713559163.079298) can0 5D1#9958000200000000
(1713559163.082287) can0 400#2880000000000075
(1713559163.084139) can0 410#2880008B9F6E8BC0
(1713559163.084372) can0 128#1388030000EC78A3
(1713559163.084618) can0 12D#000000000000008B
(1713559163.084863) can0 12E#000000000000C0A5
(1713559163.085104) can0 12F#F810012000000099
(1713559163.085338) can0 174#F07F005134790035
(1713559163.085572) can0 178#FC7F0530FB9200EC
(1713559163.085809) can0 17C#F67F0100096900B9
(1713559163.086059) can0 290#0010000200000088
(1713559163.086311) can0 140#0000030000000000
(1713559163.087389) can0 120#00000000070000AE
(1713559163.087637) can0 121#00000000000000BE
(1713559163.087877) can0 129#00000001000000BA
(1713559163.089087) can0 541#0440E800007FFF86
(1713559163.092337) can0 400#2880000000000094
(1713559163.094107) can0 410#2880008B9F6E8B21
(1713559163.094404) can0 12F#F8100120000000AC
(1713559163.094651) can0 12D#00000000000000BE
(1713559163.094884) can0 174#F07F005138790122
(1713559163.095120) can0 178#F47F0631FF920106
(1713559163.095384) can0 17C#F67F01001B6901BF
(1713559163.095605) can0 290#00100002000000BD
(1713559163.099040) can0 551#000000000004C000
(1713559163.099290) can0 5D1#9958000200000000
(1713559163.102333) can0 400#28800000000000A1
(1713559163.102930) can0 540#0000001040009E00
(1713559163.103171) can0 5B0#6342000000000096
(1713559163.104084) can0 410#2880008B9F6E8B4B
(1713559163.104317) can0 128#1388030000EC78C9
(1713559163.104561) can0 12D#00000000000000D4
(1713559163.104805) can0 12E#000000000000C0CF
(1713559163.105046) can0 12F#F8100120000000C6
(1713559163.105279) can0 174#F27F00513A7902BC
(1713559163.105513) can0 178#F27F0731049302DC
(1713559163.105751) can0 17C#F27F01002A690256
(1713559163.105999) can0 290#00000002000000DC
(1713559163.106694) can0 140#0000030000000000
(1713559163.107488) can0 120#00000000070000C4
(1713559163.107730) can0 121#00000000000000D4
(1713559163.107972) can0 129#00000001000000D0
(1713559163.109072) can0 550#48000C00010000A8
(1713559163.109317) can0 541#0440E800007FFFB3
(1713559163.109569) can0 552#00FFFFFFFFFFFF2E
(1713559163.109814) can0 450#005500001B004A00
(1713559163.112424) can0 400#28800000000000CB
(1713559163.114059) can0 410#2880008B9F6E8B7E
(1713559163.114468) can0 174#F47F00513A790372
(1713559163.114705) can0 12A#1428701C605800C7
(1713559163.114951) can0 12D#0000000000000035
(1713559163.115193) can0 12F#F810012000000027
(1713559163.115427) can0 178#F27F083103930337
(1713559163.115661) can0 17C#EE7F010034690358
(1713559163.115909) can0 290#000000020000003D
(1713559163.119043) can0 551#000000000004C000
(1713559163.119293) can0 5D1#9958000200000000
(1713559163.122455) can0 400#288000000000002A
(1713559163.124034) can0 410#2880008B9F6E8B9F
(1713559163.124282) can0 12D#000000000000005F
(1713559163.124518) can0 128#1388030000EC7828
(1713559163.124761) can0 12E#000000000000C02E
(1713559163.125004) can0 12F#F81001200000004D
(1713559163.125237) can0 174#F47F00513A790421
(1713559163.125467) can0 178#F27F0930FF92045D
(1713559163.125702) can0 17C#F47F010035690455
(1713559163.125948) can0 290#0000000200000057
(1713559163.127218) can0 140#0000030000000000
(1713559163.127587) can0 120#0000000007000025
(1713559163.127833) can0 121#0000000000000035
(1713559163.128077) can0 129#0000000100000031
(1713559163.129089) can0 541#0440E800007FFFD9
(1713559163.132523) can0 400#2880000000000040
(1713559163.134001) can0 410#2880008B9F6E8BAA
(1713559163.134412) can0 12F#F810012000000078
(1713559163.134660) can0 12D#000000000000006A
(1713559163.134892) can0 174#F27F0051407905A8
(1713559163.135124) can0 178#F27F0A38FF920562
(1713559163.135385) can0 17C#FE7F010029690532
(1713559163.135611) can0 290#0000000200000062
(1713559163.138745) can0 4EA#0000000000000000
(1713559163.138990) can0 5B2#0800000000000000
(1713559163.139236) can0 310#FFFFFFFF7D7D0000
(1713559163.139483) can0 551#000000000004C000
(1713559163.139732) can0 5D1#9958000200000000
(1713559163.142526) can0 400#2880000000000075
(1713559163.143902) can0 410#2880008B9F6E8BC0
(1713559163.144190) can0 12F#F810012000000099
(1713559163.144423) can0 128#1388030000EC7842
(1713559163.144669) can0 12D#000000000000008B
(1713559163.144913) can0 12E#000000000000C044
(1713559163.145150) can0 174#F07F0051457906BC
(1713559163.145391) can0 178#F27F0000079306DD
(1713559163.145625) can0 17C#04800100136906FA
(1713559163.145877) can0 290#0000000200000083
(1713559163.147685) can0 120#000000000700004F
(1713559163.147930) can0 121#000000000000005F
(1713559163.148174) can0 129#000000010000005B
(1713559163.148424) can0 140#0000030000000000
(1713559163.149094) can0 541#0440E800007FFF38
(1713559163.152617) can0 400#2880000000000094
(1713559163.153934) can0 410#2880008B9F6E8B21
(1713559163.154407) can0 12F#F8100120000000AC
(1713559163.154655) can0 12D#00000000000000BE
(1713559163.154893) can0 174#F07F00513F7907E6
(1713559163.155129) can0 178#F27F01300D9307CA
(1713559163.155395) can0 17C#02800100086907AC
(1713559163.155621) can0 290#00000002000000B6
(1713559163.155952) can0 6B9#0020400000000000
(1713559163.156196) can0 5A2#1410140000000000
(1713559163.159016) can0 550#48000C00010000C2
(1713559163.159261) can0 551#000000000004C000
(1713559163.159514) can0 552#00FFFFFFFFFFFF44
(1713559163.159759) can0 5D1#9958000200000000
(1713559163.160003) can0 5D2#7444540000000000
(1713559163.160249) can0 450#005500001B004A00
(1713559163.162621) can0 400#28800000000000A1
(1713559163.163889) can0 410#2880008B9F6E8B4B
(1713559163.164238) can0 12F#F8100120000000C6
(1713559163.164472) can0 128#1388030000EC7877
(1713559163.164707) can0 12A#1428701C60580026
(1713559163.164950) can0 12D#00000000000000D4
(1713559163.165199) can0 12E#000000000000C071
(1713559163.165432) can0 174#F07F005135790852
(1713559163.165666) can0 178#EE7F000007930879
(1713559163.165907) can0 17C#FE7F010010690818
(1713559163.166155) can0 290#00000002000000DC
(1713559163.166393) can0 5A0#0000006244928043
(1713559163.167786) can0 120#000000000700007A
(1713559163.168036) can0 121#000000000000006A
(1713559163.168284) can0 129#000000010000006E
(1713559163.168534) can0 140#0000030000000000
(1713559163.169084) can0 541#0440E800007FFF52
(1713559163.171013) can0 5D0#9958010200000000
(1713559163.171248) can0 5B1#008A9A6800000042
(1713559163.171487) can0 5CF#7444540000000000
(1713559163.172713) can0 400#28800000000000CB
(1713559163.173938) can0 410#2880008B9F6E8B7E
(1713559163.174421) can0 12F#F810012000000027
(1713559163.174669) can0 12D#0000000000000035
(1713559163.174897) can0 174#EC7F00522F7909E0
(1713559163.175129) can0 178#EA7F0153FB9209A2
(1713559163.175395) can0 17C#F87F010019690955
(1713559163.175621) can0 290#000000020000003D
(1713559163.179042) can0 551#000000000004C000
(1713559163.179291) can0 5D1#9958000200000000
(1713559163.182720) can0 400#288000000000002A
(1713559163.183891) can0 410#2880008B9F6E8B9F
(1713559163.184131) can0 12F#F81001200000004D
(1713559163.184414) can0 128#1388030000EC7896
(1713559163.184663) can0 12D#000000000000005F
(1713559163.184909) can0 12E#000000000000C090
(1713559163.185137) can0 174#E87F00522A790A27
(1713559163.185372) can0 178#EC7F0243F3920AC1
(1713559163.185609) can0 17C#F47F010016690A4F
(1713559163.185856) can0 290#001000020000005C
(1713559163.187883) can0 120#000000000700009B
(1713559163.188124) can0 121#000000000000008B
(1713559163.188368) can0 129#000000010000008F
(1713559163.188791) can0 140#0000030000000000
(1713559163.189099) can0 541#0440E800007FFF67
(1713559163.192824) can0 400#2880000000000040
(1713559163.193935) can0 410#2880008B9F6E8BAA
(1713559163.194415) can0 12F#F810012000000078
(1713559163.194661) can0 12D#000000000000006A
(1713559163.194891) can0 174#EA7F00512C790B3F
(1713559163.195122) can0 178#F27F0332F1920B6B
(1713559163.195381) can0 17C#F27F01000C690B96
(1713559163.195601) can0 290#0010000200000069
(1713559163.199038) can0 551#000000000004C000
(1713559163.199288) can0 5D1#9958000200000000
(1713559163.202817) can0 400#2880000000000075
(1713559163.203413) can0 540#0000001040009E00
(1713559163.203654) can0 5B0#63420000000000A3
(1713559163.203942) can0 410#2880008B9F6E8BC0
(1713559163.204182) can0 12F#F810012000000099
(1713559163.204467) can0 128#1388030000EC78A3
(1713559163.204713) can0 12D#000000000000008B
(1713559163.204957) can0 12E#000000000000C0A5
(1713559163.205187) can0 174#EE7F005135790C9E
(1713559163.205423) can0 178#F87F0430FB920C73
(1713559163.205662) can0 17C#F07F01000B690CF5
(1713559163.205914) can0 290#0000000200000083
(1713559163.207978) can0 120#00000000070000AE
(1713559163.208223) can0 121#00000000000000BE
(1713559163.208464) can0 129#00000001000000BA
(1713559163.209070) can0 550#48000C0001000023
(1713559163.209315) can0 541#0440E800007FFF86
(1713559163.209562) can0 140#0000030000000000
(1713559163.209806) can0 552#00FFFFFFFFFFFF71
(1713559163.210052) can0 450#005500001B004A00
(1713559163.212908) can0 400#2880000000000094
(1713559163.213935) can0 410#2880008B9F6E8B21
(1713559163.214484) can0 12F#F8100120000000AC
(1713559163.214715) can0 12A#1428701C6058004C
(1713559163.214963) can0 12D#00000000000000BE
(1713559163.215193) can0 174#F07F005137790D38
(1713559163.215430) can0 178#FC7F05300A930D26
(1713559163.215663) can0 17C#F07F01000E690D61
(1713559163.215910) can0 290#00000002000000B6
(1713559163.219401) can0 551#000000000004C000
(1713559163.219652) can0 5D1#9958000200000000
(1713559163.222914) can0 400#28800000000000A1
(1713559163.223888) can0 410#2880008B9F6E8B4B
(1713559163.224134) can0 12F#F8100120000000C6
(1713559163.224416) can0 128#1388030000EC78C9
(1713559163.224662) can0 12D#00000000000000D4
(1713559163.224906) can0 12E#000000000000C0CF
(1713559163.225140) can0 174#F07F005130790E95
(1713559163.225374) can0 178#0080063217930E1E
(1713559163.225608) can0 17C#F27F010014690EEB
(1713559163.225857) can0 290#00000002000000DC
(1713559163.228084) can0 120#00000000070000C4
(1713559163.228325) can0 121#00000000000000D4
(1713559163.228567) can0 129#00000001000000D0
(1713559163.229084) can0 541#0440E800007FFFB3
(1713559163.229839) can0 140#0000030000000000
(1713559163.233006) can0 400#28800000000000CB
(1713559163.233937) can0 410#2880008B9F6E8B7E
(1713559163.234410) can0 12F#F810012000000027
(1713559163.234654) can0 12D#0000000000000035
(1713559163.234886) can0 174#F27F005127790FA0
(1713559163.235122) can0 178#0680073718930FEF
(1713559163.235392) can0 17C#F87F01001E690F91
(1713559163.235613) can0 290#000000020000003D
(1713559163.238541) can0 4EA#0000000000000000
(1713559163.238786) can0 5B2#0800000000000000
(1713559163.239031) can0 310#FFFFFFFF7D7D0000
(1713559163.239278) can0 551#000000000004C000
(1713559163.239526) can0 5D1#9958000200000000
(1713559163.243012) can0 400#288000000000002A
(1713559163.243890) can0 410#2880008B9F6E8B9F
(1713559163.244130) can0 12F#F81001200000004D
(1713559163.244368) can0 128#1388030000EC7828
(1713559163.244666) can0 12D#000000000000005F
(1713559163.244912) can0 12E#000000000000C02E
(1713559163.245142) can0 174#F27F00512D790014
(1713559163.245380) can0 178#0280085F11930080
(1713559163.245623) can0 17C#008001002A690076
(1713559163.245876) can0 290#0000000200000057
(1713559163.248174) can0 120#0000000007000025
(1713559163.248419) can0 121#0000000000000035
(1713559163.248663) can0 129#0000000100000031
(1713559163.249085) can0 541#0440E800007FFFD9
(1713559163.250364) can0 140#0000030000000000
(1713559163.253104) can0 400#2880000000000040
(1713559163.253934) can0 410#2880008B9F6E8BAA
(1713559163.254408) can0 12F#F81000200000007F
(1713559163.254655) can0 12D#000000000000006A
(1713559163.254886) can0 174#F07F00513A790121
(1713559163.255136) can0 178#FA7F0930049301A2
(1713559163.255396) can0 17C#FE7F010035690154
(1713559163.255610) can0 290#0000000200000062
(1713559163.256120) can0 6B9#0020400000000000
(1713559163.256363) can0 5A2#1410140000000000
(1713559163.259017) can0 550#48000C0001000049
(1713559163.259263) can0 551#000000000004C000
(1713559163.259518) can0 552#00FFFFFFFFFFFF90
(1713559163.259763) can0 5D1#9958000200000000
(1713559163.260007) can0 5D2#7444540000000000
(1713559163.260253) can0 450#005500001B004A00
(1713559163.263107) can0 400#2880000000000075
(1713559163.263885) can0 410#2880008B9F6E8BC0
(1713559163.264185) can0 12F#F810012000000099
(1713559163.264419) can0 128#1388030000EC7842
(1713559163.264700) can0 12A#1428701C60580079
(1713559163.264946) can0 12D#000000000000008B
(1713559163.265194) can0 12E#000000000000C044
(1713559163.265422) can0 174#F27F00513F790235
(1713559163.265652) can0 178#F67F0A37FB920236
(1713559163.265893) can0 17C#FA7F010037690219
(1713559163.266140) can0 290#0020000200000095
(1713559163.266377) can0 5A0#0000006244928076
(1713559163.268269) can0 120#000000000700004F
(1713559163.268515) can0 121#000000000000005F
(1713559163.268759) can0 129#000000010000005B
(1713559163.269095) can0 541#0440E800007FFF38
(1713559163.270890) can0 140#0000030000000000
(1713559163.271126) can0 5B1#008A9A6800000077
(1713559163.271392) can0 5D0#9958010200000000
(1713559163.271608) can0 5CF#7444540000000000
(1713559163.273196) can0 400#2880000000000094
(1713559163.273902) can0 410#2880008B9F6E8B21
(1713559163.274426) can0 12F#F8100120000000AC
(1713559163.274670) can0 12D#00000000000000BE
(1713559163.274900) can0 174#F67F00513D790342
(1713559163.275135) can0 178#F07F0B31F99203F8
(1713559163.275398) can0 17C#FA7F01002A690399
(1713559163.275623) can0 290#00200002000000A0
(1713559163.279040) can0 551#000000000004C000
(1713559163.279287) can0 5D1#9958000200000000
(1713559163.283200) can0 400#28800000000000A1
(1713559163.283830) can0 410#2880008B9F6E8B4B
(1713559163.284123) can0 12F#F8100120000000C6
(1713559163.284357) can0 128#1388030000EC7877
(1713559163.284602) can0 12D#00000000000000D4
(1713559163.284898) can0 12E#000000000000C071
(1713559163.285138) can0 174#F87F00513579041C
(1713559163.285374) can0 178#EA7F0000FF920444
(1713559163.285614) can0 17C#FC7F01001669043B
(1713559163.285860) can0 290#00000002000000DC
(1713559163.288363) can0 120#000000000700007A
(1713559163.288613) can0 121#000000000000006A
(1713559163.288861) can0 129#000000010000006E
(1713559163.289104) can0 541#0440E800007FFF52
(1713559163.291418) can0 140#0000030000000000
(1713559163.293303) can0 400#28800000000000CB
(1713559163.293853) can0 410#2880008B9F6E8B7E
(1713559163.294402) can0 12F#F810012000000027
(1713559163.294648) can0 12D#0000000000000035
(1713559163.294880) can0 174#F47F00512F7905AD
(1713559163.295112) can0 178#EE7F013704930585
(1713559163.295380) can0 17C#FC7F010014690525
(1713559163.295601) can0 290#000000020000003D
(1713559163.299032) can0 551#000000000004C000
(1713559163.299285) can0 5D1#9958000200000000
(1713559163.303298) can0 400#288000000000002A
(1713559163.303777) can0 410#2880008B9F6E8B9F
(1713559163.304022) can0 540#0000001040009E00
(1713559163.304256) can0 128#1388030000EC7896
(1713559163.304506) can0 12D#000000000000005F
(1713559163.304793) can0 12E#000000000000C090
(1713559163.305043) can0 12F#F81001200000004D
(1713559163.305280) can0 174#F07F00513079067D
(1713559163.305515) can0 178#FA7F022E069306EB
(1713559163.305753) can0 17C#FC7F01002A690623
(1713559163.305999) can0 290#0000000200000057
(1713559163.306241) can0 5B0#63420000000000C9
(1713559163.308458) can0 120#000000000700009B
(1713559163.308699) can0 121#000000000000008B
(1713559163.308942) can0 129#000000010000008F
(1713559163.309189) can0 541#0440E800007FFF67
(1713559163.309431) can0 550#48000C000100007C
(1713559163.309674) can0 552#00FFFFFFFFFFFFA5
(1713559163.309920) can0 450#005500001B004A00
(1713559163.311947) can0 140#0000030000000000
(1713559163.313394) can0 400#2880000000000040
(1713559163.313795) can0 410#2880008B9F6E8BAA
(1713559163.314515) can0 12F#F810012000000078
(1713559163.314749) can0 12A#1428701C60580098
(1713559163.314996) can0 12D#000000000000006A
(1713559163.315232) can0 174#F07F005132790763
(1713559163.315473) can0 178#0480033106930770
(1713559163.315712) can0 17C#FE7F0100406907DB
(1713559163.315960) can0 290#0000000200000062
(1713559163.319034) can0 551#000000000004C000
(1713559163.319284) can0 5D1#9958000200000000
(1713559163.323394) can0 400#2880000000000075
(1713559163.323722) can0 410#2880008B9F6E8BC0
(1713559163.324130) can0 12F#F810012000000099
(1713559163.324366) can0 128#1388030000EC78A3
(1713559163.324612) can0 12D#000000000000008B
(1713559163.324905) can0 12E#000000000000C0A5
(1713559163.325138) can0 174#F07F0051307908DB
(1713559163.325370) can0 178#06800430069308E7
(1713559163.325607) can0 17C#028001004E690872
(1713559163.325867) can0 290#0000000200000083
(1713559163.328552) can0 120#00000000070000AE
(1713559163.328791) can0 121#00000000000000BE
(1713559163.329033) can0 129#00000001000000BA
(1713559163.329275) can0 541#0440E800007FFF86
(1713559163.332468) can0 140#0000030000000000
(1713559163.333435) can0 410#2880008B9F6E8B21
(1713559163.333686) can0 400#2880000000000094
(1713559163.334400) can0 12F#F8100020000000AB
(1713559163.334648) can0 12D#00000000000000BE
(1713559163.334878) can0 174#F07F00512C7909D4
(1713559163.335116) can0 178#0280000006930949
(1713559163.335380) can0 17C#0680010050690917
(1713559163.335601) can0 290#00000002000000B6
(1713559163.338383) can0 4EA#0000000000000000
(1713559163.338628) can0 5B2#0800000000000000
(1713559163.338873) can0 310#FFFFFFFF7D7D0000
(1713559163.339120) can0 551#000000000004C000
(1713559163.339369) can0 5D1#9958000200000000
(1713559163.343363) can0 410#2880008B9F6E8B4B
(1713559163.343609) can0 400#28800000000000A1
(1713559163.344125) can0 12F#F8100120000000C6
(1713559163.344360) can0 128#1388030000EC78C9
(1713559163.344605) can0 12D#00000000000000D4
(1713559163.344848) can0 12E#000000000000C0CF
(1713559163.345127) can0 174#F07F00512C790AF3
(1713559163.345363) can0 178#FC7F013806930A56
(1713559163.345597) can0 17C#0880010048690A25
(1713559163.345843) can0 290#00100002000000D7
(1713559163.348646) can0 120#00000000070000C4
(1713559163.348886) can0 121#00000000000000D4
(1713559163.349127) can0 129#00000001000000D0
(1713559163.349370) can0 541#0440E800007FFFB3
(1713559163.352992) can0 140#0000030000000000
(1713559163.353386) can0 410#2880008B9F6E8B7E
(1713559163.353638) can0 400#28800000000000CB
(1713559163.354410) can0 12F#F810012000000027
(1713559163.354654) can0 12D#0000000000000035
(1713559163.354887) can0 174#F07F00512D790B61
(1713559163.355121) can0 178#FA7F02320A930B97
(1713559163.355388) can0 17C#0680010042690B36
(1713559163.355599) can0 290#0010000200000036
(1713559163.356342) can0 6B9#0020400000000000
(1713559163.356585) can0 5A2#1410140000000000
(1713559163.359016) can0 550#48000C000100009D
(1713559163.359261) can0 551#000000000004C000
(1713559163.359518) can0 552#00FFFFFFFFFFFFCF
(1713559163.359763) can0 5D1#9958000200000000
(1713559163.360007) can0 5D2#7444540000000000
(1713559163.360253) can0 450#005500001B004A00
(1713559163.363311) can0 410#2880008B9F6E8B9F
(1713559163.363589) can0 400#288000000000002A
(1713559163.364222) can0 12F#F81001200000004D
(1713559163.364461) can0 128#1388030000EC7828
(1713559163.364694) can0 12A#1428701C605800AD
(1713559163.364945) can0 12D#000000000000005F
(1713559163.365188) can0 12E#000000000000C02E
(1713559163.365423) can0 174#EE7F005130790C17
(1713559163.365656) can0 178#FE7F033212930CD3
(1713559163.365937) can0 17C#0280010037690CCD
(1713559163.366183) can0 290#0000000200000057
(1713559163.366419) can0 5A0#0000006244928097
(1713559163.368745) can0 120#0000000007000025
(1713559163.368990) can0 121#0000000000000035
(1713559163.369234) can0 129#0000000100000031
(1713559163.369476) can0 541#0440E800007FFFD9
(1713559163.371030) can0 5D0#9958010200000000
(1713559163.371266) can0 5B1#008A9A6800000096
(1713559163.371506) can0 5CF#7444540000000000
(1713559163.373328) can0 410#2880008B9F6E8BAA
(1713559163.373579) can0 140#0000030000000000
(1713559163.373829) can0 400#2880000000000040
(1713559163.374431) can0 12F#F810012000000078
(1713559163.374671) can0 12D#000000000000006A
(1713559163.374898) can0 174#EA7F005134790D65
(1713559163.375127) can0 178#068004351C930D4A
(1713559163.375399) can0 17C#FE7F010022690D5A
(1713559163.375615) can0 290#0000000200000062
(1713559163.379034) can0 551#000000000004C000
(1713559163.379283) can0 5D1#9958000200000000
(1713559163.383258) can0 410#2880008B9F6E8BC0
(1713559163.383682) can0 400#2880000000000075
(1713559163.384119) can0 12F#F810012000000099
(1713559163.384353) can0 128#1388030000EC7842
(1713559163.384600) can0 12D#000000000000008B
(1713559163.384844) can0 12E#000000000000C044
(1713559163.385074) can0 174#E87F005132790EFD
(1713559163.385313) can0 178#088000001C930E65
(1713559163.385548) can0 17C#FC7F010009690E77
(1713559163.385847) can0 290#0000000200000083
(1713559163.388842) can0 120#000000000700004F
(1713559163.389084) can0 121#000000000000005F
(1713559163.389327) can0 129#000000010000005B
(1713559163.389571) can0 541#0440E800007FFF38
(1713559163.393277) can0 410#2880008B9F6E8B21
(1713559163.393786) can0 400#2880000000000094
(1713559163.394048) can0 140#0000030000000000
(1713559163.394402) can0 12F#F8100120000000AC
(1713559163.394657) can0 12D#00000000000000BE
(1713559163.394883) can0 174#EA7F005130790F59
(1713559163.395116) can0 178#0480013212930FE8
(1713559163.395387) can0 17C#FA7F0100FB680F7E
(1713559163.395604) can0 290#00000002000000B6
(1713559163.399030) can0 551#000000000004C000
(1713559163.399278) can0 5D1#9958000200000000
(1713559163.403203) can0 410#2880008B9F6E8B4B
(1713559163.403779) can0 400#28800000000000A1
(1713559163.404134) can0 12F#F8100120000000C6
(1713559163.404368) can0 128#1388030000EC7877
(1713559163.404613) can0 12D#00000000000000D4
(1713559163.404861) can0 12E#000000000000C071
(1713559163.405093) can0 174#EE7F005135790002
(1713559163.405329) can0 178#FE7F02300A930016
(1713559163.405571) can0 17C#FA7F0100FD6800C0
(1713559163.405819) can0 290#00000002000000DC
(1713559163.406098) can0 540#0000001040009E00
(1713559163.406356) can0 5B0#6342000000000028
(1713559163.408935) can0 120#000000000700007A
(1713559163.409186) can0 121#000000000000006A
(1713559163.409437) can0 129#000000010000006E
(1713559163.409678) can0 550#48000C00010000A8
(1713559163.411555) can0 541#0440E800007FFF52
(1713559163.411808) can0 552#00FFFFFFFFFFFF2E
(1713559163.412056) can0 450#005500001B004A00
(1713559163.413225) can0 410#2880008B9F6E8B7E
(1713559163.413881) can0 400#28800000000000CB
(1713559163.414507) can0 12F#F810002000000020
(1713559163.414751) can0 12A#1428701C605800C7
(1713559163.414991) can0 12D#0000000000000035
(1713559163.415239) can0 140#0000030000000000
(1713559163.415472) can0 174#F27F00513D790111
(1713559163.415704) can0 178#F67F03320A930194
(1713559163.415943) can0 17C#FE7F010003690179
(1713559163.416191) can0 290#000000020000003D
(1713559163.419028) can0 551#000000000004C000
(1713559163.419279) can0 5D1#9958000200000000
(1713559163.423151) can0 410#2880008B9F6E8B9F
(1713559163.423878) can0 400#288000000000002A
(1713559163.424132) can0 12F#F81001200000004D
(1713559163.424366) can0 128#1388030000EC7896
(1713559163.424616) can0 12D#000000000000005F
(1713559163.424863) can0 12E#000000000000C090
(1713559163.425095) can0 174#F67F00513F79025C
(1713559163.425326) can0 178#F07F04331193026E
(1713559163.425564) can0 17C#FC7F010008690264
(1713559163.425810) can0 290#0000000200000057
(1713559163.429031) can0 120#000000000700009B
(1713559163.429273) can0 121#000000000000008B
(1713559163.429515) can0 129#000000010000008F
(1713559163.429759) can0 541#0440E800007FFF67
(1713559163.433175) can0 410#2880008B9F6E8BAA
(1713559163.433987) can0 400#2880000000000040
(1713559163.434409) can0 12F#F810012000000078
(1713559163.434652) can0 12D#000000000000006A
(1713559163.434883) can0 174#F47F00523B790347
(1713559163.435141) can0 140#0000030000000000
(1713559163.435391) can0 178#EE7F05311293030A
(1713559163.435610) can0 17C#F87F010010690304
(1713559163.435857) can0 290#0000000200000062
(1713559163.438226) can0 4EA#0000000000000000
(1713559163.438472) can0 5B2#0800000000000000
(1713559163.438717) can0 310#FFFFFFFF7D7D0000
(1713559163.439039) can0 551#000000000004C000
(1713559163.439288) can0 5D1#9958000200000000
(1713559163.443107) can0 410#2880008B9F6E8BC0
(1713559163.443975) can0 400#2880000000000075
(1713559163.444209) can0 128#1388030000EC78A3
(1713559163.444457) can0 12D#000000000000008B
(1713559163.444700) can0 12E#000000000000C0A5
(1713559163.444940) can0 12F#F810012000000099
(1713559163.445172) can0 174#F07F0051357904CE
(1713559163.445407) can0 178#F47F063011930427
(1713559163.445646) can0 17C#F87F01001C69045D
(1713559163.445898) can0 290#0000000200000083
(1713559163.449078) can0 541#0440E800007FFF86
(1713559163.449323) can0 120#00000000070000AE
(1713559163.449569) can0 121#00000000000000BE
(1713559163.449811) can0 129#00000001000000BA
(1713559163.453144) can0 410#2880008B9F6E8B21
(1713559163.454081) can0 400#2880000000000094
(1713559163.454403) can0 12F#F8100120000000AC
(1713559163.454652) can0 12D#00000000000000BE
(1713559163.454884) can0 174#EE7F00512F79057C
(1713559163.455118) can0 178#FA7F07310A930554
(1713559163.455386) can0 17C#FC7F01002469050D
(1713559163.455605) can0 290#00000002000000B6
(1713559163.455852) can0 140#0000030000000000
(1713559163.456558) can0 6B9#0020400000000000
(1713559163.456802) can0 5A2#1410140000000000
(1713559163.459062) can0 550#48000C00010000C2
(1713559163.459260) can0 551#000000000004C000
(1713559163.459513) can0 552#00FFFFFFFFFFFF44
(1713559163.459759) can0 5D1#9958000200000000
(1713559163.460004) can0 5D2#7444540000000000
(1713559163.460250) can0 450#005500001B004A00
(1713559163.463066) can0 410#2880008B9F6E8B4B
(1713559163.464072) can0 400#28800000000000A1
(1713559163.464307) can0 128#1388030000EC78C9
(1713559163.464541) can0 12A#1428701C60580026
(1713559163.464786) can0 12D#00000000000000D4
(1713559163.465029) can0 12E#000000000000C0CF
(1713559163.465270) can0 12F#F8100120000000C6
(1713559163.465504) can0 174#F07F00512C79066F
(1713559163.465740) can0 178#FA7F08380C93060B
(1713559163.465978) can0 17C#FC7F01002C690626
(1713559163.466224) can0 290#00100002000000D7
(1713559163.466462) can0 5A0#00000062449280A2
(1713559163.469073) can0 541#0440E800007FFFB3
(1713559163.469317) can0 120#00000000070000C4
(1713559163.469561) can0 121#00000000000000D4
(1713559163.469803) can0 129#00000001000000D0
(1713559163.471033) can0 5D0#9958010200000000
(1713559163.471269) can0 5B1#008A9A68000000A3
(1713559163.471509) can0 5CF#7444540000000000
(1713559163.473090) can0 410#2880008B9F6E8B7E
(1713559163.474175) can0 400#28800000000000CB
(1713559163.474420) can0 12F#F810012000000027
(1713559163.474666) can0 12D#0000000000000035
(1713559163.474900) can0 174#F27F00512A7907CD
(1713559163.475140) can0 178#FA7F000014930786
(1713559163.475389) can0 17C#0080010034690734
(1713559163.475627) can0 290#0010000200000036
(1713559163.476148) can0 140#0000030000000000
(1713559163.479077) can0 551#000000000004C000
(1713559163.479278) can0 5D1#9958000200000000
(1713559163.483016) can0 410#2880008B9F6E8B9F
(1713559163.484124) can0 12F#F81001200000004D
(1713559163.484357) can0 128#1388030000EC7828
(1713559163.484607) can0 12D#000000000000005F
(1713559163.484851) can0 12E#000000000000C02E
(1713559163.485081) can0 174#F27F00512D7908FC
(1713559163.485318) can0 178#FA7F000018930837
(1713559163.485556) can0 17C#048001002D69087D
(1713559163.485801) can0 290#0000000200000057
(1713559163.486050) can0 400#288000000000002A
(1713559163.489070) can0 541#0440E800007FFFD9
(1713559163.489322) can0 120#0000000007000025
(1713559163.489570) can0 121#0000000000000035
(1713559163.489814) can0 129#0000000100000031
(1713559163.493035) can0 410#2880008B9F6E8BAA
(1713559163.494282) can0 400#2880000000000040
(1713559163.494527) can0 12D#000000000000006A
(1713559163.494775) can0 12F#F81000200000007F
(1713559163.495003) can0 174#F27F00512F7909E2
(1713559163.495233) can0 178#FE7F01521593093A
(1713559163.495481) can0 17C#048001001C6909C7
(1713559163.495722) can0 290#0000000200000062
(1713559163.496678) can0 140#0000030000000000
(1713559163.499071) can0 551#000000000004C000
(1713559163.499351) can0 5D1#9958000200000000
(1713559163.502963) can0 410#2880008B9F6E8BC0
(1713559163.504126) can0 12F#F810012000000099
(1713559163.504360) can0 128#1388030000EC7842
(1713559163.504605) can0 12D#000000000000008B
(1713559163.504850) can0 12E#000000000000C044
(1713559163.505084) can0 174#F07F005130790AE1
(1713559163.505318) can0 178#0080026F0C930AB9
(1713559163.505556) can0 17C#FE7F010010690A22
(1713559163.505809) can0 290#0000000200000083
(1713559163.506054) can0 400#2880000000000075
(1713559163.506301) can0 540#0000001040009E00
(1713559163.506543) can0 5B0#6342000000000042
(1713559163.509065) can0 550#48000C0001000023
(1713559163.509310) can0 541#0440E800007FFF38
(1713559163.509553) can0 120#000000000700004F
(1713559163.509801) can0 121#000000000000005F
(1713559163.510046) can0 129#000000010000005B
(1713559163.510290) can0 552#00FFFFFFFFFFFF71
(1713559163.510538) can0 450#005500001B004A00
(1713559163.512983) can0 410#2880008B9F6E8B21
(1713559163.514372) can0 400#2880000000000094
(1713559163.514604) can0 12A#1428701C6058004C
(1713559163.514852) can0 12D#00000000000000BE
(1713559163.515092) can0 12F#F8100120000000AC
(1713559163.515346) can0 174#EC7F005132790BFD
(1713559163.515558) can0 178#FE7F036206930B2F
(1713559163.515802) can0 17C#FA7F010013690BDA
(1713559163.516043) can0 290#00000002000000B6
(1713559163.517201) can0 140#0000030000000000
(1713559163.519073) can0 551#000000000004C000
(1713559163.519350) can0 5D1#9958000200000000
(1713559163.522905) can0 410#2880008B9F6E8B4B
(1713559163.524127) can0 12F#F8100120000000C6
(1713559163.524359) can0 128#1388030000EC7877
(1713559163.524603) can0 12D#00000000000000D4
(1713559163.524851) can0 12E#000000000000C071
(1713559163.525082) can0 174#EC7F005132790CAE
(1713559163.525318) can0 178#FC7F046506930C39
(1713559163.525552) can0 17C#F67F010017690C34
(1713559163.525801) can0 290#00000002000000DC
(1713559163.526047) can0 400#28800000000000A1
(1713559163.529070) can0 541#0440E800007FFF52
(1713559163.529515) can0 120#000000000700007A
(1713559163.529768) can0 121#000000000000006A
(1713559163.530016) can0 129#000000010000006E
(1713559163.532957) can0 410#2880008B9F6E8B7E
(1713559163.534403) can0 12F#F810012000000027
(1713559163.534649) can0 12D#0000000000000035
(1713559163.534879) can0 174#EE7F005134790D0C
(1713559163.535111) can0 178#FA7F057206930D4C
(1713559163.535354) can0 17C#F67F010016690DA6
(1713559163.535595) can0 290#000000020000003D
(1713559163.535840) can0 400#28800000000000CB
(1713559163.537733) can0 140#0000030000000000
(1713559163.538023) can0 4EA#0000000000000000
(1713559163.538267) can0 5B2#0800000000000000
(1713559163.538513) can0 310#FFFFFFFF7D7D0000
(1713559163.539067) can0 551#000000000004C000
(1713559163.539315) can0 5D1#9958000200000000
(1713559163.542902) can0 410#2880008B9F6E8B9F
(1713559163.544162) can0 12F#F81001200000004D
(1713559163.544396) can0 128#1388030000EC7896
(1713559163.544645) can0 12D#000000000000005F
(1713559163.544891) can0 12E#000000000000C090
(1713559163.545123) can0 174#F07F005137790E1F
(1713559163.545357) can0 178#FA7F067406930EBC
(1713559163.545595) can0 17C#FA7F01000E690E2E
(1713559163.545842) can0 290#0000000200000057
(1713559163.546090) can0 400#288000000000002A
(1713559163.549027) can0 541#0440E800007FFF67
(1713559163.549563) can0 120#000000000700009B
(1713559163.549806) can0 121#000000000000008B
(1713559163.550048) can0 129#000000010000008F
(1713559163.552947) can0 410#2880008B9F6E8BAA
(1713559163.554417) can0 12F#F810012000000078
(1713559163.554663) can0 12D#000000000000006A
(1713559163.554897) can0 174#F07F00513D790F0D
(1713559163.555136) can0 178#FA7F072003930FBD
(1713559163.555396) can0 17C#0080010009690F71
(1713559163.555621) can0 290#0000000200000062
(1713559163.555868) can0 400#2880000000000040
(1713559163.556731) can0 6B9#0020400000000000
(1713559163.556976) can0 5A2#1410140000000000
(1713559163.558252) can0 140#0000030000000000
(1713559163.559072) can0 550#48000C0001000049
(1713559163.559346) can0 551#000000000004C000
(1713559163.559576) can0 552#00FFFFFFFFFFFF90
(1713559163.559820) can0 55A#0017160000000000
(1713559163.560066) can0 5D1#9958000200000000
(1713559163.560310) can0 5D2#7444540000000000
(1713559163.560557) can0 450#005500001B004A00
(1713559163.562948) can0 410#2880008B9F6E8BC0
(1713559163.564200) can0 12F#F810012000000099
(1713559163.564435) can0 128#1388030000EC78A3
(1713559163.564667) can0 12A#1428701C60580079
(1713559163.564913) can0 12D#000000000000008B
(1713559163.565157) can0 12E#000000000000C0A5
(1713559163.565391) can0 174#F07F00513D7900B6
(1713559163.565629) can0 178#F87F08420193003A
(1713559163.565871) can0 17C#0080010008690045
(1713559163.566123) can0 290#0000000200000083
(1713559163.566369) can0 400#2880000000000075
(1713559163.566605) can0 5A0#00000062449280C8
(1713559163.569018) can0 541#0440E800007FFF86
(1713559163.569660) can0 120#00000000070000AE
(1713559163.569907) can0 121#00000000000000BE
(1713559163.570148) can0 129#00000001000000BA
(1713559163.570983) can0 5D0#9958010200000000
(1713559163.571267) can0 5B1#008A9A68000000C9
(1713559163.571509) can0 5CF#7444540000000000
(1713559163.572947) can0 410#2880008B9F6E8B21
(1713559163.574417) can0 12F#F8100020000000AB
(1713559163.574665) can0 12D#00000000000000BE
(1713559163.574897) can0 174#F07F0051357901A7
(1713559163.575126) can0 178#F67F096F09930145
(1713559163.575392) can0 17C#FC7F0100036901C3
(1713559163.575610) can0 290#00000002000000B6
(1713559163.575855) can0 400#2880000000000094
(1713559163.578776) can0 140#0000030000000000
(1713559163.579088) can0 551#000000000004C000
(1713559163.579347) can0 5D1#9958000200000000
(1713559163.582955) can0 410#2880008B9F6E8B4B
(1713559163.584194) can0 12F#F8100120000000C6
(1713559163.584426) can0 128#1388030000EC78C9
(1713559163.584671) can0 12D#00000000000000D4
(1713559163.584917) can0 12E#000000000000C0CF
(1713559163.585146) can0 174#F47F00512D7902FD
(1713559163.585375) can0 178#F67F0A730C9302A2
(1713559163.585615) can0 17C#FC7F010000690268
(1713559163.585863) can0 290#00000002000000DC
(1713559163.586109) can0 400#28800000000000A1
(1713559163.589016) can0 541#0440E800007FFFB3
(1713559163.589757) can0 120#00000000070000C4
(1713559163.590001) can0 121#00000000000000D4
(1713559163.590244) can0 129#00000001000000D0
(1713559163.592900) can0 410#2880008B9F6E8B7E
(1713559163.594399) can0 12F#F810012000000027
(1713559163.594646) can0 12D#0000000000000035
(1713559163.594880) can0 174#F67F00522D7903E0
(1713559163.595112) can0 178#F47F0B6304930346
(1713559163.595377) can0 17C#02800100006903D4
(1713559163.595604) can0 290#000000020000003D
(1713559163.595848) can0 400#28800000000000CB
(1713559163.599067) can0 551#000000000004C000
(1713559163.599317) can0 140#0000030000000000
(1713559163.599559) can0 5D1#9958000200000000
(1713559163.602949) can0 410#2880008B9F6E8B9F
(1713559163.604170) can0 12F#F81001200000004D
(1713559163.604403) can0 128#1388030000EC7828
(1713559163.604653) can0 12D#000000000000005F
(1713559163.604898) can0 12E#000000000000C02E
(1713559163.605131) can0 174#F47F00513079042E
(1713559163.605363) can0 178#F67F0C68FE920449
(1713559163.605606) can0 17C#0A80010000690455
(1713559163.605851) can0 290#0000000200000057
(1713559163.606100) can0 400#288000000000002A
(1713559163.606346) can0 540#0000001040009E00
(1713559163.606589) can0 5B0#6342000000000077
(1713559163.609018) can0 550#48000C000100007C
(1713559163.609258) can0 541#0440E800007FFFD9
(1713559163.609510) can0 552#00FFFFFFFFFFFFA5
(1713559163.609756) can0 450#005500001B004A00
(1713559163.610004) can0 120#0000000007000025
(1713559163.610253) can0 121#0000000000000035
(1713559163.610497) can0 129#0000000100000031
(1713559163.612898) can0 410#2880008B9F6E8BAA
(1713559163.614462) can0 12F#F810012000000078
(1713559163.614696) can0 12A#1428701C60580098
(1713559163.614941) can0 12D#000000000000006A
(1713559163.615173) can0 174#EE7F0051347905E4
(1713559163.615410) can0 178#F87F0D2001930575
(1713559163.615651) can0 17C#0A800100056905C1
(1713559163.615912) can0 290#0000000200000062
(1713559163.616198) can0 400#2880000000000040
(1713559163.619069) can0 551#000000000004C000
(1713559163.619347) can0 5D1#9958000200000000
(1713559163.619826) can0 140#0000030000000000
(1713559163.622948) can0 410#2880008B9F6E8BC0
(1713559163.624221) can0 12F#F810012000000099
(1713559163.624452) can0 128#1388030000EC7842
(1713559163.624705) can0 12D#000000000000008B
(1713559163.624944) can0 12E#000000000000C044
(1713559163.625176) can0 174#EA7F0051387906A0
(1713559163.625406) can0 178#F27F0E470A93062E
(1713559163.625646) can0 17C#06800100106906CC
(1713559163.625899) can0 290#0000000200000083
(1713559163.626144) can0 400#2880000000000075
(1713559163.629017) can0 541#0440E800007FFF38
(1713559163.629951) can0 120#000000000700004F
(1713559163.630200) can0 121#000000000000005F
(1713559163.630443) can0 129#000000010000005B
(1713559163.632898) can0 410#2880008B9F6E8B21
(1713559163.634353) can0 12F#F8100120000000AC
(1713559163.634602) can0 12D#00000000000000BE
(1713559163.634840) can0 174#EC7F00513F7907E4
(1713559163.635072) can0 178#EC7F0F6D11930788
(1713559163.635316) can0 17C#008001001B690782
(1713559163.635563) can0 290#00000002000000B6
(1713559163.635808) can0 400#2880000000000094
(1713559163.637824) can0 4EA#0000000000000000
(1713559163.638068) can0 5B2#0800000000000000
(1713559163.638314) can0 310#FFFFFFFF7D7D0000
(1713559163.639066) can0 551#000000000004C000
(1713559163.639313) can0 5D1#9958000200000000
(1713559163.640351) can0 140#0000030000000000
(1713559163.642930) can0 410#2880008B9F6E8B4B
(1713559163.644167) can0 12F#F8100120000000C6
(1713559163.644398) can0 128#1388030000EC7877
(1713559163.644642) can0 12D#00000000000000D4
(1713559163.644890) can0 12E#000000000000C071
(1713559163.645127) can0 174#F07F005146790896
(1713559163.645359) can0 178#EC7F00620F930836
(1713559163.645597) can0 17C#FA7F01002469085F
(1713559163.645844) can0 290#00000002000000DC
(1713559163.646091) can0 400#28800000000000A1
(1713559163.649018) can0 541#0440E800007FFF52
(1713559163.650056) can0 120#000000000700007A
(1713559163.650307) can0 121#000000000000006A
(1713559163.650555) can0 129#000000010000006E
(1713559163.652857) can0 410#2880008B9F6E8B7E
(1713559163.654354) can0 12F#F810002000000020
(1713559163.654601) can0 12D#0000000000000035
(1713559163.654830) can0 174#F07F00524B7909B4
(1713559163.655064) can0 178#F27F014804930988
(1713559163.655303) can0 17C#F87F010031690969
(1713559163.655551) can0 290#000000020000003D
(1713559163.655797) can0 400#28800000000000CB
(1713559163.656947) can0 6B9#0020400000000000
(1713559163.657191) can0 5A2#1410140000000000
(1713559163.659064) can0 550#48000C000100009D
(1713559163.659310) can0 551#000000000004C000
(1713559163.659566) can0 552#00FFFFFFFFFFFFCF
(1713559163.659810) can0 5D1#9958000200000000
(1713559163.660054) can0 5D2#7444540000000000
(1713559163.660300) can0 450#005500001B004A00
(1713559163.660871) can0 140#0000030000000000
(1713559163.662878) can0 410#2880008B9F6E8B9F
(1713559163.664238) can0 12F#F81001200000004D
(1713559163.664470) can0 128#1388030000EC7896
(1713559163.664704) can0 12A#1428701C605800AD
(1713559163.664954) can0 12D#000000000000005F
(1713559163.665208) can0 12E#000000000000C090
(1713559163.665432) can0 174#F07F00514D790A2C
(1713559163.665671) can0 178#FA7F0000FB920A5D
(1713559163.665909) can0 17C#FC7F010032690AAB
(1713559163.666155) can0 290#001000020000005C
(1713559163.666402) can0 400#288000000000002A
(1713559163.666641) can0 5A0#0000006244928029
(1713559163.669060) can0 541#0440E800007FFF67
(1713559163.670151) can0 120#000000000700009B
(1713559163.670395) can0 121#000000000000008B
(1713559163.670637) can0 129#000000010000008F
(1713559163.671001) can0 5D0#9958010200000000
(1713559163.671240) can0 5B1#008A9A6800000028
(1713559163.671478) can0 5CF#7444540000000000
(1713559163.672798) can0 410#2880008B9F6E8BAA
(1713559163.674376) can0 12F#F810012000000078
(1713559163.674622) can0 12D#000000000000006A
(1713559163.674854) can0 174#F07F005148790BB8
(1713559163.675096) can0 178#00800000F9920B8B
(1713559163.675343) can0 17C#0080010026690BB3
(1713559163.675579) can0 290#0010000200000069
(1713559163.675827) can0 400#2880000000000040
(1713559163.679068) can0 551#000000000004C000
(1713559163.679317) can0 5D1#9958000200000000
(1713559163.681398) can0 140#0000030000000000
(1713559163.682823) can0 410#2880008B9F6E8BC0
(1713559163.684166) can0 12F#F810012000000099
(1713559163.684399) can0 128#1388030000EC78A3
(1713559163.684648) can0 12D#000000000000008B
(1713559163.684890) can0 12E#000000000000C0A5
(1713559163.685121) can0 174#F07F00513D790C2A
(1713559163.685358) can0 178#FE7F000D04930C77
(1713559163.685601) can0 17C#FA7F010019690C86
(1713559163.685848) can0 290#0000000200000083
(1713559163.686092) can0 400#2880000000000075
(1713559163.689061) can0 541#0440E800007FFF86
(1713559163.690243) can0 120#00000000070000AE
(1713559163.690488) can0 121#00000000000000BE
(1713559163.690730) can0 129#00000001000000BA
(1713559163.692746) can0 410#2880008B9F6E8B21
(1713559163.694353) can0 12F#F8100120000000AC
(1713559163.694601) can0 12D#00000000000000BE
(1713559163.694831) can0 174#F07F00512D790D2F
(1713559163.695067) can0 178#F87F000011930D67
(1713559163.695302) can0 17C#F47F010017690D93
(1713559163.695548) can0 290#00000002000000B6
(1713559163.695794) can0 400#2880000000000094
(1713559163.699420) can0 551#000000000004C000
(1713559163.699666) can0 5D1#9958000200000000
(1713559163.701924) can0 140#0000030000000000
(1713559163.702445) can0 410#2880008B9F6E8B4B
(1713559163.704170) can0 12F#F8100120000000C6
(1713559163.704404) can0 128#1388030000EC78C9
(1713559163.704648) can0 12D#00000000000000D4
(1713559163.704892) can0 12E#000000000000C0CF
(1713559163.705125) can0 174#F07F005127790E07
(1713559163.705355) can0 178#F67F013618930EAE
(1713559163.705591) can0 17C#F27F01001F690E6B
(1713559163.705846) can0 290#00000002000000DC
(1713559163.706087) can0 400#28800000000000A1
(1713559163.706334) can0 540#0000001040009E00
(1713559163.706573) can0 5B0#6342000000000096
(1713559163.709068) can0 550#48000C00010000A8
(1713559163.709308) can0 541#0440E800007FFFB3
(1713559163.709562) can0 552#00FFFFFFFFFFFF2E
(1713559163.709760) can0 450#005500001B004A00
(1713559163.710345) can0 120#00000000070000C4
(1713559163.710588) can0 121#00000000000000D4
(1713559163.710830) can0 129#00000001000000D0
(1713559163.712373) can0 410#2880008B9F6E8B7E
(1713559163.714456) can0 12F#F810012000000027
(1713559163.714693) can0 12A#1428701C605800C7
(1713559163.714939) can0 12D#0000000000000035
(1713559163.715173) can0 174#F07F00512C790F9A
(1713559163.715412) can0 178#F87F023015930FE0
(1713559163.715649) can0 17C#F27F010032690FC3
(1713559163.715899) can0 290#000000020000003D
(1713559163.716144) can0 400#28800000000000CB
(1713559163.719061) can0 551#000000000004C000
(1713559163.719310) can0 5D1#9958000200000000
(1713559163.722396) can0 410#2880008B9F6E8B9F
(1713559163.722645) can0 140#0000030000000000
(1713559163.724174) can0 12F#F81001200000004D
(1713559163.724409) can0 128#1388030000EC7828
(1713559163.724659) can0 12D#000000000000005F
(1713559163.724903) can0 12E#000000000000C02E
(1713559163.725135) can0 174#F47F005132790059
(1713559163.725373) can0 178#FA7F033109930004
(1713559163.725607) can0 17C#F67F0100456900D3
(1713559163.725853) can0 290#0000000200000057
(1713559163.726110) can0 400#288000000000002A
(1713559163.729075) can0 541#0440E800007FFFD9
(1713559163.730447) can0 120#0000000007000025
(1713559163.730693) can0 121#0000000000000035
(1713559163.730937) can0 129#0000000100000031
(1713559163.732317) can0 410#2880008B9F6E8BAA
(1713559163.734359) can0 12F#F81000200000007F
(1713559163.734605) can0 12D#000000000000006A
(1713559163.734835) can0 174#F47F0051357901CE
(1713559163.735072) can0 178#F87F04380493012C
(1713559163.735310) can0 17C#F87F01004A690149
(1713559163.735559) can0 290#0000000200000062
(1713559163.735806) can0 400#2880000000000040
(1713559163.737571) can0 4EA#0000000000000000
(1713559163.737817) can0 5B2#0800000000000000
(1713559163.738062) can0 310#FFFFFFFF7D7D0000
(1713559163.739020) can0 551#000000000004C000
(1713559163.739308) can0 5D1#9958000200000000
(1713559163.742348) can0 410#2880008B9F6E8BC0
(1713559163.742979) can0 140#0000030000000000
(1713559163.744169) can0 12F#F810012000000099
(1713559163.744400) can0 128#1388030000EC7842
(1713559163.744646) can0 12D#000000000000008B
(1713559163.744891) can0 12E#000000000000C044
(1713559163.745125) can0 174#F07F00513B790289
(1713559163.745357) can0 178#F07F053109930237
(1713559163.745597) can0 17C#F67F01003D6902AD
(1713559163.745849) can0 290#0000000200000083
(1713559163.746096) can0 400#2880000000000075
(1713559163.749074) can0 541#0440E800007FFF38
(1713559163.750590) can0 120#000000000700004F
(1713559163.750836) can0 121#000000000000005F
(1713559163.751080) can0 129#000000010000005B
(1713559163.752312) can0 410#2880008B9F6E8B21
(1713559163.754350) can0 12F#F8100120000000AC
(1713559163.754596) can0 12D#00000000000000BE
(1713559163.754830) can0 174#F07F00513F790392
(1713559163.755064) can0 178#EE7F063211930382
(1713559163.755301) can0 17C#F67F01002A690322
(1713559163.755547) can0 290#00000002000000B6
(1713559163.755793) can0 400#2880000000000094
(1713559163.757119) can0 6B9#0020400000000000
(1713559163.757363) can0 5A2#1410140000000000
(1713559163.759015) can0 550#48000C00010000C2
(1713559163.759262) can0 551#000000000004C000
(1713559163.759514) can0 552#00FFFFFFFFFFFF44
(1713559163.759759) can0 5D1#9958000200000000
(1713559163.760004) can0 5D2#7444540000000000
(1713559163.760249) can0 450#005500001B004A00
(1713559163.762287) can0 410#2880008B9F6E8B4B
(1713559163.763510) can0 140#0000030000000000
(1713559163.764226) can0 12F#F8100120000000C6
(1713559163.764460) can0 128#1388030000EC7877
(1713559163.764694) can0 12A#1428701C60580026
(1713559163.764938) can0 12D#00000000000000D4
(1713559163.765186) can0 12E#000000000000C071
(1713559163.765420) can0 174#F07F005143790483
(1713559163.765656) can0 178#F07F073917930420
(1713559163.765899) can0 17C#F87F01001F6904D1
(1713559163.766147) can0 290#00000002000000DC
(1713559163.766393) can0 400#28800000000000A1
(1713559163.766631) can0 5A0#0000006244928043
(1713559163.769059) can0 541#0440E800007FFF52
(1713559163.770689) can0 120#000000000700007A
(1713559163.770940) can0 121#000000000000006A
(1713559163.771188) can0 129#000000010000006E
(1713559163.771429) can0 5B1#008A9A6800000042
(1713559163.771666) can0 5D0#9958010200000000
(1713559163.771904) can0 5CF#7444540000000000
(1713559163.772260) can0 410#2880008B9F6E8B7E
(1713559163.774365) can0 12F#F810012000000027
(1713559163.774610) can0 12D#0000000000000035
(1713559163.774840) can0 174#EC7F005145790599
(1713559163.775070) can0 178#F47F082D1A9305C6
(1713559163.775311) can0 17C#FE7F01001B690519
(1713559163.775559) can0 290#000000020000003D
(1713559163.775805) can0 400#28800000000000CB
(1713559163.779013) can0 551#000000000004C000
(1713559163.779264) can0 5D1#9958000200000000
(1713559163.782236) can0 410#2880008B9F6E8B9F
(1713559163.784034) can0 140#0000030000000000
(1713559163.784266) can0 128#1388030000EC7896
(1713559163.784518) can0 12D#000000000000005F
(1713559163.784762) can0 12E#000000000000C090
(1713559163.785004) can0 12F#F81001200000004D
(1713559163.785236) can0 174#EA7F0051407906E4
(1713559163.785468) can0 178#FC7F09301A930633
(1713559163.785706) can0 17C#028001001B690625
(1713559163.785952) can0 290#0000000200000057
(1713559163.786200) can0 400#288000000000002A
(1713559163.789058) can0 541#0440E800007FFF67
(1713559163.790789) can0 120#000000000700009B
(1713559163.791027) can0 121#000000000000008B
(1713559163.791267) can0 129#000000010000008F
(1713559163.792205) can0 410#2880008B9F6E8BAA
(1713559163.794407) can0 12F#F810012000000078
(1713559163.794640) can0 12D#000000000000006A
(1713559163.794842) can0 174#EA7F00513A7907BE
(1713559163.795076) can0 178#04800A32189307C6
(1713559163.795327) can0 17C#06800100266907FC
(1713559163.795568) can0 290#0000000200000062
(1713559163.795816) can0 400#2880000000000040
(1713559163.799012) can0 551#000000000004C000
(1713559163.799262) can0 5D1#9958000200000000
(1713559163.802134) can0 410#2880008B9F6E8BC0
(1713559163.804165) can0 12F#F810012000000099
(1713559163.804397) can0 128#1388030000EC78A3
(1713559163.804642) can0 12D#000000000000008B
(1713559163.804887) can0 12E#000000000000C0A5
(1713559163.805139) can0 140#0000030000000000
(1713559163.805369) can0 174#F07F0051387908D7
(1713559163.805599) can0 178#04800B3612930856
(1713559163.805835) can0 17C#06800100316908D5
(1713559163.806087) can0 290#0000000200000083
(1713559163.806336) can0 400#2880000000000075
(1713559163.806579) can0 540#0000001040009E00
(1713559163.806821) can0 5B0#63420000000000A3
(1713559163.809065) can0 550#48000C0001000023
(1713559163.809306) can0 541#0440E800007FFF86
(1713559163.809558) can0 552#00FFFFFFFFFFFF71
(1713559163.809804) can0 450#005500001B004A00
(1713559163.810886) can0 120#00000000070000AE
(1713559163.811132) can0 121#00000000000000BE
(1713559163.811398) can0 129#00000001000000BA
(1713559163.812149) can0 410#2880008B9F6E8B21
(1713559163.814523) can0 12F#F8100020000000AB
(1713559163.814744) can0 12A#1428701C6058004C
(1713559163.814991) can0 12D#00000000000000BE
(1713559163.815225) can0 174#F47F00513B79092F
(1713559163.815460) can0 178#FE7F0C300D93097F
(1713559163.815695) can0 17C#06800100356909CE
(1713559163.815939) can0 290#00000002000000B6
(1713559163.816137) can0 400#2880000000000094
(1713559163.819008) can0 551#000000000004C000
(1713559163.819257) can0 5D1#9958000200000000
(1713559163.822102) can0 410#2880008B9F6E8B4B
(1713559163.824125) can0 12F#F8100120000000C6
(1713559163.824360) can0 128#1388030000EC78C9
(1713559163.824604) can0 12D#00000000000000D4
(1713559163.824896) can0 12E#000000000000C0CF
(1713559163.825147) can0 140#0000030000000000
(1713559163.825376) can0 174#F07F005142790AAA
(1713559163.825616) can0 178#FA7F00000F930A9F
(1713559163.825855) can0 17C#0680010035690AE9
(1713559163.826104) can0 290#00000002000000DC
(1713559163.826350) can0 400#28800000000000A1
(1713559163.829062) can0 541#0440E800007FFFB3
(1713559163.830977) can0 120#00000000070000C4
(1713559163.831221) can0 121#00000000000000D4
(1713559163.831466) can0 129#00000001000000D0
(1713559163.832126) can0 410#2880008B9F6E8B7E
(1713559163.834409) can0 12F#F810012000000027
(1713559163.834649) can0 12D#0000000000000035
(1713559163.834878) can0 174#EA7F005143790BE9
(1713559163.835115) can0 178#FA7F01300F930B87
(1713559163.835382) can0 17C#0480010031690B48
(1713559163.835602) can0 290#000000020000003D
(1713559163.835925) can0 400#28800000000000CB
(1713559163.837414) can0 4EA#0000000000000000
(1713559163.837660) can0 5B2#0800000000000000
(1713559163.837905) can0 310#FFFFFFFF7D7D0000
(1713559163.839008) can0 551#000000000004C000
(1713559163.839256) can0 5D1#9958000200000000
(1713559163.842052) can0 410#2880008B9F6E8B9F
(1713559163.844116) can0 12F#F81001200000004D
(1713559163.844353) can0 128#1388030000EC7828
(1713559163.844604) can0 12D#000000000000005F
(1713559163.844848) can0 12E#000000000000C02E
(1713559163.845080) can0 174#E87F00513D790C41
(1713559163.845312) can0 178#FE7F02320C930CA8
(1713559163.845562) can0 140#0000030000000000
(1713559163.845844) can0 17C#008001002A690CEA
(1713559163.846094) can0 290#0000000200000057
(1713559163.846342) can0 400#288000000000002A
(1713559163.849061) can0 541#0440E800007FFFD9
(1713559163.851080) can0 120#0000000007000025
(1713559163.851347) can0 121#0000000000000035
(1713559163.851573) can0 129#0000000100000031
(1713559163.852072) can0 410#2880008B9F6E8BAA
(1713559163.854408) can0 12F#F810012000000078
(1713559163.854655) can0 12D#000000000000006A
(1713559163.854882) can0 174#EC7F005135790D39
(1713559163.855118) can0 178#0280033609930D03
(1713559163.855393) can0 17C#FE7F010022690D5A
(1713559163.855606) can0 290#0000000200000062
(1713559163.856024) can0 400#2880000000000040
(1713559163.857350) can0 6B9#0020400000000000
(1713559163.857594) can0 5A2#1410140000000000
(1713559163.859017) can0 550#48000C0001000049
(1713559163.859263) can0 551#000000000004C000
(1713559163.859517) can0 552#00FFFFFFFFFFFF90
(1713559163.859762) can0 5D1#9958000200000000
(1713559163.860006) can0 5D2#7444540000000000
(1713559163.860252) can0 450#005500001B004A00
(1713559163.861999) can0 410#2880008B9F6E8BC0
(1713559163.864183) can0 12F#F810012000000099
(1713559163.864417) can0 128#1388030000EC7842
(1713559163.864650) can0 12A#1428701C60580079
(1713559163.864895) can0 12D#000000000000008B
(1713559163.865139) can0 12E#000000000000C044
(1713559163.865367) can0 174#EC7F005132790E94
(1713559163.865603) can0 178#0280043507930E9C
(1713559163.865841) can0 17C#FE7F01002A690E71
(1713559163.866138) can0 140#0000030000000000
(1713559163.866390) can0 290#0000000200000083
(1713559163.866637) can0 400#2880000000000075
(1713559163.866874) can0 5A0#0000006244928076
(1713559163.869058) can0 541#0440E800007FFF38
(1713559163.871053) can0 5D0#9958010200000000
(1713559163.871299) can0 120#000000000700004F
(1713559163.871552) can0 121#000000000000005F
(1713559163.871791) can0 129#000000010000005B
(1713559163.872027) can0 5B1#008A9A6800000077
(1713559163.872263) can0 410#2880008B9F6E8B21
(1713559163.872501) can0 5CF#7444540000000000
(1713559163.874447) can0 12F#F8100120000000AC
(1713559163.874697) can0 12D#00000000000000BE
(1713559163.874926) can0 174#EE7F005137790FBA
(1713559163.875160) can0 178#FC7F05300A930F1C
(1713559163.875400) can0 17C#FC7F01003D690F44
(1713559163.875644) can0 290#00000002000000B6
(1713559163.876124) can0 400#2880000000000094
(1713559163.879013) can0 551#000000000004C000
(1713559163.879262) can0 5D1#9958000200000000
(1713559163.881943) can0 410#2880008B9F6E8B4B
(1713559163.884113) can0 12F#F8100120000000C6
(1713559163.884347) can0 128#1388030000EC7877
(1713559163.884591) can0 12D#00000000000000D4
(1713559163.884840) can0 12E#000000000000C071
(1713559163.885069) can0 174#F27F005138790085
(1713559163.885299) can0 178#F67F06310D930066
(1713559163.885539) can0 17C#FE7F010040690088
