(1713559687.529972) can0 12F#F80003200000007D
(1713559687.530199) can0 12D#000000000000006A
(1713559687.530447) can0 290#0000000200000062
(1713559687.531922) can0 6B9#0020400000000000
(1713559687.532161) can0 5A2#1410140000000000
(1713559687.532410) can0 400#288000000000002A
(1713559687.532871) can0 540#0000001040009F00
(1713559687.533111) can0 5B0#6342000000000077
(1713559687.536082) can0 551#000000000004C000
(1713559687.536319) can0 410#2880008B9F6E8B4B
(1713559687.536564) can0 552#00FFFFFFFFFFFF44
(1713559687.536813) can0 55A#0017160000000000
(1713559687.537058) can0 5D1#9958000200000000
(1713559687.537300) can0 5D2#7444540000000000
(1713559687.537547) can0 120#0000000807000030
(1713559687.537795) can0 121#0000000000000035
(1713559687.538039) can0 129#0000000100000031
(1713559687.538267) can0 174#EC7F005C4A790CA5
(1713559687.538493) can0 178#F27F0B630C930C22
(1713559687.538729) can0 17C#048001001E690CAD
(1713559687.538968) can0 450#0055E0001B004A00
(1713559687.540248) can0 12F#F80003200000009C
(1713559687.540480) can0 128#1388030000EC7842
(1713559687.540726) can0 12D#000000000000008B
(1713559687.540970) can0 12E#000000000000C044
(1713559687.541220) can0 290#0010000200000088
(1713559687.541536) can0 140#0000030000000000
(1713559687.542305) can0 400#2880000000000040
(1713559687.546098) can0 410#2880008B9F6E8B7E
(1713559687.547371) can0 174#EA7F005C46790D61
(1713559687.547601) can0 178#F07F0C680F930D24
(1713559687.547839) can0 17C#FA7F01001B690D98
(1713559687.548552) can0 541#0440E800007FFF52
(1713559687.549956) can0 12F#F8100320000000A2
(1713559687.550204) can0 12D#00000000000000BE
(1713559687.550450) can0 290#00100002000000BD
(1713559687.552324) can0 400#2880000000000075
(1713559687.556085) can0 551#000000000004C000
(1713559687.556322) can0 410#2880008B9F6E8B9F
(1713559687.556562) can0 5D1#9958000200000000
(1713559687.557408) can0 174#E67F005C40790EF8
(1713559687.557652) can0 120#000000080700005A
(1713559687.557900) can0 121#000000000000005F
(1713559687.558144) can0 129#000000010000005B
(1713559687.558374) can0 178#F27F0D2012930E46
(1713559687.558614) can0 17C#F87F01001F690E03
(1713559687.559610) can0 550#48000C00010000C2
(1713559687.559928) can0 4EA#0000000000000000
(1713559687.560168) can0 12F#F8000320000000C3
(1713559687.560402) can0 128#1388030000EC7877
(1713559687.560636) can0 12A#1428701C60580026
(1713559687.560880) can0 12D#00000000000000D4
(1713559687.561128) can0 12E#000000000000C071
(1713559687.561374) can0 290#00100002000000D7
(1713559687.561612) can0 5A0#0000006244928043
(1713559687.561858) can0 5B2#0800000000000000
(1713559687.562108) can0 140#0000030000000000
(1713559687.562353) can0 310#FFFFFFFF7D7D0000
(1713559687.562601) can0 400#2880000000000094
(1713559687.566108) can0 541#0440E800007FFF67
(1713559687.566337) can0 410#2880008B9F6E8BAA
(1713559687.567427) can0 174#E67F005C3B790F2D
(1713559687.567648) can0 178#FA7F0E4718930F12
(1713559687.567890) can0 17C#FA7F010024690F0C
(1713559687.570035) can0 12F#F800032000000022
(1713559687.570282) can0 12D#0000000000000035
(1713559687.570526) can0 290#0010000200000036
(1713559687.572456) can0 400#28800000000000A1
(1713559687.576097) can0 551#000000000004C000
(1713559687.576339) can0 410#2880008B9F6E8BC0
(1713559687.576528) can0 5D1#9958000200000000
(1713559687.577382) can0 174#E87F005C3A790018
(1713559687.577630) can0 120#000000080700006F
(1713559687.577882) can0 121#000000000000006A
(1713559687.578130) can0 129#000000010000006E
(1713559687.578362) can0 178#FC7F0F6D23930049
(1713559687.578601) can0 17C#FE7F0100246900DE
(1713559687.580144) can0 12F#F800032000000048
(1713559687.580377) can0 128#1388030000EC7896
(1713559687.580627) can0 12D#000000000000005F
(1713559687.580873) can0 12E#000000000000C090
(1713559687.581119) can0 290#003000020000004A
(1713559687.582485) can0 400#28800000000000CB
(1713559687.582736) can0 140#0000030000000000
(1713559687.586115) can0 541#0440E800007FFF86
(1713559687.586350) can0 410#2880008B9F6E8B21
(1713559687.586594) can0 552#00FFFFFFFFFFFF71
(1713559687.586837) can0 450#0055E0001B004A00
(1713559687.587434) can0 174#EA7F005C3B790130
(1713559687.587665) can0 178#FA7F006228930113
(1713559687.587904) can0 17C#FE7F01002769014F
(1713559687.590049) can0 12F#F810032000000076
(1713559687.590297) can0 12D#000000000000006A
(1713559687.590542) can0 290#003000020000007F
(1713559687.592555) can0 400#288000000000002A
(1713559687.596098) can0 551#000000000004C000
(1713559687.596333) can0 410#2880008B9F6E8B4B
(1713559687.596529) can0 5D1#9958000200000000
(1713559687.597393) can0 174#EE7F005C3F790278
(1713559687.597625) can0 178#F67F01482293021B
(1713559687.597871) can0 120#000000080700008E
(1713559687.598115) can0 121#000000000000008B
(1713559687.598357) can0 129#000000010000008F
(1713559687.598599) can0 17C#FE7F0100346902FC
(1713559687.600129) can0 12F#F80003200000009C
(1713559687.600364) can0 128#1388030000EC78A3
(1713559687.600610) can0 12D#000000000000008B
(1713559687.600854) can0 12E#000000000000C0A5
(1713559687.601105) can0 290#0010000200000088
(1713559687.602575) can0 400#2880000000000040
(1713559687.603095) can0 140#0000030000000000
(1713559687.606097) can0 541#0440E800007FFFB3
(1713559687.606335) can0 410#2880008B9F6E8B7E
(1713559687.607445) can0 174#F07F005C40790313
(1713559687.607677) can0 178#F67F000018930343
(1713559687.607915) can0 17C#FE7F01003769036D
(1713559687.609621) can0 550#48000C0001000023
(1713559687.609998) can0 12F#F8000320000000A9
(1713559687.610229) can0 12A#1428701C6058004C
(1713559687.610477) can0 12D#00000000000000BE
(1713559687.610723) can0 290#00100002000000BD
(1713559687.612650) can0 400#2880000000000075
(1713559687.616098) can0 551#000000000004C000
(1713559687.616334) can0 410#2880008B9F6E8B9F
(1713559687.616576) can0 5D1#9958000200000000
(1713559687.617397) can0 174#F27F005C467904FF
(1713559687.617634) can0 178#FA7F000011930428
(1713559687.617878) can0 120#00000008070000BB
(1713559687.618124) can0 121#00000000000000BE
(1713559687.618366) can0 129#00000001000000BA
(1713559687.618607) can0 17C#FE7F01003769043E
(1713559687.618843) can0 5B1#008A9A6800000042
(1713559687.619085) can0 5D0#9958010200000000
(1713559687.619338) can0 5CF#7444540000000000
(1713559687.620158) can0 12F#F8000320000000C3
(1713559687.620394) can0 128#1388030000EC78C9
(1713559687.620637) can0 12D#00000000000000D4
(1713559687.620882) can0 12E#000000000000C0CF
(1713559687.621128) can0 290#00100002000000D7
(1713559687.622670) can0 400#2880000000000094
(1713559687.623619) can0 140#0000030000000000
(1713559687.626082) can0 410#2880008B9F6E8BAA
(1713559687.626322) can0 541#0440E800007FFFD9
(1713559687.627447) can0 174#F27F005C4D790562
(1713559687.627682) can0 178#0080000D0C93052F
(1713559687.627925) can0 17C#FE7F01003F69052F
(1713559687.630003) can0 12F#F810032000000029
(1713559687.630249) can0 12D#0000000000000035
(1713559687.630493) can0 290#0010000200000036
(1713559687.632209) can0 6B9#0020400000000000
(1713559687.632451) can0 5A2#1410140000000000
(1713559687.632737) can0 400#28800000000000A1
(1713559687.633431) can0 540#0000001040009F00
(1713559687.633668) can0 5B0#6342000000000096
(1713559687.636061) can0 410#2880008B9F6E8BC0
(1713559687.636304) can0 551#000000000004C000
(1713559687.636561) can0 552#00FFFFFFFFFFFF90
(1713559687.636804) can0 5D1#9958000200000000
(1713559687.637048) can0 5D2#7444540000000000
(1713559687.637283) can0 450#0055E0001B004A00
(1713559687.637477) can0 174#F07F005C48790676
(1713559687.637719) can0 178#008000000D9306C8
(1713559687.637963) can0 120#00000008070000D1
(1713559687.638207) can0 121#00000000000000D4
(1713559687.638449) can0 129#00000001000000D0
(1713559687.638689) can0 17C#FA7F010045690626
(1713559687.640252) can0 12F#F800032000000048
(1713559687.640489) can0 128#1388030000EC7828
(1713559687.640739) can0 12D#000000000000005F
(1713559687.640983) can0 12E#000000000000C02E
(1713559687.641229) can0 290#0000000200000057
(1713559687.642766) can0 400#28800000000000CB
(1713559687.644140) can0 140#0000030000000000
(1713559687.646028) can0 410#2880008B9F6E8B21
(1713559687.646270) can0 541#0440E800007FFF38
(1713559687.647458) can0 174#EC7F005C3B7907AD
(1713559687.647688) can0 178#FA7F0136129307EF
(1713559687.647928) can0 17C#F47F01003F69077D
(1713559687.650001) can0 12F#F80003200000007D
(1713559687.650247) can0 12D#000000000000006A
(1713559687.650495) can0 290#0000000200000062
(1713559687.652839) can0 400#288000000000002A
(1713559687.656012) can0 410#2880008B9F6E8B4B
(1713559687.656249) can0 551#000000000004C000
(1713559687.656497) can0 5D1#9958000200000000
(1713559687.657455) can0 174#E87F005C2F790861
(1713559687.657685) can0 178#F67F0230159308B2
(1713559687.657919) can0 17C#F47F0100356908C9
(1713559687.658168) can0 120#0000000807000030
(1713559687.658414) can0 121#0000000000000035
(1713559687.658658) can0 129#0000000100000031
(1713559687.659630) can0 550#48000C0001000049
(1713559687.659852) can0 4EA#0000000000000000
(1713559687.660078) can0 5B2#0800000000000000
(1713559687.660311) can0 128#1388030000EC7842
(1713559687.660543) can0 12A#1428701C60580079
(1713559687.660790) can0 12D#000000000000008B
(1713559687.661034) can0 12E#000000000000C044
(1713559687.661274) can0 12F#F80003200000009C
(1713559687.661526) can0 290#0000000200000083
(1713559687.661771) can0 310#FFFFFFFF7D7D0000
(1713559687.662009) can0 5A0#0000006244928076
(1713559687.662874) can0 400#2880000000000040
(1713559687.664661) can0 140#0000030000000000
(1713559687.665929) can0 410#2880008B9F6E8B7E
(1713559687.666171) can0 541#0440E800007FFF52
(1713559687.667460) can0 174#E67F005C2C7909F1
(1713559687.667690) can0 178#F87F0331189309DC
(1713559687.667928) can0 17C#FA7F010038690950
(1713559687.670036) can0 12F#F8100320000000A2
(1713559687.670281) can0 12D#00000000000000BE
(1713559687.670527) can0 290#00000002000000B6
(1713559687.672934) can0 400#2880000000000075
(1713559687.675648) can0 410#2880008B9F6E8B9F
(1713559687.676102) can0 551#000000000004C000
(1713559687.676345) can0 5D1#9958000200000000
(1713559687.677461) can0 174#E67F005C37790A4E
(1713559687.677693) can0 178#FA7F04381C930A4D
(1713559687.677934) can0 17C#0080010042690AF8
(1713559687.678178) can0 120#000000080700005A
(1713559687.678429) can0 121#000000000000005F
(1713559687.678670) can0 129#000000010000005B
(1713559687.680141) can0 12F#F8000320000000C3
(1713559687.680374) can0 128#1388030000EC7877
(1713559687.680618) can0 12D#00000000000000D4
(1713559687.680866) can0 12E#000000000000C071
(1713559687.681112) can0 290#00100002000000D7
(1713559687.682958) can0 400#2880000000000094
(1713559687.685181) can0 140#0000030000000000
(1713559687.685567) can0 410#2880008B9F6E8BAA
(1713559687.686063) can0 541#0440E800007FFF67
(1713559687.686316) can0 552#00FFFFFFFFFFFFA5
(1713559687.686559) can0 450#0055E0001B004A00
(1713559687.687418) can0 174#EA7F005C43790BA6
(1713559687.687695) can0 178#FA7F05311C930B3B
(1713559687.687933) can0 17C#0480010043690B03
(1713559687.690051) can0 12F#F800032000000022
(1713559687.690292) can0 12D#0000000000000035
(1713559687.690536) can0 290#0010000200000036
(1713559687.693043) can0 400#28800000000000A1
(1713559687.695601) can0 410#2880008B9F6E8BC0
(1713559687.696087) can0 551#000000000004C000
(1713559687.696343) can0 5D1#9958000200000000
(1713559687.697471) can0 174#EE7F005C46790C15
(1713559687.697698) can0 178#FC7F063218930CB9
(1713559687.697937) can0 17C#068001003A690C21
(1713559687.698191) can0 120#000000080700006F
(1713559687.698443) can0 121#000000000000006A
(1713559687.698692) can0 129#000000010000006E
(1713559687.700180) can0 12F#F800032000000048
(1713559687.700366) can0 128#1388030000EC7896
(1713559687.700616) can0 12D#000000000000005F
(1713559687.700863) can0 12E#000000000000C090
(1713559687.701108) can0 290#001000020000005C
(1713559687.703043) can0 400#28800000000000CB
(1713559687.705515) can0 410#2880008B9F6E8B21
(1713559687.705765) can0 140#0000030000000000
(1713559687.706059) can0 541#0440E800007FFF86
(1713559687.707422) can0 174#EE7F005C42790D0E
(1713559687.707651) can0 178#FA7F07390D930DAA
(1713559687.707891) can0 17C#0480010037690D03
(1713559687.709624) can0 550#48000C000100007C
(1713559687.710001) can0 12F#F810032000000076
(1713559687.710236) can0 12A#1428701C60580098
(1713559687.710483) can0 12D#000000000000006A
(1713559687.710725) can0 290#0010000200000069
(1713559687.713130) can0 400#288000000000002A
(1713559687.715540) can0 410#2880008B9F6E8B4B
(1713559687.716094) can0 551#000000000004C000
(1713559687.716340) can0 5D1#9958000200000000
(1713559687.717474) can0 174#EE7F005C37790EE8
(1713559687.717711) can0 178#F87F082D06930EA0
(1713559687.717944) can0 17C#FC7F010045690E1D
(1713559687.718179) can0 5B1#008A9A6800000077
(1713559687.718427) can0 120#000000080700008E
(1713559687.718671) can0 121#000000000000008B
(1713559687.718912) can0 129#000000010000008F
(1713559687.719155) can0 5D0#9958010200000000
(1713559687.719406) can0 5CF#7444540000000000
(1713559687.720199) can0 12F#F80003200000009C
(1713559687.720434) can0 128#1388030000EC78A3
(1713559687.720679) can0 12D#000000000000008B
(1713559687.720923) can0 12E#000000000000C0A5
(1713559687.721176) can0 290#0000000200000083
(1713559687.723145) can0 400#2880000000000040
(1713559687.725465) can0 410#2880008B9F6E8B7E
(1713559687.726042) can0 541#0440E800007FFFB3
(1713559687.726292) can0 140#0000030000000000
(1713559687.727431) can0 174#EA7F005C2A790F01
(1713559687.727665) can0 178#FA7F09300D930F87
(1713559687.727905) can0 17C#F87F010056690FFD
(1713559687.730001) can0 12F#F8000320000000A9
(1713559687.730249) can0 12D#00000000000000BE
(1713559687.730498) can0 290#00000002000000B6
(1713559687.732436) can0 6B9#0020400000000000
(1713559687.732677) can0 5A2#1410140000000000
(1713559687.733223) can0 400#2880000000000075
(1713559687.733881) can0 540#0000001040009F00
(1713559687.734123) can0 5B0#63420000000000A3
(1713559687.735487) can0 410#2880008B9F6E8B9F
(1713559687.736114) can0 551#000000000004C000
(1713559687.736368) can0 552#00FFFFFFFFFFFFCF
(1713559687.736614) can0 5D1#9958000200000000
(1713559687.736858) can0 5D2#7444540000000000
(1713559687.737101) can0 450#0055E0001B004A00
(1713559687.737490) can0 174#EA7F005C2579003C
(1713559687.737722) can0 178#FE7F0A32159300D8
(1713559687.737970) can0 17C#FE7F01005869009C
(1713559687.738358) can0 120#00000008070000BB
(1713559687.738602) can0 121#00000000000000BE
(1713559687.738844) can0 129#00000001000000BA
(1713559687.740268) can0 12F#F8000320000000C3
(1713559687.740501) can0 128#1388030000EC78C9
(1713559687.740745) can0 12D#00000000000000D4
(1713559687.740989) can0 12E#000000000000C0CF
(1713559687.741238) can0 290#00000002000000DC
(1713559687.743239) can0 400#2880000000000094
(1713559687.745408) can0 410#2880008B9F6E8BAA
(1713559687.746038) can0 541#0440E800007FFFD9
(1713559687.746746) can0 140#0000030000000000
(1713559687.747440) can0 174#EC7F005C297901F8
(1713559687.747670) can0 178#FE7F0B361293016B
(1713559687.747908) can0 17C#048001004D6901D8
(1713559687.750004) can0 12F#F810032000000029
(1713559687.750248) can0 12D#0000000000000035
(1713559687.750496) can0 290#000000020000003D
(1713559687.753324) can0 400#28800000000000A1
(1713559687.755434) can0 410#2880008B9F6E8BC0
(1713559687.756092) can0 551#000000000004C000
(1713559687.756342) can0 5D1#9958000200000000
(1713559687.757498) can0 174#F07F005C2A790251
(1713559687.757734) can0 178#00800C300C93029E
(1713559687.757975) can0 17C#0280010045690220
(1713559687.758461) can0 120#00000008070000D1
(1713559687.758699) can0 121#00000000000000D4
(1713559687.758940) can0 129#00000001000000D0
(1713559687.759543) can0 4EA#0000000000000000
(1713559687.759784) can0 550#48000C000100009D
(1713559687.760030) can0 5B2#0800000000000000
(1713559687.760267) can0 128#1388030000EC7828
(1713559687.760502) can0 12A#1428701C605800AD
(1713559687.760752) can0 12D#000000000000005F
(1713559687.760996) can0 12E#000000000000C02E
(1713559687.761238) can0 12F#F800032000000048
(1713559687.761484) can0 290#0000000200000057
(1713559687.761730) can0 310#FFFFFFFF7D7D0000
(1713559687.761966) can0 5A0#0000006244928097
(1713559687.763349) can0 400#28800000000000CB
(1713559687.765353) can0 410#2880008B9F6E8B21
(1713559687.766038) can0 541#0440E800007FFF38
(1713559687.767268) can0 140#0000030000000000
(1713559687.767505) can0 174#F07F005C297903C0
(1713559687.767745) can0 178#028000000F930318
(1713559687.767981) can0 17C#FE7F0100466903AA
(1713559687.769992) can0 12F#F80003200000007D
(1713559687.770238) can0 12D#000000000000006A
(1713559687.770485) can0 290#0000000200000062
(1713559687.773428) can0 400#288000000000002A
(1713559687.775400) can0 410#2880008B9F6E8B4B
(1713559687.776090) can0 551#000000000004C000
(1713559687.776347) can0 5D1#9958000200000000
(1713559687.777512) can0 174#EC7F005C27790498
(1713559687.777743) can0 178#FE7F01301A9304C4
(1713559687.777980) can0 17C#FC7F01004B6904C6
(1713559687.778555) can0 120#0000000807000030
(1713559687.778801) can0 121#0000000000000035
(1713559687.779045) can0 129#0000000100000031
(1713559687.780197) can0 12F#F80003200000009C
(1713559687.780420) can0 128#1388030000EC7842
(1713559687.780663) can0 12D#000000000000008B
(1713559687.780907) can0 12E#000000000000C044
(1713559687.781159) can0 290#0000000200000083
(1713559687.783475) can0 400#2880000000000040
(1713559687.785314) can0 410#2880008B9F6E8B7E
(1713559687.786053) can0 541#0440E800007FFF52
(1713559687.786310) can0 552#00FFFFFFFFFFFF2E
(1713559687.786553) can0 450#0055E0001B004A00
(1713559687.787468) can0 174#E47F005C2D790558
(1713559687.787701) can0 178#FA7F023223930582
(1713559687.787951) can0 140#0000030000000000
(1713559687.788190) can0 17C#F87F01004D6905B7
(1713559687.789997) can0 12F#F8100320000000A2
(1713559687.790246) can0 12D#00000000000000BE
(1713559687.790492) can0 290#00000002000000B6
(1713559687.793526) can0 400#2880000000000075
(1713559687.795385) can0 410#2880008B9F6E8B9F
(1713559687.796087) can0 551#000000000004C000
(1713559687.796334) can0 5D1#9958000200000000
(1713559687.797504) can0 174#E27F005C3B7906B1
(1713559687.797735) can0 178#FA7F033627930687
(1713559687.797978) can0 17C#F87F01004569069C
(1713559687.798660) can0 120#000000080700005A
(1713559687.798898) can0 121#000000000000005F
(1713559687.799141) can0 129#000000010000005B
(1713559687.800176) can0 12F#F8000320000000C3
(1713559687.800416) can0 128#1388030000EC7877
(1713559687.800655) can0 12D#00000000000000D4
(1713559687.800898) can0 12E#000000000000C071
(1713559687.801145) can0 290#00000002000000DC
(1713559687.803571) can0 400#2880000000000094
(1713559687.805272) can0 410#2880008B9F6E8BAA
(1713559687.806040) can0 541#0440E800007FFF67
(1713559687.807471) can0 174#E67F005C46790708
(1713559687.807708) can0 178#FC7F0435239307FE
(1713559687.807952) can0 17C#F67F01002F6907DF
(1713559687.808314) can0 140#0000030000000000
(1713559687.809584) can0 550#48000C00010000A8
(1713559687.809954) can0 12F#F800032000000022
(1713559687.810190) can0 12A#1428701C605800C7
(1713559687.810437) can0 12D#0000000000000035
(1713559687.810685) can0 290#000000020000003D
(1713559687.813613) can0 400#28800000000000A1
(1713559687.815299) can0 410#2880008B9F6E8BC0
(1713559687.816090) can0 551#000000000004C000
(1713559687.816337) can0 5D1#9958000200000000
(1713559687.817515) can0 174#EA7F005C46790808
(1713559687.817746) can0 178#028005301C9308F3
(1713559687.817981) can0 17C#F47F01001E690879
(1713559687.818217) can0 5B1#008A9A6800000096
(1713559687.818459) can0 5D0#9958010200000000
(1713559687.818698) can0 5CF#7444540000000000
(1713559687.818945) can0 120#000000080700006F
(1713559687.819198) can0 121#000000000000006A
(1713559687.819449) can0 129#000000010000006E
(1713559687.820242) can0 12F#F800032000000048
(1713559687.820476) can0 128#1388030000EC7896
(1713559687.820734) can0 12D#000000000000005F
(1713559687.820975) can0 12E#000000000000C090
(1713559687.821222) can0 290#001000020000005C
(1713559687.823668) can0 400#28800000000000CB
(1713559687.825220) can0 410#2880008B9F6E8B21
(1713559687.826041) can0 541#0440E800007FFF86
(1713559687.827472) can0 174#EC7F005C407909C3
(1713559687.827701) can0 178#048006311793099E
(1713559687.827938) can0 17C#F67F0100226909FC
(1713559687.828836) can0 140#0000030000000000
(1713559687.829962) can0 12F#F810032000000076
(1713559687.830208) can0 12D#000000000000006A
(1713559687.830452) can0 290#0010000200000069
(1713559687.832623) can0 6B9#0020400000000000
(1713559687.832867) can0 5A2#1410140000000000
(1713559687.833662) can0 400#288000000000002A
(1713559687.834354) can0 540#0000001040009F00
(1713559687.834594) can0 5B0#63420000000000C9
(1713559687.835245) can0 410#2880008B9F6E8B4B
(1713559687.836546) can0 551#000000000004C000
(1713559687.836800) can0 552#00FFFFFFFFFFFF44
(1713559687.837047) can0 5D1#9958000200000000
(1713559687.837290) can0 5D2#7444540000000000
(1713559687.837527) can0 174#EC7F005C3B790A2C
(1713559687.837757) can0 178#FC7F073117930AA1
(1713559687.837993) can0 17C#FC7F01002C690ABA
(1713559687.838232) can0 450#0055E0001B004A00
(1713559687.838844) can0 120#000000080700008E
(1713559687.839088) can0 121#000000000000008B
(1713559687.839352) can0 129#000000010000008F
(1713559687.840258) can0 12F#F80003200000009C
(1713559687.840492) can0 128#1388030000EC78A3
(1713559687.840738) can0 12D#000000000000008B
(1713559687.840983) can0 12E#000000000000C0A5
(1713559687.841237) can0 290#0000000200000083
(1713559687.843770) can0 400#2880000000000040
(1713559687.845219) can0 410#2880008B9F6E8B7E
(1713559687.846082) can0 541#0440E800007FFFB3
(1713559687.847518) can0 174#EC7F005C3D790B34
(1713559687.847697) can0 178#F47F08311A930B97
(1713559687.847934) can0 17C#048001002A690BD0
(1713559687.849358) can0 140#0000030000000000
(1713559687.849952) can0 12F#F8000320000000A9
(1713559687.850200) can0 12D#00000000000000BE
(1713559687.850446) can0 290#00000002000000B6
(1713559687.853758) can0 400#2880000000000075
(1713559687.855143) can0 410#2880008B9F6E8B9F
(1713559687.856090) can0 551#000000000004C000
(1713559687.856336) can0 5D1#9958000200000000
(1713559687.857523) can0 174#EC7F005C40790CAA
(1713559687.857757) can0 178#F07F09301F930CD3
(1713559687.857994) can0 17C#088001001E690C16
(1713559687.858939) can0 120#00000008070000BB
(1713559687.859186) can0 121#00000000000000BE
(1713559687.859430) can0 129#00000001000000BA
(1713559687.859677) can0 4EA#0000000000000000
(1713559687.859919) can0 550#48000C00010000C2
(1713559687.860165) can0 5B2#0800000000000000
(1713559687.860401) can0 128#1388030000EC78C9
(1713559687.860635) can0 12A#1428701C60580026
(1713559687.860879) can0 12D#00000000000000D4
(1713559687.861123) can0 12E#000000000000C0CF
(1713559687.861363) can0 12F#F8000320000000C3
(1713559687.861611) can0 290#00000002000000DC
(1713559687.861857) can0 310#FFFFFFFF7D7D0000
(1713559687.862095) can0 5A0#00000062449280A2
(1713559687.863866) can0 400#2880000000000094
(1713559687.865155) can0 410#2880008B9F6E8BAA
(1713559687.866080) can0 541#0440E800007FFFD9
(1713559687.867530) can0 174#EC7F005C45790D3E
(1713559687.867723) can0 178#F07F0A381D930DEF
(1713559687.867948) can0 17C#0A80010014690DBE
(1713559687.869882) can0 140#0000030000000000
(1713559687.870128) can0 12D#0000000000000035
(1713559687.870370) can0 12F#F810032000000029
(1713559687.870618) can0 290#000000020000003D
(1713559687.873858) can0 400#28800000000000A1
(1713559687.875109) can0 410#2880008B9F6E8BC0
(1713559687.876085) can0 551#000000000004C000
(1713559687.876334) can0 5D1#9958000200000000
(1713559687.877528) can0 174#EE7F005C45790EA3
(1713559687.877767) can0 178#F07F000015930E94
(1713559687.878005) can0 17C#0A80010013690E13
(1713559687.879039) can0 120#00000008070000D1
(1713559687.879284) can0 121#00000000000000D4
(1713559687.879526) can0 129#00000001000000D0
(1713559687.880126) can0 12F#F800032000000048
(1713559687.880363) can0 128#1388030000EC7828
(1713559687.880613) can0 12D#000000000000005F
(1713559687.880857) can0 12E#000000000000C02E
(1713559687.881103) can0 290#0000000200000057
(1713559687.883960) can0 400#28800000000000CB
(1713559687.885153) can0 410#2880008B9F6E8B21
(1713559687.886099) can0 541#0440E800007FFF38
(1713559687.886353) can0 552#00FFFFFFFFFFFF71
(1713559687.886597) can0 450#0055E0001B004A00
(1713559687.887537) can0 174#EE7F005C40790F37
(1713559687.887769) can0 178#F87F01300F930F49
(1713559687.887962) can0 17C#0480010019690F00
(1713559687.890050) can0 12F#F80003200000007D
(1713559687.890296) can0 12D#000000000000006A
(1713559687.890546) can0 140#0000030000000000
(1713559687.890794) can0 290#0000000200000062
(1713559687.893960) can0 400#288000000000002A
(1713559687.895107) can0 410#2880008B9F6E8B4B
(1713559687.896083) can0 551#000000000004C000
(1713559687.896328) can0 5D1#9958000200000000
(1713559687.897539) can0 174#EE7F005C387900C8
(1713559687.897776) can0 178#04800000119300FD
(1713559687.898017) can0 17C#FA7F01002D690034
(1713559687.899139) can0 120#0000000807000030
(1713559687.899391) can0 121#0000000000000035
(1713559687.899632) can0 129#0000000100000031
(1713559687.900162) can0 12F#F80003200000009C
(1713559687.900398) can0 128#1388030000EC7842
(1713559687.900642) can0 12D#000000000000008B
(1713559687.900886) can0 12E#000000000000C044
(1713559687.901138) can0 290#0000000200000083
(1713559687.904051) can0 400#2880000000000040
(1713559687.905158) can0 410#2880008B9F6E8B7E
(1713559687.906080) can0 541#0440E800007FFF52
(1713559687.907543) can0 174#EE7F005C347901DF
(1713559687.907776) can0 178#0C800153129301DF
(1713559687.908004) can0 17C#F67F010042690144
(1713559687.909573) can0 550#48000C0001000023
(1713559687.910005) can0 12F#F8100320000000A2
(1713559687.910237) can0 12A#1428701C6058004C
(1713559687.910485) can0 12D#00000000000000BE
(1713559687.910731) can0 290#00000002000000B6
(1713559687.910981) can0 140#0000030000000000
(1713559687.914056) can0 400#2880000000000075
(1713559687.915108) can0 410#2880008B9F6E8B9F
(1713559687.916085) can0 551#000000000004C000
(1713559687.916332) can0 5D1#9958000200000000
(1713559687.917547) can0 174#F07F005C34790240
(1713559687.917782) can0 178#0680024318930204
(1713559687.918018) can0 17C#FC7F010043690284
(1713559687.918254) can0 5B1#008A9A68000000A3
(1713559687.918496) can0 5D0#9958010200000000
(1713559687.918734) can0 5CF#7444540000000000
(1713559687.919228) can0 120#000000080700005A
(1713559687.919478) can0 121#000000000000005F
(1713559687.919720) can0 129#000000010000005B
(1713559687.920062) can0 12F#F8000320000000C3
(1713559687.920296) can0 128#1388030000EC7877
(1713559687.920540) can0 12D#00000000000000D4
(1713559687.920791) can0 12E#000000000000C071
(1713559687.921037) can0 290#00000002000000DC
(1713559687.924150) can0 400#2880000000000094
(1713559687.925153) can0 410#2880008B9F6E8BAA
(1713559687.926086) can0 541#0440E800007FFF67
(1713559687.927548) can0 174#F07F005C357903D2
(1713559687.927778) can0 178#FA7F03321A93030D
(1713559687.928016) can0 17C#068001003B690315
(1713559687.930097) can0 12F#F800032000000022
(1713559687.930342) can0 12D#0000000000000035
(1713559687.930590) can0 290#000000020000003D
(1713559687.931448) can0 140#0000030000000000
(1713559687.932791) can0 6B9#0020400000000000
(1713559687.933035) can0 5A2#1410140000000000
(1713559687.934151) can0 400#28800000000000A1
(1713559687.934800) can0 540#0000001040009F00
(1713559687.935042) can0 5B0#6342000000000028
(1713559687.935282) can0 410#2880008B9F6E8BC0
(1713559687.936111) can0 551#000000000004C000
(1713559687.936364) can0 552#00FFFFFFFFFFFF90
(1713559687.936612) can0 5D1#9958000200000000
(1713559687.936856) can0 5D2#7444540000000000
(1713559687.937102) can0 450#0055E0001B004A00
(1713559687.937550) can0 174#EC7F005C35790483
(1713559687.937782) can0 178#F27F04301C9304A5
(1713559687.938022) can0 17C#088001003569044E
(1713559687.939348) can0 120#000000080700006F
(1713559687.939584) can0 121#000000000000006A
(1713559687.939831) can0 129#000000010000006E
(1713559687.940123) can0 12F#F800032000000048
(1713559687.940357) can0 128#1388030000EC7896
(1713559687.940607) can0 12D#000000000000005F
(1713559687.940856) can0 12E#000000000000C090
(1713559687.941100) can0 290#0000000200000057
(1713559687.944252) can0 400#28800000000000CB
(1713559687.945153) can0 410#2880008B9F6E8B21
(1713559687.946075) can0 541#0440E800007FFF86
(1713559687.947560) can0 174#EC7F005C3779059D
(1713559687.947789) can0 178#F07F05301C930568
(1713559687.948026) can0 17C#06800100326905D8
(1713559687.950100) can0 12F#F810032000000076
(1713559687.950346) can0 12D#000000000000006A
(1713559687.950594) can0 290#0000000200000062
(1713559687.951966) can0 140#0000030000000000
(1713559687.954251) can0 400#288000000000002A
(1713559687.955107) can0 410#2880008B9F6E8B4B
(1713559687.956087) can0 551#000000000004C000
(1713559687.956334) can0 5D1#9958000200000000
(1713559687.957563) can0 174#EE7F005C3A790685
(1713559687.957792) can0 178#F27F0632159306EF
(1713559687.958029) can0 17C#048001002D6906DB
(1713559687.959105) can0 4EA#0000000000000000
(1713559687.959369) can0 5B2#0800000000000000
(1713559687.959598) can0 120#000000080700008E
(1713559687.959841) can0 121#000000000000008B
(1713559687.960077) can0 128#1388030000EC78A3
(1713559687.960319) can0 129#000000010000008F
(1713559687.960551) can0 12A#1428701C60580079
(1713559687.960798) can0 12D#000000000000008B
(1713559687.961042) can0 12E#000000000000C0A5
(1713559687.961281) can0 12F#F80003200000009C
(1713559687.961534) can0 290#0000000200000083
(1713559687.961780) can0 310#FFFFFFFF7D7D0000
(1713559687.962023) can0 550#48000C0001000049
(1713559687.962262) can0 5A0#00000062449280C8
(1713559687.964342) can0 400#2880000000000040
(1713559687.965158) can0 410#2880008B9F6E8B7E
(1713559687.966076) can0 541#0440E800007FFFB3
(1713559687.967561) can0 174#F27F005C3B790715
(1713559687.967792) can0 178#F67F07370A9307BC
(1713559687.968033) can0 17C#048001002C690749
(1713559687.970189) can0 12F#F8000320000000A9
(1713559687.970436) can0 12D#00000000000000BE
(1713559687.970683) can0 290#00000002000000B6
(1713559687.972494) can0 140#0000030000000000
(1713559687.974345) can0 400#2880000000000075
(1713559687.975154) can0 410#2880008B9F6E8B9F
(1713559687.976082) can0 551#000000000004C000
(1713559687.976331) can0 5D1#9958000200000000
(1713559687.977565) can0 174#F47F005C347908FB
(1713559687.977800) can0 178#F67F085F04930830
(1713559687.978033) can0 17C#04800100326908E3
(1713559687.979522) can0 120#00000008070000BB
(1713559687.979766) can0 121#00000000000000BE
(1713559687.980008) can0 129#00000001000000BA
(1713559687.980244) can0 128#1388030000EC78C9
(1713559687.980488) can0 12D#00000000000000D4
(1713559687.980732) can0 12E#000000000000C0CF
(1713559687.980972) can0 12F#F8000320000000C3
(1713559687.981220) can0 290#00000002000000DC
(1713559687.984437) can0 400#2880000000000094
(1713559687.985136) can0 410#2880008B9F6E8BAA
(1713559687.986095) can0 541#0440E800007FFFD9
(1713559687.986349) can0 552#00FFFFFFFFFFFFA5
(1713559687.986593) can0 450#0055E0001B004A00
(1713559687.987569) can0 174#F67F005C2A79094D
(1713559687.987800) can0 178#F27F09300693099B
(1713559687.988035) can0 17C#048001003B69097D
(1713559687.990201) can0 12F#F810032000000029
(1713559687.990447) can0 12D#0000000000000035
(1713559687.990695) can0 290#000000020000003D
(1713559687.993016) can0 140#0000030000000000
(1713559687.994441) can0 400#28800000000000A1
(1713559687.995064) can0 410#2880008B9F6E8BC0
(1713559687.996079) can0 551#000000000004C000
(1713559687.996325) can0 5D1#9958000200000000
(1713559687.997568) can0 174#F27F005C27790A86
(1713559687.997794) can0 178#F47F0A370A930A2F
(1713559687.998035) can0 17C#0080010042690AF8
(1713559687.999621) can0 120#00000008070000D1
(1713559687.999863) can0 121#00000000000000D4
(1713559688.000101) can0 128#1388030000EC7828
(1713559688.000345) can0 129#00000001000000D0
(1713559688.000594) can0 12D#000000000000005F
(1713559688.000837) can0 12E#000000000000C02E
(1713559688.001079) can0 12F#F800032000000048
(1713559688.001325) can0 290#0000000200000057
(1713559688.004543) can0 400#28800000000000CB
(1713559688.005083) can0 410#2880008B9F6E8B21
(1713559688.006080) can0 541#0440E800007FFF38
(1713559688.007574) can0 174#F07F005C2D790B2E
(1713559688.007801) can0 178#FC7F0B3111930B7B
(1713559688.008038) can0 17C#0080010045690B6F
(1713559688.009576) can0 550#48000C000100007C
(1713559688.010158) can0 12F#F80003200000007D
(1713559688.010392) can0 12A#1428701C60580098
(1713559688.010638) can0 12D#000000000000006A
(1713559688.010886) can0 290#0000000200000062
(1713559688.013542) can0 140#0000030000000000
(1713559688.014541) can0 400#288000000000002A
(1713559688.015009) can0 410#2880008B9F6E8B4B
(1713559688.016078) can0 551#000000000004C000
(1713559688.016325) can0 5D1#9958000200000000
(1713559688.017575) can0 174#EE7F005C37790CD2
(1713559688.017813) can0 178#0080000017930C0D
(1713559688.018053) can0 17C#0080010040690CB5
(1713559688.018290) can0 5B1#008A9A68000000C9
(1713559688.018532) can0 5D0#9958010200000000
(1713559688.018769) can0 5CF#7444540000000000
(1713559688.019719) can0 120#0000000807000030
(1713559688.019964) can0 121#0000000000000035
(1713559688.020198) can0 128#1388030000EC7842
(1713559688.020442) can0 129#0000000100000031
(1713559688.020688) can0 12D#000000000000008B
(1713559688.020935) can0 12E#000000000000C044
(1713559688.021173) can0 12F#F80003200000009C
(1713559688.021425) can0 290#0000000200000083
(1713559688.024643) can0 400#2880000000000040
(1713559688.025033) can0 410#2880008B9F6E8B7E
(1713559688.027582) can0 174#EC7F005C40790DB7
(1713559688.027811) can0 178#FE7F01371C930DC0
(1713559688.028049) can0 17C#FE7F01003D690DC4
(1713559688.028501) can0 541#0440E800007FFF52
(1713559688.030152) can0 12F#F8100320000000A2
(1713559688.030399) can0 12D#00000000000000BE
(1713559688.030645) can0 290#00000002000000B6
(1713559688.032982) can0 6B9#0020400000000000
(1713559688.033225) can0 5A2#1410140000000000
(1713559688.034066) can0 140#0000030000000000
(1713559688.034636) can0 400#2880000000000075
(1713559688.034958) can0 410#2880008B9F6E8B9F
(1713559688.035333) can0 540#0000001040009F00
(1713559688.035563) can0 5B0#6342000000000042
(1713559688.036055) can0 551#000000000004C000
(1713559688.036359) can0 552#00FFFFFFFFFFFFCF
(1713559688.036605) can0 5D1#9958000200000000
(1713559688.036848) can0 5D2#7444540000000000
(1713559688.037093) can0 450#0055E0001B004A00
(1713559688.037584) can0 174#EC7F005C46790E95
(1713559688.037815) can0 178#F87F022E18930EA8
(1713559688.038053) can0 17C#008001003A690EC8
(1713559688.039818) can0 120#000000080700005A
(1713559688.040064) can0 121#000000000000005F
(1713559688.040298) can0 128#1388030000EC7877
(1713559688.040541) can0 129#000000010000005B
(1713559688.040786) can0 12D#00000000000000D4
(1713559688.041036) can0 12E#000000000000C071
(1713559688.041274) can0 12F#F8000320000000C3
(1713559688.041522) can0 290#00000002000000DC
(1713559688.044654) can0 410#2880008B9F6E8BAA
(1713559688.044900) can0 400#2880000000000094
(1713559688.046075) can0 541#0440E800007FFF67
(1713559688.047587) can0 174#EC7F005C42790F8E
(1713559688.047815) can0 178#F67F033114930F99
(1713559688.048053) can0 17C#0280010034690F66
(1713559688.050155) can0 12F#F800032000000022
(1713559688.050401) can0 12D#0000000000000035
(1713559688.050649) can0 290#000000020000003D
(1713559688.054592) can0 140#0000030000000000
(1713559688.054838) can0 400#28800000000000A1
(1713559688.055078) can0 410#2880008B9F6E8BC0
(1713559688.055787) can0 6E2#0544000000000000
(1713559688.056051) can0 551#000000000004C000
(1713559688.056342) can0 5D1#9958000200000000
(1713559688.057589) can0 174#EC7F005C377900F4
(1713559688.057832) can0 178#F87F04301193003C
(1713559688.058068) can0 17C#0280010027690049
(1713559688.058901) can0 4EA#0000000000000000
(1713559688.059147) can0 5B2#0800000000000000
(1713559688.059396) can0 310#FFFFFFFF7D7D0000
(1713559688.059634) can0 550#48000C000100009D
(1713559688.059918) can0 120#000000080700006F
(1713559688.060170) can0 121#000000000000006A
(1713559688.060405) can0 128#1388030000EC7896
(1713559688.060653) can0 129#000000010000006E
(1713559688.060887) can0 12A#1428701C605800AD
(1713559688.061137) can0 12D#000000000000005F
(1713559688.061383) can0 12E#000000000000C090
(1713559688.061627) can0 12F#F800032000000048
(1713559688.061871) can0 290#0000000200000057
(1713559688.062109) can0 5A0#0000006244928029
(1713559688.064601) can0 410#2880008B9F6E8B21
(1713559688.064851) can0 400#28800000000000CB
(1713559688.066078) can0 541#0440E800007FFF86
(1713559688.067615) can0 174#EA7F005C347901B6
(1713559688.067853) can0 178#FE7F00000F930139
(1713559688.068096) can0 17C#FC7F01001F6901D1
(1713559688.070193) can0 12F#F810032000000076
(1713559688.070438) can0 12D#000000000000006A
(1713559688.070686) can0 290#0000000200000062
(1713559688.074527) can0 410#2880008B9F6E8B4B
(1713559688.074832) can0 400#288000000000002A
(1713559688.075120) can0 140#0000030000000000
(1713559688.076027) can0 551#000000000004C000
(1713559688.076277) can0 5D1#9958000200000000
(1713559688.077608) can0 174#EA7F005C3A790298
(1713559688.077844) can0 178#008001380793022A
(1713559688.078086) can0 17C#F87F0100216902BE
(1713559688.079972) can0 12F#F80003200000009C
(1713559688.080212) can0 120#000000080700008E
(1713559688.080455) can0 121#000000000000008B
(1713559688.080691) can0 128#1388030000EC78A3
(1713559688.080933) can0 129#000000010000008F
(1713559688.081180) can0 12D#000000000000008B
(1713559688.081423) can0 12E#000000000000C0A5
(1713559688.081674) can0 290#0010000200000088
(1713559688.084550) can0 410#2880008B9F6E8B7E
(1713559688.084922) can0 400#2880000000000040
(1713559688.086092) can0 541#0440E800007FFFB3
(1713559688.086350) can0 552#00FFFFFFFFFFFF2E
(1713559688.086595) can0 450#0055E0001B004A00
(1713559688.087607) can0 174#EA7F005C3F79030C
(1713559688.087842) can0 178#00800232FF9203FA
(1713559688.088082) can0 17C#F87F010026690329
(1713559688.090211) can0 12F#F8000320000000A9
(1713559688.090459) can0 12D#00000000000000BE
(1713559688.090705) can0 290#00100002000000BD
(1713559688.094474) can0 410#2880008B9F6E8B9F
(1713559688.094927) can0 400#2880000000000075
(1713559688.095636) can0 140#0000030000000000
(1713559688.096025) can0 551#000000000004C000
(1713559688.096276) can0 5D1#9958000200000000
(1713559688.097560) can0 174#EA7F005C3A7904D6
(1713559688.097844) can0 178#FE7F0332FB920464
(1713559688.098082) can0 17C#FE7F0100346904B2
(1713559688.099972) can0 12F#F8000320000000C3
(1713559688.100215) can0 120#00000008070000BB
(1713559688.100458) can0 121#00000000000000BE
(1713559688.100695) can0 128#1388030000EC78C9
(1713559688.100937) can0 129#00000001000000BA
(1713559688.101181) can0 12D#00000000000000D4
(1713559688.101425) can0 12E#000000000000C0CF
(1713559688.101673) can0 290#00000002000000DC
(1713559688.104493) can0 410#2880008B9F6E8BAA
(1713559688.105022) can0 400#2880000000000094
(1713559688.106072) can0 541#0440E800007FFFD9
(1713559688.107620) can0 174#EA7F005C347905C2
(1713559688.107848) can0 178#FE7F0435FC92050C
(1713559688.108081) can0 17C#0680010046690596
(1713559688.109625) can0 550#48000C00010000A8
(1713559688.110204) can0 12F#F810032000000029
(1713559688.110440) can0 12A#1428701C605800C7
(1713559688.110689) can0 12D#0000000000000035
(1713559688.110935) can0 290#000000020000003D
(1713559688.114421) can0 410#2880008B9F6E8BC0
(1713559688.115025) can0 400#28800000000000A1
(1713559688.116026) can0 551#000000000004C000
(1713559688.116275) can0 140#0000030000000000
(1713559688.116515) can0 5D1#9958000200000000
(1713559688.117582) can0 174#EA7F005C307906E3
(1713559688.117822) can0 178#FE7F00000993066F
(1713559688.118061) can0 17C#0A80010051690698
(1713559688.118299) can0 5B1#008A9A6800000028
(1713559688.118542) can0 5D0#9958010200000000
(1713559688.118780) can0 5CF#7444540000000000
(1713559688.119997) can0 12F#F800032000000048
(1713559688.120232) can0 128#1388030000EC7828
(1713559688.120478) can0 120#00000008070000D1
(1713559688.120723) can0 121#00000000000000D4
(1713559688.120963) can0 129#00000001000000D0
(1713559688.121213) can0 12D#000000000000005F
(1713559688.121457) can0 12E#000000000000C02E
(1713559688.121703) can0 290#0000000200000057
(1713559688.124439) can0 410#2880008B9F6E8B21
(1713559688.125115) can0 400#28800000000000CB
(1713559688.126080) can0 541#0440E800007FFF38
(1713559688.127620) can0 174#EE7F005C30790797
(1713559688.127854) can0 178#FC7F013214930777
(1713559688.128090) can0 17C#06800100486907A5
(1713559688.130208) can0 12F#F80003200000007D
(1713559688.130454) can0 12D#000000000000006A
(1713559688.130702) can0 290#0000000200000062
(1713559688.133173) can0 6B9#0020400000000000
(1713559688.133416) can0 5A2#1410140000000000
(1713559688.134365) can0 410#2880008B9F6E8B4B
(1713559688.135125) can0 400#288000000000002A
(1713559688.135808) can0 540#0000001040009F00
(1713559688.136053) can0 551#000000000004C000
(1713559688.136293) can0 5B0#6342000000000077
(1713559688.136537) can0 552#00FFFFFFFFFFFF44
(1713559688.136787) can0 140#0000030000000000
(1713559688.137028) can0 5D1#9958000200000000
(1713559688.137272) can0 5D2#7444540000000000
(1713559688.137515) can0 450#0055E0001B004A00
(1713559688.137748) can0 174#F27F005C3279082D
(1713559688.137980) can0 178#FC7F0230159308DA
(1713559688.138216) can0 17C#02800100376908B9
(1713559688.140059) can0 12F#F80003200000009C
(1713559688.140290) can0 128#1388030000EC7842
(1713559688.140538) can0 120#0000000807000030
(1713559688.140788) can0 121#0000000000000035
(1713559688.141029) can0 129#0000000100000031
(1713559688.141275) can0 12D#000000000000008B
(1713559688.141519) can0 12E#000000000000C044
(1713559688.141769) can0 290#0010000200000088
(1713559688.144390) can0 410#2880008B9F6E8B7E
(1713559688.145214) can0 400#2880000000000040
(1713559688.146068) can0 541#0440E800007FFF52
(1713559688.147634) can0 174#F07F005C3A790986
(1713559688.147871) can0 178#008003321493091E
(1713559688.148102) can0 17C#0480010031690972
(1713559688.150236) can0 12F#F8100320000000A2
(1713559688.150484) can0 12D#00000000000000BE
(1713559688.150730) can0 290#00100002000000BD
(1713559688.154314) can0 410#2880008B9F6E8B9F
(1713559688.155218) can0 400#2880000000000075
(1713559688.156028) can0 551#000000000004C000
(1713559688.156282) can0 5D1#9958000200000000
(1713559688.157205) can0 140#0000030000000000
(1713559688.157593) can0 174#F07F005C45790A6F
(1713559688.157825) can0 178#0680043314930A7C
(1713559688.158063) can0 17C#028001002D690A94
(1713559688.158650) can0 4EA#0000000000000000
(1713559688.158895) can0 5B2#0800000000000000
(1713559688.159141) can0 310#FFFFFFFF7D7D0000
(1713559688.159624) can0 550#48000C00010000C2
(1713559688.159966) can0 12F#F8000320000000C3
(1713559688.160200) can0 128#1388030000EC7877
(1713559688.160434) can0 12A#1428701C60580026
(1713559688.160679) can0 120#000000080700005A
(1713559688.160927) can0 121#000000000000005F
(1713559688.161170) can0 129#000000010000005B
(1713559688.161417) can0 12D#00000000000000D4
(1713559688.161662) can0 12E#000000000000C071
(1713559688.161911) can0 290#00000002000000DC
(1713559688.162149) can0 5A0#0000006244928043
(1713559688.164358) can0 410#2880008B9F6E8BAA
(1713559688.165307) can0 400#2880000000000094
(1713559688.166069) can0 541#0440E800007FFF67
(1713559688.167638) can0 174#F47F005C4A790B9D
(1713559688.167870) can0 178#0480053111930B1F
(1713559688.168115) can0 17C#FE7F01002A690B18
(1713559688.170238) can0 12F#F800032000000022
(1713559688.170482) can0 12D#0000000000000035
(1713559688.170730) can0 290#000000020000003D
(1713559688.174287) can0 410#2880008B9F6E8BC0
(1713559688.175308) can0 400#28800000000000A1
(1713559688.176021) can0 551#000000000004C000
(1713559688.176271) can0 5D1#9958000200000000
(1713559688.177584) can0 174#F87F005C46790C7F
(1713559688.177834) can0 140#0000030000000000
(1713559688.178067) can0 178#0280063007930CA1
(1713559688.178303) can0 17C#FE7F01002A690C4B
(1713559688.179976) can0 12F#F800032000000048
(1713559688.180207) can0 128#1388030000EC7896
(1713559688.180457) can0 12D#000000000000005F
(1713559688.180705) can0 120#000000080700006F
(1713559688.180959) can0 121#000000000000006A
(1713559688.181206) can0 129#000000010000006E
(1713559688.181452) can0 12E#000000000000C090
(1713559688.181698) can0 290#0000000200000057
(1713559688.184307) can0 410#2880008B9F6E8B21
(1713559688.185404) can0 400#28800000000000CB
(1713559688.186087) can0 541#0440E800007FFF86
(1713559688.186341) can0 552#00FFFFFFFFFFFF71
(1713559688.186583) can0 450#0055E0001B004A00
(1713559688.187636) can0 174#FA7F005C3D790D10
(1713559688.187866) can0 178#0680073103930D24
(1713559688.188103) can0 17C#FE7F010029690DDA
(1713559688.190266) can0 12F#F810032000000076
(1713559688.190511) can0 12D#000000000000006A
(1713559688.190759) can0 290#0000000200000062
(1713559688.194231) can0 410#2880008B9F6E8B4B
(1713559688.195422) can0 400#288000000000002A
(1713559688.196021) can0 551#000000000004C000
(1713559688.196269) can0 5D1#9958000200000000
(1713559688.197593) can0 174#F67F005C34790E0F
(1713559688.197827) can0 178#0880083804930EF5
(1713559688.198067) can0 17C#008001002A690ED0
(1713559688.198318) can0 140#0000030000000000
(1713559688.199973) can0 12F#F80003200000009C
(1713559688.200202) can0 128#1388030000EC78A3
(1713559688.200447) can0 12D#000000000000008B
(1713559688.200694) can0 120#000000080700008E
(1713559688.200938) can0 121#000000000000008B
(1713559688.201183) can0 129#000000010000008F
(1713559688.201424) can0 12E#000000000000C0A5
(1713559688.201675) can0 290#0010000200000088
(1713559688.204258) can0 410#2880008B9F6E8B7E
(1713559688.205513) can0 400#2880000000000040
(1713559688.206067) can0 541#0440E800007FFFB3
(1713559688.207643) can0 174#F27F005C2D790FE0
(1713559688.207880) can0 178#048000000C930FDB
(1713559688.208119) can0 17C#008001002D690F47
(1713559688.209644) can0 550#48000C0001000023
(1713559688.210204) can0 12F#F8000320000000A9
(1713559688.210434) can0 12A#1428701C6058004C
(1713559688.210679) can0 12D#00000000000000BE
(1713559688.210924) can0 290#00100002000000BD
(1713559688.214181) can0 410#2880008B9F6E8B9F
(1713559688.215518) can0 400#2880000000000075
(1713559688.216020) can0 551#000000000004C000
(1713559688.216270) can0 5D1#9958000200000000
(1713559688.217594) can0 174#EE7F005C27790056
(1713559688.217831) can0 178#FA7F00001593005A
(1713559688.218069) can0 17C#FC7F01002A69006D
(1713559688.218305) can0 5B1#008A9A6800000042
(1713559688.218547) can0 5D0#9958010200000000
(1713559688.218797) can0 140#0000030000000000
(1713559688.219035) can0 5CF#7444540000000000
(1713559688.219945) can0 12F#F8000320000000C3
(1713559688.220180) can0 128#1388030000EC78C9
(1713559688.220425) can0 12D#00000000000000D4
(1713559688.220668) can0 12E#000000000000C0CF
(1713559688.220912) can0 120#00000008070000BB
(1713559688.221158) can0 121#00000000000000BE
(1713559688.221445) can0 129#00000001000000BA
(1713559688.221697) can0 290#00000002000000DC
(1713559688.224201) can0 410#2880008B9F6E8BAA
(1713559688.225611) can0 400#2880000000000094
(1713559688.226074) can0 541#0440E800007FFFD9
(1713559688.227647) can0 174#EE7F005C2179014E
(1713559688.227877) can0 178#F07F015218930156
(1713559688.228118) can0 17C#F87F010022690115
(1713559688.230208) can0 12F#F810032000000029
(1713559688.230448) can0 12D#0000000000000035
(1713559688.230694) can0 290#000000020000003D
(1713559688.233414) can0 6B9#0020400000000000
(1713559688.233659) can0 5A2#1410140000000000
(1713559688.234160) can0 410#2880008B9F6E8BC0
(1713559688.235608) can0 400#28800000000000A1
(1713559688.236042) can0 551#000000000004C000
(1713559688.236294) can0 540#0000001040009F00
(1713559688.236541) can0 552#00FFFFFFFFFFFF90
(1713559688.236783) can0 5B0#6342000000000096
(1713559688.237023) can0 5D1#9958000200000000
(1713559688.237267) can0 5D2#7444540000000000
(1713559688.237511) can0 450#0055E0001B004A00
(1713559688.237745) can0 174#EE7F005C247902E0
(1713559688.237979) can0 178#F07F026F129302E0
(1713559688.238223) can0 17C#F87F01001F69029F
(1713559688.239294) can0 140#0000030000000000
(1713559688.240008) can0 12F#F800032000000048
(1713559688.240246) can0 128#1388030000EC7828
(1713559688.240497) can0 12D#000000000000005F
(1713559688.240739) can0 12E#000000000000C02E
(1713559688.240983) can0 120#00000008070000D1
(1713559688.241229) can0 121#00000000000000D4
(1713559688.241470) can0 129#00000001000000D0
(1713559688.241765) can0 290#001000020000005C
(1713559688.244139) can0 410#2880008B9F6E8B21
(1713559688.245709) can0 400#28800000000000CB
(1713559688.246083) can0 541#0440E800007FFF38
(1713559688.247656) can0 174#EE7F005C327903E0
(1713559688.247890) can0 178#F87F03620A93031E
(1713559688.248130) can0 17C#F87F0100296903AF
(1713559688.250207) can0 12F#F80003200000007D
(1713559688.250460) can0 12D#000000000000006A
(1713559688.250698) can0 290#0010000200000069
(1713559688.254138) can0 410#2880008B9F6E8B4B
(1713559688.255709) can0 400#288000000000002A
(1713559688.256043) can0 551#000000000004C000
(1713559688.256292) can0 5D1#9958000200000000
(1713559688.257610) can0 174#F07F005C42790443
(1713559688.257844) can0 178#008004650D93044A
(1713559688.258084) can0 17C#FE7F01003769043E
(1713559688.258445) can0 4EA#0000000000000000
(1713559688.258691) can0 5B2#0800000000000000
(1713559688.258937) can0 310#FFFFFFFF7D7D0000
(1713559688.259576) can0 550#48000C0001000049
(1713559688.259827) can0 140#0000030000000000
(1713559688.260061) can0 128#1388030000EC7842
(1713559688.260293) can0 12A#1428701C60580079
(1713559688.260540) can0 12D#000000000000008B
(1713559688.260784) can0 12E#000000000000C044
(1713559688.261029) can0 120#0000000807000030
(1713559688.261278) can0 121#0000000000000035
(1713559688.261522) can0 129#0000000100000031
(1713559688.261762) can0 12F#F80003200000009C
(1713559688.262062) can0 290#0000000200000083
(1713559688.262300) can0 5A0#0000006244928076
(1713559688.264136) can0 410#2880008B9F6E8B7E
(1713559688.265811) can0 400#2880000000000040
(1713559688.266084) can0 541#0440E800007FFF52
(1713559688.267661) can0 174#F27F005C4D790562
(1713559688.267890) can0 178#068005721593052B
(1713559688.268130) can0 17C#02800100406905FA
(1713559688.270231) can0 12F#F8100320000000A2
(1713559688.270478) can0 12D#00000000000000BE
(1713559688.270732) can0 290#00000002000000B6
(1713559688.274145) can0 410#2880008B9F6E8B9F
(1713559688.275802) can0 400#2880000000000075
(1713559688.276047) can0 551#000000000004C000
(1713559688.276296) can0 5D1#9958000200000000
(1713559688.277618) can0 174#F27F005C507906D8
(1713559688.277852) can0 178#068006741893065E
(1713559688.278092) can0 17C#02800100406906DD
(1713559688.279921) can0 12F#F8000320000000C3
(1713559688.280154) can0 128#1388030000EC7877
(1713559688.280398) can0 12D#00000000000000D4
(1713559688.280646) can0 12E#000000000000C071
(1713559688.280897) can0 140#0000030000000000
(1713559688.281140) can0 120#000000080700005A
(1713559688.281394) can0 121#000000000000005F
(1713559688.281634) can0 129#000000010000005B
(1713559688.281881) can0 290#00000002000000DC
(1713559688.284133) can0 410#2880008B9F6E8BAA
(1713559688.285901) can0 400#2880000000000094
(1713559688.286153) can0 541#0440E800007FFF67
(1713559688.286400) can0 552#00FFFFFFFFFFFFA5
(1713559688.286647) can0 450#0055E0001B004A00
(1713559688.287672) can0 174#F27F005C4A7907D2
(1713559688.287905) can0 178#02800720149307B5
(1713559688.288148) can0 17C#048001003F6907DD
(1713559688.290254) can0 12F#F800032000000022
(1713559688.290501) can0 12D#0000000000000035
(1713559688.290757) can0 290#000000020000003D
(1713559688.294139) can0 410#2880008B9F6E8BC0
(1713559688.295898) can0 400#28800000000000A1
(1713559688.296143) can0 551#000000000004C000
(1713559688.296391) can0 5D1#9958000200000000
(1713559688.297619) can0 174#F27F005C3D7908AB
(1713559688.297853) can0 178#008008420D9308AA
(1713559688.298091) can0 17C#0280010042690878
(1713559688.299929) can0 12F#F800032000000048
(1713559688.300161) can0 128#1388030000EC7896
(1713559688.300411) can0 12D#000000000000005F
(1713559688.300657) can0 12E#000000000000C090
(1713559688.300908) can0 140#0000030000000000
(1713559688.301155) can0 120#000000080700006F
(1713559688.301408) can0 121#000000000000006A
(1713559688.301656) can0 129#000000010000006E
(1713559688.301902) can0 290#0000000200000057
(1713559688.304132) can0 410#2880008B9F6E8B21
(1713559688.306001) can0 400#28800000000000CB
(1713559688.306242) can0 541#0440E800007FFF86
(1713559688.307676) can0 174#F07F005C37790903
(1713559688.307910) can0 178#0080096F0D9309D8
(1713559688.308147) can0 17C#FC7F01004369094B
(1713559688.309625) can0 550#48000C000100007C
(1713559688.310205) can0 12F#F810032000000076
(1713559688.310435) can0 12A#1428701C60580098
(1713559688.310685) can0 12D#000000000000006A
(1713559688.310934) can0 290#0000000200000062
(1713559688.314137) can0 410#2880008B9F6E8B4B
(1713559688.315997) can0 400#288000000000002A
(1713559688.316410) can0 551#000000000004C000
(1713559688.316662) can0 5D1#9958000200000000
(1713559688.317624) can0 174#EA7F005C38790A73
(1713559688.317852) can0 178#FC7F0A730D930AAD
(1713559688.318089) can0 17C#FA7F010043690ABF
(1713559688.318324) can0 5B1#008A9A6800000077
(1713559688.318567) can0 5D0#9958010200000000
(1713559688.318805) can0 5CF#7444540000000000
(1713559688.319948) can0 12F#F80003200000009C
(1713559688.320182) can0 128#1388030000EC78A3
(1713559688.320429) can0 12D#000000000000008B
(1713559688.320674) can0 12E#000000000000C0A5
(1713559688.320926) can0 290#0000000200000083
(1713559688.321177) can0 120#000000080700008E
(1713559688.321421) can0 121#000000000000008B
(1713559688.321663) can0 129#000000010000008F
(1713559688.321913) can0 140#0000030000000000
(1713559688.324135) can0 410#2880008B9F6E8B7E
(1713559688.326072) can0 541#0440E800007FFFB3
(1713559688.326319) can0 400#2880000000000040
(1713559688.327683) can0 174#E87F005C3A790BD7
(1713559688.327911) can0 178#F87F0B6309930B90
(1713559688.328146) can0 17C#0280010042690B5F
(1713559688.330237) can0 12F#F8000320000000A9
(1713559688.330485) can0 12D#00000000000000BE
(1713559688.330731) can0 290#00000002000000B6
(1713559688.333619) can0 6B9#0020400000000000
(1713559688.333853) can0 5A2#1410140000000000
(1713559688.334189) can0 410#2880008B9F6E8B9F
(1713559688.336088) can0 551#000000000004C000
(1713559688.336332) can0 400#2880000000000075
(1713559688.336578) can0 552#00FFFFFFFFFFFFCF
(1713559688.336830) can0 540#0000001040009F00
(1713559688.337073) can0 5B0#63420000000000A3
(1713559688.337312) can0 5D1#9958000200000000
(1713559688.337508) can0 5D2#7444540000000000
(1713559688.337739) can0 174#E87F005C3B790C0B
(1713559688.337966) can0 178#F67F0C6804930C6A
(1713559688.338204) can0 17C#0680010043690CEA
(1713559688.338443) can0 450#0055E0001B004A00
(1713559688.340016) can0 12F#F8000320000000C3
(1713559688.340251) can0 128#1388030000EC78C9
(1713559688.340496) can0 12D#00000000000000D4
(1713559688.340739) can0 12E#000000000000C0CF
(1713559688.340988) can0 290#00000002000000DC
(1713559688.341238) can0 120#00000008070000BB
(1713559688.341484) can0 121#00000000000000BE
(1713559688.341726) can0 129#00000001000000BA
(1713559688.341976) can0 140#0000030000000000
(1713559688.344084) can0 410#2880008B9F6E8BAA
(1713559688.346063) can0 541#0440E800007FFFD9
(1713559688.346307) can0 400#2880000000000094
(1713559688.347689) can0 174#EC7F005C3B790D7F
(1713559688.347915) can0 178#F67F0D200C930D19
(1713559688.348151) can0 17C#0480010042690DC2
(1713559688.350200) can0 12F#F810032000000029
(1713559688.350446) can0 12D#0000000000000035
(1713559688.350694) can0 290#000000020000003D
(1713559688.354135) can0 410#2880008B9F6E8BC0
(1713559688.356070) can0 551#000000000004C000
(1713559688.356312) can0 400#28800000000000A1
(1713559688.356552) can0 5D1#9958000200000000
(1713559688.357689) can0 174#F27F005C35790EE9
(1713559688.357914) can0 178#F67F0E471D930E3D
(1713559688.358106) can0 17C#FE7F010043690EA2
(1713559688.358351) can0 4EA#0000000000000000
(1713559688.358595) can0 5B2#0800000000000000
(1713559688.358841) can0 310#FFFFFFFF7D7D0000
(1713559688.359574) can0 550#48000C000100009D
(1713559688.359922) can0 12F#F800032000000048
(1713559688.360159) can0 128#1388030000EC7828
(1713559688.360394) can0 12A#1428701C605800AD
(1713559688.360644) can0 12D#000000000000005F
(1713559688.360888) can0 12E#000000000000C02E
(1713559688.361135) can0 290#001000020000005C
(1713559688.361370) can0 5A0#0000006244928097
(1713559688.361614) can0 120#00000008070000D1
(1713559688.361859) can0 121#00000000000000D4
(1713559688.362101) can0 129#00000001000000D0
(1713559688.362443) can0 140#0000030000000000
(1713559688.364052) can0 410#2880008B9F6E8B21
(1713559688.366014) can0 541#0440E800007FFF38
(1713559688.366266) can0 400#28800000000000CB
(1713559688.367692) can0 174#F27F005C2C790F6F
(1713559688.367918) can0 178#F67F0F6D20930F16
(1713559688.368152) can0 17C#F67F01004E690FE8
(1713559688.370261) can0 12F#F80003200000007D
(1713559688.370506) can0 12D#000000000000006A
(1713559688.370750) can0 290#0010000200000069
(1713559688.374088) can0 410#2880008B9F6E8B4B
(1713559688.376069) can0 551#000000000004C000
(1713559688.376314) can0 5D1#9958000200000000
(1713559688.376561) can0 400#288000000000002A
(1713559688.377696) can0 174#F27F005C2979005D
(1713559688.377929) can0 178#FC7F006211930076
(1713559688.378163) can0 17C#F47F01004E6900E9
(1713559688.379967) can0 12F#F80003200000009C
(1713559688.380152) can0 128#1388030000EC7842
(1713559688.380397) can0 12D#000000000000008B
(1713559688.380641) can0 12E#000000000000C044
(1713559688.380891) can0 290#0010000200000088
(1713559688.381435) can0 120#0000000807000030
(1713559688.381683) can0 121#0000000000000035
(1713559688.381928) can0 129#0000000100000031
(1713559688.382968) can0 140#0000030000000000
(1713559688.384003) can0 410#2880008B9F6E8B7E
(1713559688.386036) can0 541#0440E800007FFF52
(1713559688.386287) can0 552#00FFFFFFFFFFFF2E
(1713559688.386536) can0 400#2880000000000040
(1713559688.386773) can0 450#0055E0001B004A00
(1713559688.387652) can0 174#F27F005C2C7901C9
(1713559688.387939) can0 178#00800148FF92013E
(1713559688.388181) can0 17C#FA7F01003769013E
(1713559688.390243) can0 12F#F8100320000000A2
(1713559688.390489) can0 12D#00000000000000BE
(1713559688.390735) can0 290#00100002000000BD
(1713559688.394026) can0 410#2880008B9F6E8B9F
(1713559688.396064) can0 551#000000000004C000
(1713559688.396311) can0 5D1#9958000200000000
(1713559688.396564) can0 400#2880000000000075
(1713559688.397712) can0 174#F27F005C2A7902EB
(1713559688.397949) can0 178#FC7F0000F9920265
(1713559688.398195) can0 17C#068001001F69023E
(1713559688.399966) can0 12F#F8000320000000C3
(1713559688.400198) can0 128#1388030000EC7877
(1713559688.400410) can0 12D#00000000000000D4
(1713559688.400642) can0 12E#000000000000C071
(1713559688.400885) can0 290#00200002000000CA
(1713559688.401529) can0 120#000000080700005A
(1713559688.401777) can0 121#000000000000005F
(1713559688.402022) can0 129#000000010000005B
(1713559688.403495) can0 140#0000030000000000
(1713559688.403944) can0 410#2880008B9F6E8BAA
(1713559688.406014) can0 541#0440E800007FFF67
(1713559688.406430) can0 400#2880000000000094
(1713559688.407674) can0 174#F07F005C277903C9
(1713559688.407913) can0 178#FC7F0000FF92037D
(1713559688.408153) can0 17C#108001001C6903C5
(1713559688.409628) can0 550#48000C00010000A8
(1713559688.410246) can0 12F#F800032000000022
(1713559688.410483) can0 12A#1428701C605800C7
(1713559688.410729) can0 12D#0000000000000035
(1713559688.410974) can0 290#002000020000002B
(1713559688.413973) can0 410#2880008B9F6E8BC0
(1713559688.416066) can0 551#000000000004C000
(1713559688.416315) can0 5D1#9958000200000000
(1713559688.416566) can0 400#28800000000000A1
(1713559688.417729) can0 5D0#9958010200000000
(1713559688.417963) can0 174#EC7F005C2D790497
(1713559688.418199) can0 178#FE7F000D0993041A
(1713559688.418439) can0 17C#0E8001001E69042D
(1713559688.418675) can0 5B1#008A9A6800000096
(1713559688.418913) can0 5CF#7444540000000000
(1713559688.420005) can0 12F#F800032000000048
(1713559688.420238) can0 128#1388030000EC7896
(1713559688.420486) can0 12D#000000000000005F
(1713559688.420732) can0 12E#000000000000C090
(1713559688.420979) can0 290#0020000200000041
(1713559688.421680) can0 120#000000080700006F
(1713559688.421933) can0 121#000000000000006A
(1713559688.422180) can0 129#000000010000006E
(1713559688.423588) can0 410#2880008B9F6E8B21
(1713559688.424018) can0 140#0000030000000000
(1713559688.426014) can0 541#0440E800007FFF86
(1713559688.426529) can0 400#28800000000000CB
(1713559688.427675) can0 174#E87F005C3B7905FE
(1713559688.427915) can0 178#028000000C9305DA
(1713559688.428154) can0 17C#048001001B6905D1
(1713559688.428383) can0 6AB#A5CD1C2E77A3E100
(1713559688.430202) can0 12F#F80003200000007D
(1713559688.430450) can0 12D#000000000000006A
(1713559688.430695) can0 290#0020000200000074
(1713559688.433614) can0 410#2880008B9F6E8B4B
(1713559688.433867) can0 6B9#0020400000000000
(1713559688.434110) can0 5A2#1410140000000000
(1713559688.436084) can0 551#000000000004C000
(1713559688.436337) can0 552#00FFFFFFFFFFFF44
(1713559688.436583) can0 5D1#9958000200000000
(1713559688.436831) can0 400#288000000000002A
(1713559688.437069) can0 5D2#7444540000000000
(1713559688.437312) can0 450#0055E0001B004A00
(1713559688.437559) can0 540#0000001040009F00
(1713559688.437789) can0 174#E87F005C3D7906DC
(1713559688.438031) can0 178#04800136079306C2
(1713559688.438263) can0 17C#FE7F010017690634
(1713559688.438502) can0 5B0#63420000000000C9
(1713559688.440057) can0 12F#F80003200000009C
(1713559688.440288) can0 128#1388030000EC78A3
(1713559688.440534) can0 12D#000000000000008B
(1713559688.440778) can0 12E#000000000000C0A5
(1713559688.441028) can0 290#0010000200000088
(1713559688.441774) can0 120#000000080700008E
(1713559688.441970) can0 121#000000000000008B
(1713559688.442212) can0 129#000000010000008F
(1713559688.443539) can0 410#2880008B9F6E8B7E
(1713559688.444544) can0 140#0000030000000000
(1713559688.446006) can0 541#0440E800007FFFB3
(1713559688.446626) can0 400#2880000000000040
(1713559688.447679) can0 174#E87F005C2D7907D9
(1713559688.447913) can0 178#04800230FC92074C
(1713559688.448158) can0 17C#008001001B690782
(1713559688.450201) can0 12F#F8000320000000A9
(1713559688.450450) can0 12D#00000000000000BE
(1713559688.450694) can0 290#00100002000000BD
(1713559688.453564) can0 410#2880008B9F6E8B9F
(1713559688.456066) can0 551#000000000004C000
(1713559688.456315) can0 5D1#9958000200000000
(1713559688.456715) can0 400#2880000000000075
(1713559688.457728) can0 174#EA7F005C197908F6
(1713559688.457965) can0 178#00800331F6920866
(1713559688.458203) can0 17C#0280010022690828
(1713559688.458460) can0 4EA#0000000000000000
(1713559688.458699) can0 5B2#0800000000000000
(1713559688.458944) can0 310#FFFFFFFF7D7D0000
(1713559688.459626) can0 550#48000C00010000C2
(1713559688.459970) can0 12F#F8100320000000C8
(1713559688.460206) can0 128#1388030000EC78C9
(1713559688.460440) can0 12A#1428701C60580026
(1713559688.460687) can0 12D#00000000000000D4
(1713559688.460929) can0 12E#000000000000C0CF
(1713559688.461174) can0 290#00100002000000D7
(1713559688.461413) can0 5A0#00000062449280A2
(1713559688.461883) can0 120#00000008070000BB
(1713559688.462129) can0 121#00000000000000BE
(1713559688.462323) can0 129#00000001000000BA
(1713559688.463479) can0 410#2880008B9F6E8BAA
(1713559688.465069) can0 140#0000030000000000
(1713559688.466009) can0 541#0440E800007FFFD9
(1713559688.466721) can0 400#2880000000000094
(1713559688.467682) can0 174#EA7F005C1479096E
(1713559688.467915) can0 178#FC7F0438FE920966
(1713559688.468153) can0 17C#0080010026690989
(1713559688.470188) can0 12F#F800032000000022
(1713559688.470434) can0 12D#0000000000000035
(1713559688.470679) can0 290#0010000200000036
(1713559688.473506) can0 410#2880008B9F6E8BC0
(1713559688.476061) can0 551#000000000004C000
(1713559688.476308) can0 5D1#9958000200000000
(1713559688.476811) can0 400#28800000000000A1
(1713559688.477747) can0 174#E87F005C1E790AFC
(1713559688.477980) can0 178#F87F053109930A0D
(1713559688.478219) can0 17C#F67F010026690ADD
(1713559688.479971) can0 12F#F800032000000048
(1713559688.480207) can0 128#1388030000EC7828
(1713559688.480464) can0 12D#000000000000005F
(1713559688.480703) can0 12E#000000000000C02E
(1713559688.480947) can0 290#001000020000005C
(1713559688.481983) can0 120#00000008070000D1
(1713559688.482228) can0 121#00000000000000D4
(1713559688.482470) can0 129#00000001000000D0
(1713559688.483481) can0 410#2880008B9F6E8B21
(1713559688.485594) can0 140#0000030000000000
(1713559688.486025) can0 541#0440E800007FFF38
(1713559688.486279) can0 552#00FFFFFFFFFFFF71
(1713559688.486523) can0 450#0055E0001B004A00
(1713559688.486817) can0 400#28800000000000CB
(1713559688.487684) can0 174#E87F005C2F790B46
(1713559688.487916) can0 178#F47F06320C930B26
(1713559688.488150) can0 17C#EE7F010026690BAB
(1713559688.490202) can0 12F#F80003200000007D
(1713559688.490449) can0 12D#000000000000006A
(1713559688.490693) can0 290#0010000200000069
(1713559688.493453) can0 410#2880008B9F6E8B4B
(1713559688.496064) can0 551#000000000004C000
(1713559688.496308) can0 5D1#9958000200000000
(1713559688.496910) can0 400#288000000000002A
(1713559688.497737) can0 174#E87F005C45790C4A
(1713559688.497964) can0 178#F67F073909930C0A
(1713559688.498198) can0 17C#E87F010021690CA1
(1713559688.499979) can0 12F#F810032000000097
(1713559688.500208) can0 128#1388030000EC7842
(1713559688.500452) can0 12D#000000000000008B
(1713559688.500698) can0 12E#000000000000C044
(1713559688.500946) can0 290#0010000200000088
(1713559688.502080) can0 120#0000000807000030
(1713559688.502328) can0 121#0000000000000035
(1713559688.502573) can0 129#0000000100000031
(1713559688.503428) can0 410#2880008B9F6E8B7E
(1713559688.506117) can0 140#0000030000000000
(1713559688.506917) can0 400#2880000000000040
(1713559688.507689) can0 174#E67F005C55790D4E
(1713559688.507921) can0 178#FE7F082D06930D54
(1713559688.508160) can0 17C#EE7F01001F690D4E
(1713559688.508485) can0 541#0440E800007FFF52
(1713559688.509574) can0 550#48000C0001000023
(1713559688.510148) can0 12F#F8000320000000A9
(1713559688.510380) can0 12A#1428701C6058004C
(1713559688.510629) can0 12D#00000000000000BE
(1713559688.510874) can0 290#00100002000000BD
(1713559688.513400) can0 410#2880008B9F6E8B9F
(1713559688.516059) can0 551#000000000004C000
(1713559688.516304) can0 5D1#9958000200000000
(1713559688.517010) can0 400#2880000000000075
(1713559688.517747) can0 5D0#9958010200000000
(1713559688.517977) can0 174#EA7F005C56790E5E
(1713559688.518211) can0 178#048009300A930EB1
(1713559688.518449) can0 17C#F87F01002A690EA2
(1713559688.518685) can0 5B1#008A9A68000000A3
(1713559688.518925) can0 5CF#7444540000000000
(1713559688.519995) can0 12F#F8000320000000C3
(1713559688.520228) can0 128#1388030000EC7877
(1713559688.520471) can0 12D#00000000000000D4
(1713559688.520719) can0 12E#000000000000C071
(1713559688.520975) can0 290#00000002000000DC
(1713559688.522175) can0 120#000000080700005A
(1713559688.522422) can0 121#000000000000005F
(1713559688.522665) can0 129#000000010000005B
(1713559688.523400) can0 410#2880008B9F6E8BAA
(1713559688.526013) can0 541#0440E800007FFF67
(1713559688.526642) can0 140#0000030000000000
(1713559688.527014) can0 400#2880000000000094
(1713559688.527697) can0 174#F07F005C4D790F0A
(1713559688.527926) can0 178#04800A3214930F24
(1713559688.528164) can0 17C#FE7F010035690FF2
(1713559688.530155) can0 12F#F800032000000022
(1713559688.530401) can0 12D#0000000000000035
(1713559688.530649) can0 290#000000020000003D
(1713559688.533308) can0 410#2880008B9F6E8BC0
(1713559688.534082) can0 6B9#0020400000000000
(1713559688.534325) can0 5A2#1410140000000000
(1713559688.536080) can0 551#000000000004C000
(1713559688.536335) can0 552#00FFFFFFFFFFFF90
(1713559688.536582) can0 55A#0017160000000000
(1713559688.536827) can0 5D1#9958000200000000
(1713559688.537071) can0 5D2#7444540000000000
(1713559688.537318) can0 400#28800000000000A1
(1713559688.537556) can0 450#0055E0001B004A00
(1713559688.537788) can0 174#F47F005C3B790095
(1713559688.538022) can0 178#00800B36129300D7
(1713559688.538262) can0 17C#008001003869006D
(1713559688.538511) can0 540#0000001040009F00
(1713559688.538751) can0 5B0#6342000000000028
(1713559688.540080) can0 12F#F810032000000043
(1713559688.540311) can0 128#1388030000EC7896
(1713559688.540561) can0 12D#000000000000005F
(1713559688.540807) can0 12E#000000000000C090
(1713559688.541052) can0 290#0000000200000057
(1713559688.542277) can0 120#000000080700006F
(1713559688.542529) can0 121#000000000000006A
(1713559688.542777) can0 129#000000010000006E
(1713559688.543358) can0 410#2880008B9F6E8B21
(1713559688.546057) can0 541#0440E800007FFF86
(1713559688.547150) can0 400#28800000000000CB
(1713559688.547353) can0 140#0000030000000000
(1713559688.547706) can0 174#F27F005C2D790146
(1713559688.547940) can0 178#F87F0C300793014B
(1713559688.548179) can0 17C#028001002C6901D4
(1713559688.550150) can0 12F#F80003200000007D
(1713559688.550396) can0 12D#000000000000006A
(1713559688.550644) can0 290#0000000200000062
(1713559688.553267) can0 410#2880008B9F6E8B4B
(1713559688.556012) can0 551#000000000004C000
(1713559688.556261) can0 5D1#9958000200000000
(1713559688.557155) can0 400#288000000000002A
(1713559688.557755) can0 174#EE7F005C29790265
(1713559688.557993) can0 178#F27F0000019302AC
(1713559688.558231) can0 17C#028001001E6902D8
(1713559688.558481) can0 4EA#0000000000000000
(1713559688.558727) can0 5B2#0800000000000000
(1713559688.558974) can0 310#FFFFFFFF7D7D0000
(1713559688.559627) can0 550#48000C0001000049
(1713559688.559963) can0 12F#F80003200000009C
(1713559688.560202) can0 128#1388030000EC78A3
(1713559688.560431) can0 12A#1428701C60580079
(1713559688.560677) can0 12D#000000000000008B
(1713559688.560922) can0 12E#000000000000C0A5
(1713559688.561173) can0 290#0000000200000083
(1713559688.561409) can0 5A0#00000062449280C8
(1713559688.562370) can0 120#000000080700008E
(1713559688.562614) can0 121#000000000000008B
(1713559688.562856) can0 129#000000010000008F
(1713559688.563290) can0 410#2880008B9F6E8B7E
(1713559688.566054) can0 541#0440E800007FFFB3
(1713559688.567258) can0 400#2880000000000040
(1713559688.567736) can0 140#0000030000000000
(1713559688.567965) can0 174#EA7F005C29790311
(1713559688.568199) can0 178#F47F0130069303ED
(1713559688.568439) can0 17C#068001001C6903AF
(1713559688.570190) can0 12F#F8000320000000A9
(1713559688.570437) can0 12D#00000000000000BE
(1713559688.570683) can0 290#00000002000000B6
(1713559688.573216) can0 410#2880008B9F6E8B9F
(1713559688.576006) can0 551#000000000004C000
(1713559688.576256) can0 5D1#9958000200000000
(1713559688.577254) can0 400#2880000000000075
(1713559688.577764) can0 174#EA7F005C2F790447
(1713559688.578004) can0 178#F87F02320993041A
(1713559688.578242) can0 17C#0680010027690454
(1713559688.579970) can0 12F#F8100320000000C8
(1713559688.580202) can0 128#1388030000EC78C9
(1713559688.580446) can0 12D#00000000000000D4
(1713559688.580690) can0 12E#000000000000C0CF
(1713559688.580938) can0 290#00000002000000DC
(1713559688.582466) can0 120#00000008070000BB
(1713559688.582714) can0 121#00000000000000BE
(1713559688.582954) can0 129#00000001000000BA
(1713559688.583346) can0 410#2880008B9F6E8BAA
(1713559688.586069) can0 541#0440E800007FFFD9
(1713559688.586322) can0 552#00FFFFFFFFFFFFA5
(1713559688.586573) can0 450#0055E0001B004A00
(1713559688.587377) can0 400#2880000000000094
(1713559688.587767) can0 174#E87F005C3A790571
(1713559688.588006) can0 178#FE7F0336099305F0
(1713559688.588244) can0 17C#02800100326905B1
(1713559688.588494) can0 140#0000030000000000
(1713559688.590244) can0 12F#F800032000000022
(1713559688.590442) can0 12D#0000000000000035
(1713559688.590691) can0 290#000000020000003D
(1713559688.593164) can0 410#2880008B9F6E8BC0
(1713559688.596005) can0 551#000000000004C000
(1713559688.596255) can0 5D1#9958000200000000
(1713559688.597353) can0 400#28800000000000A1
(1713559688.597724) can0 174#E87F005C40790611
(1713559688.597955) can0 178#FC7F04350C930655
(1713559688.598195) can0 17C#008001003269062C
(1713559688.599978) can0 12F#F800032000000048
(1713559688.600221) can0 128#1388030000EC7828
(1713559688.600464) can0 12D#000000000000005F
(1713559688.600708) can0 12E#000000000000C02E
(1713559688.600955) can0 290#0000000200000057
(1713559688.602546) can0 120#00000008070000D1
(1713559688.602790) can0 121#00000000000000D4
(1713559688.603033) can0 129#00000001000000D0
(1713559688.603354) can0 410#2880008B9F6E8B21
(1713559688.606057) can0 541#0440E800007FFF38
(1713559688.607460) can0 400#28800000000000CB
(1713559688.607779) can0 174#EA7F005C407907B6
(1713559688.608013) can0 178#F87F053017930700
(1713559688.608256) can0 17C#068001002A6907F6
(1713559688.608782) can0 140#0000030000000000
(1713559688.609631) can0 550#48000C000100007C
(1713559688.610202) can0 12F#F80003200000007D
(1713559688.610436) can0 12A#1428701C60580098
(1713559688.610683) can0 12D#000000000000006A
(1713559688.610931) can0 290#0000000200000062
(1713559688.613101) can0 410#2880008B9F6E8B4B
(1713559688.616005) can0 551#000000000004C000
(1713559688.616254) can0 5D1#9958000200000000
(1713559688.617451) can0 400#288000000000002A
(1713559688.617705) can0 5D0#9958010200000000
(1713559688.617935) can0 174#EC7F005C407908DE
(1713559688.618165) can0 178#F47F063122930882
(1713559688.618406) can0 17C#0E8001002169081F
(1713559688.618641) can0 5B1#008A9A68000000C9
(1713559688.618881) can0 5CF#7444540000000000
(1713559688.619998) can0 12F#F810032000000097
(1713559688.620231) can0 128#1388030000EC7842
(1713559688.620477) can0 12D#000000000000008B
(1713559688.620720) can0 12E#000000000000C044
(1713559688.620972) can0 290#0000000200000083
(1713559688.622646) can0 120#0000000807000030
(1713559688.622894) can0 121#0000000000000035
(1713559688.623138) can0 129#0000000100000031
(1713559688.623404) can0 410#2880008B9F6E8B7E
(1713559688.626055) can0 541#0440E800007FFF52
(1713559688.627559) can0 400#2880000000000040
(1713559688.627782) can0 174#EC7F005C4579094A
(1713559688.628009) can0 178#F27F0731259309AC
(1713559688.628249) can0 17C#0E8001001F690923
(1713559688.629305) can0 140#0000030000000000
(1713559688.630195) can0 12F#F8000320000000A9
(1713559688.630443) can0 12D#00000000000000BE
(1713559688.630689) can0 290#00000002000000B6
(1713559688.633102) can0 410#2880008B9F6E8B9F
(1713559688.634323) can0 6B9#0020400000000000
(1713559688.634567) can0 5A2#1410140000000000
(1713559688.636024) can0 551#000000000004C000
(1713559688.636279) can0 552#00FFFFFFFFFFFFCF
(1713559688.636525) can0 5D1#9958000200000000
(1713559688.636769) can0 5D2#7444540000000000
(1713559688.637013) can0 450#0055E0001B004A00
(1713559688.637546) can0 400#2880000000000075
(1713559688.637776) can0 174#EC7F005C48790AE8
(1713559688.638008) can0 178#F87F08311D930ABB
(1713559688.638245) can0 17C#068001001E690A59
(1713559688.638490) can0 540#0000001040009F00
(1713559688.638732) can0 5B0#6342000000000042
(1713559688.640056) can0 12F#F8000320000000C3
(1713559688.640287) can0 128#1388030000EC7877
(1713559688.640532) can0 12D#00000000000000D4
(1713559688.640778) can0 12E#000000000000C071
(1713559688.641026) can0 290#00000002000000DC
(1713559688.642743) can0 120#000000080700005A
(1713559688.642990) can0 121#000000000000005F
(1713559688.643235) can0 129#000000010000005B
(1713559688.643473) can0 410#2880008B9F6E8BAA
(1713559688.646050) can0 541#0440E800007FFF67
(1713559688.647654) can0 400#2880000000000094
(1713559688.647875) can0 174#EA7F005C46790B2F
(1713559688.648106) can0 178#0280093014930B1A
(1713559688.648348) can0 17C#008001001E690B97
(1713559688.649828) can0 140#0000030000000000
(1713559688.650204) can0 12F#F800032000000022
(1713559688.650450) can0 12D#0000000000000035
(1713559688.650699) can0 290#000000020000003D
(1713559688.653101) can0 410#2880008B9F6E8BC0
(1713559688.656005) can0 551#000000000004C000
(1713559688.656254) can0 5D1#9958000200000000
(1713559688.657634) can0 4EA#0000000000000000
(1713559688.657864) can0 174#E87F005C45790C4A
(1713559688.658102) can0 178#06800A380A930C13
(1713559688.658340) can0 17C#0080010022690CE6
(1713559688.658586) can0 400#28800000000000A1
(1713559688.658831) can0 5B2#0800000000000000
(1713559688.659105) can0 310#FFFFFFFF7D7D0000
(1713559688.659623) can0 550#48000C000100009D
(1713559688.660010) can0 12F#F810032000000043
(1713559688.660241) can0 128#1388030000EC7896
(1713559688.660475) can0 12A#1428701C605800AD
(1713559688.660726) can0 12D#000000000000005F
(1713559688.660975) can0 12E#000000000000C090
(1713559688.661222) can0 290#0000000200000057
(1713559688.661458) can0 5A0#0000006244928029
(1713559688.662843) can0 120#000000080700006F
(1713559688.663095) can0 121#000000000000006A
(1713559688.663349) can0 129#000000010000006E
(1713559688.663580) can0 410#2880008B9F6E8B21
(1713559688.666045) can0 541#0440E800007FFF86
(1713559688.667749) can0 400#28800000000000CB
(1713559688.667972) can0 174#EC7F005C3F790D79
(1713559688.668209) can0 178#0080000007930D08
(1713559688.668447) can0 17C#0080010027690D72
(1713559688.670236) can0 12F#F80003200000007D
(1713559688.670480) can0 12D#000000000000006A
(1713559688.670729) can0 140#0000030000000000
(1713559688.670978) can0 290#0000000200000062
(1713559688.673105) can0 410#2880008B9F6E8B4B
(1713559688.676004) can0 551#000000000004C000
(1713559688.676252) can0 5D1#9958000200000000
(1713559688.677741) can0 400#288000000000002A
(1713559688.677969) can0 174#F27F005C37790EEA
(1713559688.678204) can0 178#F87F013009930E51
(1713559688.678441) can0 17C#FE7F010026690E7B
(1713559688.679964) can0 12F#F80003200000009C
(1713559688.680198) can0 128#1388030000EC78A3
(1713559688.680444) can0 12D#000000000000008B
(1713559688.680689) can0 12E#000000000000C0A5
(1713559688.680940) can0 290#0000000200000083
(1713559688.682926) can0 120#000000080700008E
(1713559688.683168) can0 121#000000000000008B
(1713559688.683413) can0 129#000000010000008F
(1713559688.683650) can0 410#2880008B9F6E8B7E
(1713559688.686066) can0 541#0440E800007FFFB3
(1713559688.686323) can0 552#00FFFFFFFFFFFF2E
(1713559688.686566) can0 450#0055E0001B004A00
(1713559688.687800) can0 174#F47F005C3A790FA1
(1713559688.688038) can0 178#F67F00000A930FC4
(1713559688.688277) can0 17C#FC7F010026690FDC
(1713559688.688524) can0 400#2880000000000040
(1713559688.690243) can0 12F#F8000320000000A9
(1713559688.690491) can0 12D#00000000000000BE
(1713559688.690737) can0 290#00000002000000B6
(1713559688.690987) can0 140#0000030000000000
(1713559688.693101) can0 410#2880008B9F6E8B9F
(1713559688.696005) can0 551#000000000004C000
(1713559688.696253) can0 5D1#9958000200000000
(1713559688.697755) can0 174#F47F005C48790051
(1713559688.697989) can0 178#F87F015309930093
(1713559688.698230) can0 17C#0280010029690040
(1713559688.698475) can0 400#2880000000000075
(1713559688.699982) can0 12F#F8100320000000C8
(1713559688.700216) can0 128#1388030000EC78C9
(1713559688.700460) can0 12D#00000000000000D4
(1713559688.700704) can0 12E#000000000000C0CF
(1713559688.700953) can0 290#00000002000000DC
(1713559688.703026) can0 120#00000008070000BB
(1713559688.703273) can0 121#00000000000000BE
(1713559688.703516) can0 129#00000001000000BA
(1713559688.703751) can0 410#2880008B9F6E8BAA
(1713559688.706047) can0 541#0440E800007FFFD9
(1713559688.707814) can0 174#F07F005C557901B8
(1713559688.708043) can0 178#FA7F02430C930126
(1713559688.708287) can0 17C#0A80010032690117
(1713559688.708532) can0 400#2880000000000094
(1713559688.709625) can0 550#48000C00010000A8
(1713559688.710199) can0 12F#F800032000000022
(1713559688.710436) can0 12A#1428701C605800C7
(1713559688.710682) can0 12D#0000000000000035
(1713559688.710930) can0 290#000000020000003D
(1713559688.711407) can0 140#0000030000000000
(1713559688.713101) can0 410#2880008B9F6E8BC0
(1713559688.715999) can0 551#000000000004C000
(1713559688.716248) can0 5D1#9958000200000000
(1713559688.717722) can0 5D0#9958010200000000
(1713559688.717954) can0 174#EE7F005C51790221
(1713559688.718191) can0 178#00800332129302D4
(1713559688.718432) can0 17C#0A8001003A69023C
(1713559688.718677) can0 400#28800000000000A1
(1713559688.718915) can0 5B1#008A9A6800000028
(1713559688.719153) can0 5CF#7444540000000000
(1713559688.719992) can0 12F#F800032000000048
(1713559688.720227) can0 128#1388030000EC7828
(1713559688.720477) can0 12D#000000000000005F
(1713559688.720722) can0 12E#000000000000C02E
(1713559688.720968) can0 290#0000000200000057
(1713559688.723123) can0 120#00000008070000D1
(1713559688.723394) can0 121#00000000000000D4
(1713559688.723609) can0 129#00000001000000D0
(1713559688.723845) can0 410#2880008B9F6E8B21
(1713559688.726052) can0 541#0440E800007FFF38
(1713559688.727831) can0 174#EC7F005C40790311
(1713559688.728064) can0 178#0A80043014930388
(1713559688.728311) can0 17C#06800100426903DE
(1713559688.728548) can0 400#28800000000000CB
(1713559688.730199) can0 12F#F80003200000007D
(1713559688.730445) can0 12D#000000000000006A
(1713559688.730693) can0 290#0000000200000062
(1713559688.731929) can0 140#0000030000000000
(1713559688.733081) can0 410#2880008B9F6E8B4B
(1713559688.734537) can0 6B9#0020400000000000
(1713559688.734781) can0 5A2#1410140000000000
(1713559688.736022) can0 551#000000000004C000
(1713559688.736275) can0 552#00FFFFFFFFFFFF44
(1713559688.736521) can0 5D1#9958000200000000
(1713559688.736765) can0 5D2#7444540000000000
(1713559688.737009) can0 450#0055E0001B004A00
(1713559688.737773) can0 174#EA7F005C2C7904CB
(1713559688.738007) can0 178#0E80053011930451
(1713559688.738246) can0 17C#028001004B690467
(1713559688.738494) can0 400#288000000000002A
(1713559688.738740) can0 540#0000001040009F00
(1713559688.738980) can0 5B0#6342000000000077
(1713559688.740055) can0 12F#F810032000000097
(1713559688.740287) can0 128#1388030000EC7842
(1713559688.740532) can0 12D#000000000000008B
(1713559688.740777) can0 12E#000000000000C044
(1713559688.741029) can0 290#0000000200000083
(1713559688.743104) can0 410#2880008B9F6E8B7E
(1713559688.743351) can0 120#0000000807000030
(1713559688.743599) can0 121#0000000000000035
(1713559688.743841) can0 129#0000000100000031
(1713559688.746044) can0 541#0440E800007FFF52
(1713559688.747841) can0 174#EA7F005C1F790572
(1713559688.748072) can0 178#0A8006320A930524
(1713559688.748313) can0 17C#028001005169056D
(1713559688.748566) can0 400#2880000000000040
(1713559688.750200) can0 12F#F8000320000000A9
(1713559688.750447) can0 12D#00000000000000BE
(1713559688.750693) can0 290#00000002000000B6
(1713559688.752414) can0 140#0000030000000000
(1713559688.753029) can0 410#2880008B9F6E8B9F
(1713559688.756001) can0 551#000000000004C000
(1713559688.756250) can0 5D1#9958000200000000
(1713559688.757430) can0 4EA#0000000000000000
(1713559688.757676) can0 5B2#0800000000000000
(1713559688.757910) can0 174#EA7F005C1A7906DC
(1713559688.758144) can0 178#0480073709930637
(1713559688.758384) can0 17C#008001004D6906E2
(1713559688.758630) can0 310#FFFFFFFF7D7D0000
(1713559688.758877) can0 400#2880000000000075
(1713559688.759576) can0 550#48000C00010000C2
(1713559688.759918) can0 12F#F8000320000000C3
(1713559688.760201) can0 128#1388030000EC7877
(1713559688.760435) can0 12A#1428701C60580026
(1713559688.760680) can0 12D#00000000000000D4
(1713559688.760927) can0 12E#000000000000C071
(1713559688.761176) can0 290#00000002000000DC
(1713559688.761414) can0 5A0#0000006244928043
(1713559688.763047) can0 410#2880008B9F6E8BAA
(1713559688.763316) can0 120#000000080700005A
(1713559688.763565) can0 121#000000000000005F
(1713559688.763808) can0 129#000000010000005B
(1713559688.766045) can0 541#0440E800007FFF67
(1713559688.767837) can0 174#EA7F005C1E7907C7
(1713559688.768071) can0 178#FE7F085F0C930755
(1713559688.768307) can0 17C#FC7F010042690762
(1713559688.768556) can0 400#2880000000000094
(1713559688.770245) can0 12F#F800032000000022
(1713559688.770486) can0 12D#0000000000000035
(1713559688.770732) can0 290#000000020000003D
(1713559688.772975) can0 140#0000030000000000
(1713559688.773213) can0 410#2880008B9F6E8BC0
(1713559688.775999) can0 551#000000000004C000
(1713559688.776248) can0 5D1#9958000200000000
(1713559688.777782) can0 174#EA7F005C2A790852
(1713559688.778018) can0 178#008009300D93081C
(1713559688.778256) can0 17C#FA7F0100356908C8
(1713559688.778502) can0 400#28800000000000A1
(1713559688.779921) can0 12F#F810032000000043
(1713559688.780154) can0 128#1388030000EC7896
(1713559688.780405) can0 12D#000000000000005F
(1713559688.780650) can0 12E#000000000000C090
(1713559688.780897) can0 290#0000000200000057
(1713559688.782993) can0 410#2880008B9F6E8B21
(1713559688.783412) can0 120#000000080700006F
(1713559688.783661) can0 121#000000000000006A
(1713559688.783909) can0 129#000000010000006E
(1713559688.786062) can0 541#0440E800007FFF86
(1713559688.786316) can0 552#00FFFFFFFFFFFF71
(1713559688.786559) can0 450#0055E0001B004A00
(1713559688.787848) can0 174#EA7F005C2D7909C5
(1713559688.788082) can0 178#06800A370F93099B
(1713559688.788322) can0 17C#FA7F01002D6909C1
(1713559688.788568) can0 400#28800000000000CB
(1713559688.790256) can0 12F#F80003200000007D
(1713559688.790496) can0 12D#000000000000006A
(1713559688.790742) can0 290#0000000200000062
(1713559688.792652) can0 410#2880008B9F6E8B4B
(1713559688.793497) can0 140#0000030000000000
(1713559688.796354) can0 551#000000000004C000
(1713559688.796603) can0 5D1#9958000200000000
(1713559688.797797) can0 174#E87F005C25790A54
(1713559688.798026) can0 178#04800B3115930A12
(1713559688.798265) can0 17C#FE7F010027690A80
(1713559688.798513) can0 400#288000000000002A
(1713559688.799920) can0 12F#F80003200000009C
(1713559688.800155) can0 128#1388030000EC78A3
(1713559688.800402) can0 12D#000000000000008B
(1713559688.800646) can0 12E#000000000000C0A5
(1713559688.800897) can0 290#0000000200000083
(1713559688.802622) can0 410#2880008B9F6E8B7E
(1713559688.803508) can0 120#000000080700008E
(1713559688.803748) can0 121#000000000000008B
(1713559688.803990) can0 129#000000010000008F
(1713559688.806045) can0 541#0440E800007FFFB3
(1713559688.807852) can0 174#E47F005C22790B78
(1713559688.808091) can0 178#008000001A930BDB
(1713559688.808330) can0 17C#048001001F690B71
(1713559688.808579) can0 400#2880000000000040
(1713559688.809623) can0 550#48000C0001000023
(1713559688.810201) can0 12F#F8000320000000A9
(1713559688.810433) can0 12A#1428701C6058004C
(1713559688.810689) can0 12D#00000000000000BE
(1713559688.810929) can0 290#00000002000000B6
(1713559688.812598) can0 410#2880008B9F6E8B9F
(1713559688.814020) can0 140#0000030000000000
(1713559688.815995) can0 551#000000000004C000
(1713559688.816244) can0 5D1#9958000200000000
(1713559688.817734) can0 5D0#9958010200000000
(1713559688.817962) can0 174#E47F005C27790CA2
(1713559688.818193) can0 178#FE7F01371D930C52
(1713559688.818428) can0 17C#0880010019690C9C
(1713559688.818674) can0 400#2880000000000075
(1713559688.818911) can0 5B1#008A9A6800000042
(1713559688.819149) can0 5CF#7444540000000000
(1713559688.819942) can0 12F#F8100320000000C8
(1713559688.820177) can0 128#1388030000EC78C9
(1713559688.820421) can0 12D#00000000000000D4
(1713559688.820666) can0 12E#000000000000C0CF
(1713559688.820914) can0 290#00000002000000DC
(1713559688.822565) can0 410#2880008B9F6E8BAA
(1713559688.823602) can0 120#00000008070000BB
(1713559688.823847) can0 121#00000000000000BE
(1713559688.824089) can0 129#00000001000000BA
(1713559688.826045) can0 541#0440E800007FFFD9
(1713559688.827848) can0 174#E47F005C2F790DB3
(1713559688.828082) can0 178#0280022E20930D63
(1713559688.828316) can0 17C#068001000E690D12
(1713559688.828563) can0 400#2880000000000094
(1713559688.830201) can0 12F#F800032000000022
(1713559688.830447) can0 12D#0000000000000035
(1713559688.830695) can0 290#000000020000003D
(1713559688.832546) can0 410#2880008B9F6E8BC0
(1713559688.834546) can0 140#0000030000000000
(1713559688.834755) can0 6B9#0020400000000000
(1713559688.834998) can0 5A2#1410140000000000
(1713559688.836017) can0 551#000000000004C000
(1713559688.836272) can0 552#00FFFFFFFFFFFF90
(1713559688.836518) can0 5D1#9958000200000000
(1713559688.836761) can0 5D2#7444540000000000
(1713559688.837006) can0 450#0055E0001B004A00
(1713559688.837800) can0 174#E27F005C35790E50
(1713559688.838033) can0 178#068003311A930E2D
(1713559688.838270) can0 17C#0480010006690E83
(1713559688.838522) can0 400#28800000000000A1
(1713559688.839194) can0 540#0000001040009F00
(1713559688.839437) can0 5B0#6342000000000096
(1713559688.840027) can0 12F#F800032000000048
(1713559688.840265) can0 128#1388030000EC7828
(1713559688.840515) can0 12D#000000000000005F
(1713559688.840760) can0 12E#000000000000C02E
(1713559688.841006) can0 290#0000000200000057
(1713559688.842512) can0 410#2880008B9F6E8B21
(1713559688.843697) can0 120#00000008070000D1
(1713559688.843940) can0 121#00000000000000D4
(1713559688.844182) can0 129#00000001000000D0
(1713559688.846041) can0 541#0440E800007FFF38
(1713559688.847851) can0 174#E67F005C3D790F28
(1713559688.848087) can0 178#0C8004300A930FD6
(1713559688.848326) can0 17C#0480010008690F97
(1713559688.848605) can0 400#28800000000000CB
(1713559688.850227) can0 12F#F80003200000007D
(1713559688.850473) can0 12D#000000000000006A
(1713559688.850721) can0 290#0000000200000062
(1713559688.852494) can0 410#2880008B9F6E8B4B
(1713559688.855080) can0 140#0000030000000000
(1713559688.856052) can0 551#000000000004C000
(1713559688.856295) can0 5D1#9958000200000000
(1713559688.857226) can0 4EA#0000000000000000
(1713559688.857471) can0 5B2#0800000000000000
(1713559688.857716) can0 310#FFFFFFFF7D7D0000
(1713559688.857951) can0 174#EC7F005C46790033
(1713559688.858189) can0 178#0A8000000493006D
(1713559688.858429) can0 17C#FE7F01000B690068
(1713559688.858678) can0 400#288000000000002A
(1713559688.859579) can0 550#48000C0001000049
(1713559688.859916) can0 12F#F810032000000097
(1713559688.860150) can0 128#1388030000EC7842
(1713559688.860382) can0 12A#1428701C60580079
(1713559688.860628) can0 12D#000000000000008B
(1713559688.860872) can0 12E#000000000000C044
(1713559688.861124) can0 290#0000000200000083
(1713559688.861362) can0 5A0#0000006244928076
(1713559688.862412) can0 410#2880008B9F6E8B7E
(1713559688.863756) can0 120#0000000807000030
(1713559688.864050) can0 121#0000000000000035
(1713559688.864294) can0 129#0000000100000031
(1713559688.866043) can0 541#0440E800007FFF52
(1713559688.867866) can0 174#F07F005C4679012C
(1713559688.868099) can0 178#068001380C93015E
(1713559688.868339) can0 17C#FA7F01000B69011C
(1713559688.868704) can0 400#2880000000000040
(1713559688.870232) can0 12F#F8000320000000A9
(1713559688.870480) can0 12D#00000000000000BE
(1713559688.870726) can0 290#00000002000000B6
(1713559688.872437) can0 410#2880008B9F6E8B9F
(1713559688.875600) can0 140#0000030000000000
(1713559688.876041) can0 551#000000000004C000
(1713559688.876290) can0 5D1#9958000200000000
(1713559688.877818) can0 174#F07F005C3D7902C3
(1713559688.878054) can0 178#FE7F02321F93029A
(1713559688.878294) can0 17C#FA7F01000C6902B1
(1713559688.878702) can0 400#2880000000000075
(1713559688.879937) can0 12F#F8000320000000C3
(1713559688.880170) can0 128#1388030000EC7877
(1713559688.880414) can0 12D#00000000000000D4
(1713559688.880663) can0 12E#000000000000C071
(1713559688.880908) can0 290#00100002000000D7
(1713559688.882355) can0 410#2880008B9F6E8BAA
(1713559688.883850) can0 120#000000080700005A
(1713559688.884098) can0 121#000000000000005F
(1713559688.884341) can0 129#000000010000005B
(1713559688.886060) can0 541#0440E800007FFF67
(1713559688.886313) can0 552#00FFFFFFFFFFFFA5
(1713559688.886557) can0 450#0055E0001B004A00
(1713559688.887870) can0 174#EE7F005C3579036A
(1713559688.888097) can0 178#FA7F033228930326
(1713559688.888335) can0 17C#FE7F01000E6903C6
(1713559688.888800) can0 400#2880000000000094
(1713559688.890242) can0 12F#F800032000000022
(1713559688.890488) can0 12D#0000000000000035
(1713559688.890732) can0 290#0010000200000036
(1713559688.892385) can0 410#2880008B9F6E8BC0
(1713559688.896054) can0 551#000000000004C000
(1713559688.896295) can0 140#0000030000000000
(1713559688.896533) can0 5D1#9958000200000000
(1713559688.897868) can0 174#EC7F005C3B79048A
(1713559688.898103) can0 178#FA7F04351F930428
(1713559688.898342) can0 17C#FC7F01000E69042F
(1713559688.898847) can0 400#28800000000000A1
(1713559688.899921) can0 12F#F810032000000043
(1713559688.900154) can0 128#1388030000EC7896
(1713559688.900403) can0 12D#000000000000005F
(1713559688.900649) can0 12E#000000000000C090
(1713559688.900896) can0 290#0000000200000057
(1713559688.902302) can0 410#2880008B9F6E8B21
(1713559688.903951) can0 120#000000080700006F
(1713559688.904202) can0 121#000000000000006A
(1713559688.904451) can0 129#000000010000006E
(1713559688.905991) can0 541#0440E800007FFF86
(1713559688.907879) can0 174#EC7F005C4679055A
(1713559688.908111) can0 178#FA7F000011930535
(1713559688.908351) can0 17C#F87F01000869055E
(1713559688.908901) can0 400#28800000000000CB
(1713559688.909626) can0 550#48000C000100007C
(1713559688.910200) can0 12F#F80003200000007D
(1713559688.910434) can0 12A#1428701C60580098
(1713559688.910680) can0 12D#000000000000006A
(1713559688.910927) can0 290#0000000200000062
(1713559688.912351) can0 410#2880008B9F6E8B4B
(1713559688.916044) can0 551#000000000004C000
(1713559688.916288) can0 5D1#9958000200000000
(1713559688.916648) can0 140#0000030000000000
(1713559688.917791) can0 5D0#9958010200000000
(1713559688.918023) can0 174#EC7F005C4E790671
(1713559688.918255) can0 178#FA7F01320A9306A8
(1713559688.918494) can0 17C#FC7F010001690693
(1713559688.918730) can0 5B1#008A9A6800000077
(1713559688.918969) can0 5CF#7444540000000000
(1713559688.919216) can0 400#288000000000002A
(1713559688.919995) can0 12F#F80003200000009C
(1713559688.920219) can0 128#1388030000EC78A3
(1713559688.920464) can0 12D#000000000000008B
(1713559688.920709) can0 12E#000000000000C0A5
(1713559688.920961) can0 290#0000000200000083
(1713559688.922279) can0 410#2880008B9F6E8B7E
(1713559688.924048) can0 120#000000080700008E
(1713559688.924290) can0 121#000000000000008B
(1713559688.924532) can0 129#000000010000008F
(1713559688.925992) can0 541#0440E800007FFFB3
(1713559688.927835) can0 174#EE7F005C51790748
(1713559688.928075) can0 178#F87F02300C930793
(1713559688.928315) can0 17C#02800100066907A5
(1713559688.928961) can0 400#2880000000000040
(1713559688.930199) can0 12F#F8000320000000A9
(1713559688.930448) can0 12D#00000000000000BE
(1713559688.930695) can0 290#00000002000000B6
(1713559688.932304) can0 410#2880008B9F6E8B9F
(1713559688.935067) can0 6B9#0020400000000000
(1713559688.935310) can0 5A2#1410140000000000
(1713559688.936064) can0 551#000000000004C000
(1713559688.936315) can0 552#00FFFFFFFFFFFFCF
(1713559688.936560) can0 5D1#9958000200000000
(1713559688.936802) can0 5D2#7444540000000000
(1713559688.937045) can0 450#0055E0001B004A00
(1713559688.937296) can0 140#0000030000000000
(1713559688.937882) can0 174#EE7F005C4D7908E1
(1713559688.938109) can0 178#F47F033211930843
(1713559688.938344) can0 17C#048001001769085A
(1713559688.939050) can0 400#2880000000000075
(1713559688.939709) can0 540#0000001040009F00
(1713559688.939945) can0 5B0#63420000000000A3
(1713559688.940181) can0 128#1388030000EC78C9
(1713559688.940425) can0 12D#00000000000000D4
(1713559688.940669) can0 12E#000000000000C0CF
(1713559688.940909) can0 12F#F8100320000000C8
(1713559688.941155) can0 290#00100002000000D7
(1713559688.942220) can0 410#2880008B9F6E8BAA
(1713559688.944142) can0 120#00000008070000BB
(1713559688.944387) can0 121#00000000000000BE
(1713559688.944630) can0 129#00000001000000BA
(1713559688.945986) can0 541#0440E800007FFFD9
(1713559688.947840) can0 174#EE7F005C48790975
(1713559688.948071) can0 178#F67F0433149309FB
(1713559688.948307) can0 17C#04800100246909E3
(1713559688.949048) can0 400#2880000000000094
(1713559688.950240) can0 12F#F800032000000022
(1713559688.950486) can0 12D#0000000000000035
(1713559688.950730) can0 290#0010000200000036
(1713559688.952250) can0 410#2880008B9F6E8BC0
(1713559688.956045) can0 551#000000000004C000
(1713559688.956292) can0 5D1#9958000200000000
(1713559688.957069) can0 4EA#0000000000000000
(1713559688.957314) can0 5B2#0800000000000000
(1713559688.957560) can0 310#FFFFFFFF7D7D0000
(1713559688.957811) can0 140#0000030000000000
(1713559688.958042) can0 174#F07F005C48790AEA
(1713559688.958282) can0 178#F87F053117930A1C
(1713559688.958517) can0 17C#0880010021690AF6
(1713559688.959137) can0 400#28800000000000A1
(1713559688.959634) can0 550#48000C000100009D
(1713559688.959965) can0 12F#F800032000000048
(1713559688.960203) can0 128#1388030000EC7828
(1713559688.960437) can0 12A#1428701C605800AD
(1713559688.960687) can0 12D#000000000000005F
(1713559688.960931) can0 12E#000000000000C02E
(1713559688.961178) can0 290#0000000200000057
(1713559688.961414) can0 5A0#0000006244928097
(1713559688.962168) can0 410#2880008B9F6E8B21
(1713559688.964239) can0 120#00000008070000D1
(1713559688.964482) can0 121#00000000000000D4
(1713559688.964724) can0 129#00000001000000D0
(1713559688.965986) can0 541#0440E800007FFF38
(1713559688.967843) can0 174#F47F005C4A790B9D
(1713559688.968078) can0 178#F87F063017930B22
(1713559688.968313) can0 17C#0E8001001C690B95
(1713559688.969145) can0 400#28800000000000CB
(1713559688.970236) can0 12F#F80003200000007D
(1713559688.970481) can0 12D#000000000000006A
(1713559688.970729) can0 290#0000000200000062
(1713559688.972196) can0 410#2880008B9F6E8B4B
(1713559688.976037) can0 551#000000000004C000
(1713559688.976286) can0 5D1#9958000200000000
(1713559688.977896) can0 174#F67F005C46790C7E
(1713559688.978128) can0 178#F87F07310D930C91
(1713559688.978378) can0 140#0000030000000000
(1713559688.978623) can0 17C#0E80010021690C6B
(1713559688.979238) can0 400#288000000000002A
(1713559688.979965) can0 12F#F810032000000097
(1713559688.980199) can0 128#1388030000EC7842
(1713559688.980447) can0 12D#000000000000008B
(1713559688.980689) can0 12E#000000000000C044
(1713559688.980941) can0 290#0000000200000083
(1713559688.982139) can0 410#2880008B9F6E8B7E
(1713559688.984337) can0 120#0000000807000030
(1713559688.984583) can0 121#0000000000000035
(1713559688.984827) can0 129#0000000100000031
(1713559688.987852) can0 174#F67F005C3D790DAB
(1713559688.988083) can0 178#F47F0838FF920D8D
(1713559688.988322) can0 17C#048001002A690D9E
(1713559688.988564) can0 541#0440E800007FFF52
(1713559688.988820) can0 552#00FFFFFFFFFFFF2E
(1713559688.989064) can0 450#0055E0001B004A00
(1713559688.989312) can0 400#2880000000000040
(1713559688.990243) can0 12F#F8000320000000A9
(1713559688.990490) can0 12D#00000000000000BE
(1713559688.990739) can0 290#00000002000000B6
(1713559688.992130) can0 410#2880008B9F6E8B9F
(1713559688.996038) can0 551#000000000004C000
(1713559688.996284) can0 5D1#9958000200000000
(1713559688.997904) can0 174#F87F005C25790E99
(1713559688.998143) can0 178#F47F0000FE920EA1
(1713559688.998379) can0 17C#FA7F010029690E94
(1713559688.998756) can0 140#0000030000000000
(1713559688.999348) can0 400#2880000000000075
(1713559688.999967) can0 12F#F8000320000000C3
(1713559689.000199) can0 128#1388030000EC7877
(1713559689.000443) can0 12D#00000000000000D4
(1713559689.000691) can0 12E#000000000000C071
(1713559689.000940) can0 290#00000002000000DC
(1713559689.002124) can0 410#2880008B9F6E8BAA
(1713559689.004426) can0 120#000000080700005A
(1713559689.004673) can0 121#000000000000005F
(1713559689.004916) can0 129#000000010000005B
(1713559689.005988) can0 541#0440E800007FFF67
(1713559689.007861) can0 174#FC7F005C19790FCF
(1713559689.008104) can0 178#F87F00000C930FC0
(1713559689.008344) can0 17C#F87F01001F690F1E
(1713559689.009339) can0 400#2880000000000094
(1713559689.009583) can0 550#48000C00010000A8
(1713559689.010151) can0 12F#F800032000000022
(1713559689.010387) can0 12A#1428701C605800C7
(1713559689.010633) can0 12D#0000000000000035
(1713559689.010929) can0 290#000000020000003D
(1713559689.012128) can0 410#2880008B9F6E8BC0
(1713559689.016040) can0 551#000000000004C000
(1713559689.016285) can0 5D1#9958000200000000
(1713559689.017790) can0 5D0#9958010200000000
(1713559689.018026) can0 174#FE7F005C22790066
(1713559689.018261) can0 178#F87F01521793001F
(1713559689.018502) can0 17C#FA7F0100246900B7
(1713559689.018738) can0 5B1#008A9A6800000096
(1713559689.018976) can0 5CF#7444540000000000
(1713559689.019278) can0 140#0000030000000000
(1713559689.019533) can0 400#28800000000000A1
(1713559689.019997) can0 12F#F810032000000043
(1713559689.020228) can0 128#1388030000EC7896
(1713559689.020478) can0 12D#000000000000005F
(1713559689.020725) can0 12E#000000000000C090
(1713559689.020971) can0 290#0000000200000057
(1713559689.022123) can0 410#2880008B9F6E8B21
(1713559689.024526) can0 120#000000080700006F
(1713559689.024777) can0 121#000000000000006A
(1713559689.025025) can0 129#000000010000006E
(1713559689.025990) can0 541#0440E800007FFF86
