(1713559096.395291) can0 12F#F82000200000003D
(1713559096.395543) can0 12D#0000000000000035
(1713559096.395773) can0 140#0000030000000000
(1713559096.396021) can0 290#000000020000003D
(1713559096.400664) can0 400#2880000000000075
(1713559096.402096) can0 551#000000000004C000
(1713559096.402348) can0 5D1#9958000200000000
(1713559096.402978) can0 174#F07F004D37790600
(1713559096.403210) can0 178#F87F096F23930628
(1713559096.403455) can0 17C#F87F01000E69067C
(1713559096.403694) can0 410#2880008B9F6E8B9F
(1713559096.405004) can0 12F#F820012000000050
(1713559096.405242) can0 128#1388030000EC7828
(1713559096.405492) can0 12D#000000000000005F
(1713559096.405736) can0 12E#000000000000C02E
(1713559096.405983) can0 120#00000000070000AE
(1713559096.406228) can0 121#00000000000000BE
(1713559096.406471) can0 129#00000001000000BA
(1713559096.406723) can0 290#0000000200000057
(1713559096.409015) can0 550#48000C000100007C
(1713559096.410707) can0 400#2880000000000094
(1713559096.411329) can0 6B9#0020400000000000
(1713559096.411569) can0 5A2#1410140000000000
(1713559096.412103) can0 541#0440E800007FFFD9
(1713559096.412356) can0 552#00FFFFFFFFFFFFA5
(1713559096.412603) can0 450#005500001B004A00
(1713559096.412967) can0 174#F27F004D2D7907B0
(1713559096.413203) can0 178#00800A731A9307A5
(1713559096.413441) can0 17C#F67F010008690765
(1713559096.413677) can0 410#2880008B9F6E8BAA
(1713559096.415295) can0 12F#F81000200000007F
(1713559096.415532) can0 12A#1428701C60580098
(1713559096.415775) can0 12D#000000000000006A
(1713559096.416026) can0 140#0000030000000000
(1713559096.416274) can0 290#0000000200000062
(1713559096.420783) can0 400#28800000000000A1
(1713559096.422125) can0 551#000000000004C000
(1713559096.422373) can0 5D1#9958000200000000
(1713559096.423004) can0 174#F47F004D257908D4
(1713559096.423233) can0 178#06800B631493088B
(1713559096.423474) can0 17C#F27F01000B69083B
(1713559096.423712) can0 410#2880008B9F6E8BC0
(1713559096.425044) can0 12F#F820002000000083
(1713559096.425278) can0 128#1388030000EC7842
(1713559096.425524) can0 12D#000000000000008B
(1713559096.425768) can0 12E#000000000000C044
(1713559096.426014) can0 120#00000000070000C4
(1713559096.426260) can0 121#00000000000000D4
(1713559096.426501) can0 129#00000001000000D0
(1713559096.426753) can0 290#0000000200000083
(1713559096.430847) can0 400#28800000000000CB
(1713559096.432123) can0 541#0440E800007FFF38
(1713559096.433011) can0 174#F47F004D1F7909EE
(1713559096.433246) can0 178#04800C6812930904
(1713559096.433481) can0 17C#F07F010013690988
(1713559096.433718) can0 410#2880008B9F6E8B21
(1713559096.435222) can0 12F#F8100120000000AC
(1713559096.435471) can0 12D#00000000000000BE
(1713559096.435716) can0 290#00000002000000B6
(1713559096.436316) can0 140#0000030000000000
(1713559096.440844) can0 400#288000000000002A
(1713559096.442081) can0 551#000000000004C000
(1713559096.442379) can0 5D1#9958000200000000
(1713559096.443023) can0 174#F27F004D1F790A1A
(1713559096.443253) can0 178#FA7F0D2012930AE0
(1713559096.443490) can0 17C#F27F010017690A13
(1713559096.443727) can0 410#2880008B9F6E8B4B
(1713559096.445040) can0 12F#F8200020000000DC
(1713559096.445273) can0 128#1388030000EC7877
(1713559096.445518) can0 12D#00000000000000D4
(1713559096.445766) can0 12E#000000000000C071
(1713559096.446014) can0 290#00000002000000DC
(1713559096.446262) can0 120#0000000007000025
(1713559096.446510) can0 121#0000000000000035
(1713559096.446755) can0 129#0000000100000031
(1713559096.450958) can0 400#2880000000000040
(1713559096.452136) can0 541#0440E800007FFF52
(1713559096.453025) can0 174#EE7F004D27790B21
(1713559096.453253) can0 178#EE7F0E4711930B35
(1713559096.453495) can0 17C#F87F010016690BE9
(1713559096.453734) can0 410#2880008B9F6E8B7E
(1713559096.455221) can0 12F#F82001200000003A
(1713559096.455468) can0 12D#0000000000000035
(1713559096.455715) can0 290#000000020000003D
(1713559096.456847) can0 140#0000030000000000
(1713559096.459001) can0 550#48000C000100009D
(1713559096.460947) can0 400#2880000000000075
(1713559096.462104) can0 551#000000000004C000
(1713559096.462359) can0 552#00FFFFFFFFFFFFCF
(1713559096.462654) can0 5D1#9958000200000000
(1713559096.462899) can0 5D2#7444540000000000
(1713559096.463126) can0 174#EC7F004D32790C59
(1713559096.463378) can0 178#E67F0F6D09930C3B
(1713559096.463592) can0 17C#0080010006690CD0
(1713559096.463832) can0 410#2880008B9F6E8B9F
(1713559096.464073) can0 450#005500001B004A00
(1713559096.465112) can0 12F#F81000200000004A
(1713559096.465347) can0 128#1388030000EC7896
(1713559096.465581) can0 12A#1428701C605800AD
(1713559096.465831) can0 12D#000000000000005F
(1713559096.466076) can0 12E#000000000000C090
(1713559096.466324) can0 120#000000000700004F
(1713559096.466577) can0 121#000000000000005F
(1713559096.466816) can0 129#000000010000005B
(1713559096.467061) can0 290#0000000200000057
(1713559096.467299) can0 5A0#0000006244928029
(1713559096.467541) can0 5B1#008A9A6800000028
(1713559096.467780) can0 5D0#9958010200000000
(1713559096.468018) can0 5CF#7444540000000000
(1713559096.471075) can0 400#2880000000000094
(1713559096.472132) can0 541#0440E800007FFF67
(1713559096.473037) can0 174#E87F004D3F790DA8
(1713559096.473265) can0 178#EA7F006201930D85
(1713559096.473503) can0 17C#04800100F5680DEC
(1713559096.473739) can0 410#2880008B9F6E8BAA
(1713559096.475243) can0 12F#F820002000000062
(1713559096.475489) can0 12D#000000000000006A
(1713559096.475736) can0 290#0000000200000062
(1713559096.476088) can0 4EA#0000000000000000
(1713559096.476333) can0 5B2#0800000000000000
(1713559096.476579) can0 310#FFFFFFFF7D7D0000
(1713559096.477375) can0 140#0000030000000000
(1713559096.481037) can0 400#28800000000000A1
(1713559096.481632) can0 540#000000103F009E00
(1713559096.481874) can0 5B0#6342000000000028
(1713559096.482120) can0 551#000000000004C000
(1713559096.482368) can0 5D1#9958000200000000
(1713559096.483035) can0 410#2880008B9F6E8BC0
(1713559096.483261) can0 174#E47F004D45790E73
(1713559096.483497) can0 178#F67F014804930EB2
(1713559096.483736) can0 17C#06800100F3680E74
(1713559096.485076) can0 12F#F820012000000084
(1713559096.485311) can0 128#1388030000EC78A3
(1713559096.485558) can0 12D#000000000000008B
(1713559096.485802) can0 12E#000000000000C0A5
(1713559096.486054) can0 290#0000000200000083
(1713559096.486301) can0 120#000000000700007A
(1713559096.486553) can0 121#000000000000006A
(1713559096.486802) can0 129#000000010000006E
(1713559096.491143) can0 400#28800000000000CB
(1713559096.492127) can0 541#0440E800007FFF86
(1713559096.493003) can0 410#2880008B9F6E8B21
(1713559096.493233) can0 174#E67F004D46790F58
(1713559096.493473) can0 178#FE7F00000A930F16
(1713559096.493713) can0 17C#00800100FD680FB3
(1713559096.495233) can0 12F#F8100020000000AB
(1713559096.495482) can0 12D#00000000000000BE
(1713559096.495727) can0 290#00000002000000B6
(1713559096.497902) can0 140#0000030000000000
(1713559096.501137) can0 400#288000000000002A
(1713559096.502452) can0 551#000000000004C000
(1713559096.502750) can0 5D1#9958000200000000
(1713559096.503004) can0 410#2880008B9F6E8B4B
(1713559096.503236) can0 174#EC7F004D4A790081
(1713559096.503481) can0 178#0080000007930089
(1713559096.503714) can0 17C#F67F0100096900B9
(1713559096.505046) can0 12F#F8200020000000DC
(1713559096.505280) can0 128#1388030000EC78C9
(1713559096.505524) can0 12D#00000000000000D4
(1713559096.505770) can0 12E#000000000000C0CF
(1713559096.506016) can0 290#00000002000000DC
(1713559096.506286) can0 120#000000000700009B
(1713559096.506531) can0 121#000000000000008B
(1713559096.506773) can0 129#000000010000008F
(1713559096.509046) can0 550#48000C00010000A8
(1713559096.511251) can0 400#2880000000000040
(1713559096.511597) can0 6B9#0020400000000000
(1713559096.511838) can0 5A2#1410140000000000
(1713559096.512160) can0 541#0440E800007FFFB3
(1713559096.512414) can0 552#00FFFFFFFFFFFF2E
(1713559096.512660) can0 450#005500001B004A00
(1713559096.512980) can0 410#2880008B9F6E8B7E
(1713559096.513212) can0 174#F07F004C4B79018C
(1713559096.513452) can0 178#0080000DFE92019C
(1713559096.513688) can0 17C#EE7F0100136901D8
(1713559096.515289) can0 12F#F810012000000027
(1713559096.515524) can0 12A#1428701C605800C7
(1713559096.515770) can0 12D#0000000000000035
(1713559096.516018) can0 290#000000020000003D
(1713559096.518428) can0 140#0000030000000000
(1713559096.521234) can0 400#2880000000000075
(1713559096.522079) can0 551#000000000004C000
(1713559096.522329) can0 5D1#9958000200000000
(1713559096.522953) can0 410#2880008B9F6E8B9F
(1713559096.523189) can0 174#F27F004D4079020C
(1713559096.523432) can0 178#00800000F89202F1
(1713559096.523670) can0 17C#F07F01001C6902C1
(1713559096.525047) can0 12F#F820002000000057
(1713559096.525283) can0 128#1388030000EC7828
(1713559096.525534) can0 12D#000000000000005F
(1713559096.525777) can0 12E#000000000000C02E
(1713559096.526026) can0 290#0000000200000057
(1713559096.526390) can0 120#00000000070000AE
(1713559096.526635) can0 121#00000000000000BE
(1713559096.526878) can0 129#00000001000000BA
(1713559096.531348) can0 400#2880000000000094
(1713559096.532128) can0 541#0440E800007FFFD9
(1713559096.532921) can0 410#2880008B9F6E8BAA
(1713559096.533155) can0 174#F07F004D2D79037E
(1713559096.533389) can0 178#FE7F0136F6920328
(1713559096.533627) can0 17C#F67F0100296903AE
(1713559096.535227) can0 12F#F820002000000062
(1713559096.535474) can0 12D#000000000000006A
(1713559096.535721) can0 290#0000000200000062
(1713559096.538955) can0 140#0000030000000000
(1713559096.541332) can0 400#28800000000000A1
(1713559096.542076) can0 551#000000000004C000
(1713559096.542326) can0 5D1#9958000200000000
(1713559096.542900) can0 410#2880008B9F6E8BC0
(1713559096.543134) can0 174#EC7F004D27790420
(1713559096.543397) can0 178#FC7F0230F892041F
(1713559096.543613) can0 17C#FE7F01002F69042A
(1713559096.545044) can0 12F#F81000200000009E
(1713559096.545276) can0 128#1388030000EC7842
(1713559096.545522) can0 12D#000000000000008B
(1713559096.545766) can0 12E#000000000000C044
(1713559096.546018) can0 290#0000000200000083
(1713559096.546486) can0 120#00000000070000C4
(1713559096.546730) can0 121#00000000000000D4
(1713559096.546973) can0 129#00000001000000D0
(1713559096.551434) can0 400#28800000000000CB
(1713559096.552132) can0 541#0440E800007FFF38
(1713559096.552870) can0 410#2880008B9F6E8B21
(1713559096.553104) can0 174#EA7F004D2C79056E
(1713559096.553339) can0 178#FE7F0331FE92054A
(1713559096.553578) can0 17C#06800100246905C5
(1713559096.555286) can0 12F#F8200120000000B1
(1713559096.555508) can0 12D#00000000000000BE
(1713559096.555753) can0 290#00000002000000B6
(1713559096.558994) can0 550#48000C00010000C2
(1713559096.559483) can0 140#0000030000000000
(1713559096.561433) can0 400#288000000000002A
(1713559096.562099) can0 551#000000000004C000
(1713559096.562352) can0 552#00FFFFFFFFFFFF44
(1713559096.562600) can0 55A#0017160000000000
(1713559096.562838) can0 410#2880008B9F6E8B4B
(1713559096.563119) can0 174#EA7F004D32790658
(1713559096.563393) can0 178#FE7F0438049306AC
(1713559096.563598) can0 17C#08800100166906C8
(1713559096.563838) can0 5D1#9958000200000000
(1713559096.564089) can0 5D2#7444540000000000
(1713559096.564338) can0 450#005500001B004A00
(1713559096.565122) can0 12F#F8200020000000DC
(1713559096.565355) can0 128#1388030000EC7877
(1713559096.565589) can0 12A#1428701C60580026
(1713559096.565833) can0 12D#00000000000000D4
(1713559096.566081) can0 12E#000000000000C071
(1713559096.566329) can0 290#00000002000000DC
(1713559096.566568) can0 5A0#0000006244928043
(1713559096.566816) can0 120#0000000007000025
(1713559096.567064) can0 121#0000000000000035
(1713559096.567307) can0 129#0000000100000031
(1713559096.567546) can0 5B1#008A9A6800000042
(1713559096.567786) can0 5D0#9958010200000000
(1713559096.568024) can0 5CF#7444540000000000
(1713559096.571536) can0 400#2880000000000040
(1713559096.572124) can0 541#0440E800007FFF52
(1713559096.572836) can0 410#2880008B9F6E8B7E
(1713559096.573079) can0 174#EC7F004D38790799
(1713559096.573315) can0 178#FC7F053106930763
(1713559096.573555) can0 17C#068001001369075D
(1713559096.573782) can0 6AB#ACC2A57596A3C162
(1713559096.575286) can0 12F#F810002000000020
(1713559096.575484) can0 12D#0000000000000035
(1713559096.575732) can0 290#000000020000003D
(1713559096.575981) can0 4EA#0000000000000000
(1713559096.576227) can0 5B2#0800000000000000
(1713559096.576472) can0 310#FFFFFFFF7D7D0000
(1713559096.580008) can0 140#0000030000000000
(1713559096.581528) can0 400#2880000000000075
(1713559096.582081) can0 551#000000000004C000
(1713559096.582328) can0 540#0000001040009E00
(1713559096.582569) can0 5B0#6342000000000042
(1713559096.582809) can0 5D1#9958000200000000
(1713559096.583098) can0 410#2880008B9F6E8B9F
(1713559096.583345) can0 174#F07F004D3B7908AC
(1713559096.583563) can0 178#FA7F063207930880
(1713559096.583802) can0 17C#0280010014690805
(1713559096.585084) can0 12F#F820002000000057
(1713559096.585317) can0 128#1388030000EC7896
(1713559096.585566) can0 12D#000000000000005F
(1713559096.585813) can0 12E#000000000000C090
(1713559096.586058) can0 290#0000000200000057
(1713559096.586695) can0 120#000000000700004F
(1713559096.586943) can0 121#000000000000005F
(1713559096.587186) can0 129#000000010000005B
(1713559096.591620) can0 400#2880000000000094
(1713559096.592129) can0 541#0440E800007FFF67
(1713559096.592833) can0 410#2880008B9F6E8BAA
(1713559096.593077) can0 174#F07F004D3F7909B7
(1713559096.593307) can0 178#FA7F07390C930951
(1713559096.593543) can0 17C#028001000C69090C
(1713559096.595289) can0 12F#F810012000000078
(1713559096.595536) can0 12D#000000000000006A
(1713559096.595784) can0 290#0000000200000062
(1713559096.600533) can0 140#0000030000000000
(1713559096.601622) can0 400#28800000000000A1
(1713559096.602076) can0 551#000000000004C000
(1713559096.602327) can0 5D1#9958000200000000
(1713559096.602814) can0 410#2880008B9F6E8BC0
(1713559096.603048) can0 174#F07F004D3B790A96
(1713559096.603282) can0 178#F87F082D12930ACA
(1713559096.603568) can0 17C#0280010005690AA8
(1713559096.605043) can0 12F#F820002000000083
(1713559096.605275) can0 128#1388030000EC78A3
(1713559096.605521) can0 12D#000000000000008B
(1713559096.605765) can0 12E#000000000000C0A5
(1713559096.606017) can0 290#0000000200000083
(1713559096.606795) can0 120#000000000700007A
(1713559096.607047) can0 121#000000000000006A
(1713559096.607296) can0 129#000000010000006E
(1713559096.609049) can0 550#48000C0001000023
(1713559096.611713) can0 400#28800000000000CB
(1713559096.611959) can0 6B9#0020400000000000
(1713559096.612210) can0 541#0440E800007FFF86
(1713559096.612447) can0 5A2#1410140000000000
(1713559096.612690) can0 552#00FFFFFFFFFFFF71
(1713559096.612936) can0 410#2880008B9F6E8B21
(1713559096.613157) can0 174#EE7F004D35790B3A
(1713559096.613390) can0 178#F47F093017930BE5
(1713559096.613628) can0 17C#FE7F010008690B2B
(1713559096.613864) can0 450#005500001B004A00
(1713559096.615354) can0 12F#F8200020000000B6
(1713559096.615567) can0 12A#1428701C6058004C
(1713559096.615814) can0 12D#00000000000000BE
(1713559096.616055) can0 290#00000002000000B6
(1713559096.621061) can0 140#0000030000000000
(1713559096.621720) can0 400#288000000000002A
(1713559096.622090) can0 551#000000000004C000
(1713559096.622341) can0 5D1#9958000200000000
(1713559096.622811) can0 410#2880008B9F6E8B4B
(1713559096.623042) can0 174#EC7F004D2F790CC4
(1713559096.623272) can0 178#F07F0A3214930CCA
(1713559096.623511) can0 17C#FA7F010019690C86
(1713559096.625045) can0 12F#F8100020000000C1
(1713559096.625284) can0 128#1388030000EC78C9
(1713559096.625525) can0 12D#00000000000000D4
(1713559096.625768) can0 12E#000000000000C0CF
(1713559096.626016) can0 290#00000002000000DC
(1713559096.626888) can0 120#000000000700009B
(1713559096.627133) can0 121#000000000000008B
(1713559096.627391) can0 129#000000010000008F
(1713559096.631814) can0 400#2880000000000040
(1713559096.632140) can0 541#0440E800007FFFB3
(1713559096.632843) can0 410#2880008B9F6E8B7E
(1713559096.633081) can0 174#EE7F004D27790D6F
(1713559096.633309) can0 178#F07F0B360C930DE7
(1713559096.633548) can0 17C#F47F01002A690D3E
(1713559096.635268) can0 12F#F82001200000003A
(1713559096.635515) can0 12D#0000000000000035
(1713559096.635762) can0 290#000000020000003D
(1713559096.641586) can0 140#0000030000000000
(1713559096.641838) can0 400#2880000000000075
(1713559096.642083) can0 551#000000000004C000
(1713559096.642331) can0 5D1#9958000200000000
(1713559096.642816) can0 410#2880008B9F6E8B9F
(1713559096.643050) can0 174#F27F004D27790E4A
(1713559096.643279) can0 178#F67F0C3004930E7D
(1713559096.643514) can0 17C#F27F010029690E46
(1713559096.645039) can0 12F#F820002000000057
(1713559096.645277) can0 128#1388030000EC7828
(1713559096.645526) can0 12D#000000000000005F
(1713559096.645773) can0 12E#000000000000C02E
(1713559096.646018) can0 290#001000020000005C
(1713559096.646985) can0 120#00000000070000AE
(1713559096.647232) can0 121#00000000000000BE
(1713559096.647476) can0 129#00000001000000BA
(1713559096.651911) can0 400#2880000000000094
(1713559096.652148) can0 541#0440E800007FFFD9
(1713559096.652830) can0 410#2880008B9F6E8BAA
(1713559096.653104) can0 174#F47F004D2D790F8B
(1713559096.653341) can0 178#FA7F000006930F75
(1713559096.653577) can0 17C#F27F010019690F73
(1713559096.655279) can0 12F#F81000200000007F
(1713559096.655527) can0 12D#000000000000006A
(1713559096.655769) can0 290#0010000200000069
(1713559096.658996) can0 550#48000C0001000049
(1713559096.661916) can0 400#28800000000000A1
(1713559096.662163) can0 140#0000030000000000
(1713559096.662410) can0 551#000000000004C000
(1713559096.662664) can0 552#00FFFFFFFFFFFF90
(1713559096.662905) can0 410#2880008B9F6E8BC0
(1713559096.663137) can0 174#F07F004D2F79005A
(1713559096.663376) can0 178#008001300A930009
(1713559096.663612) can0 17C#F27F01001069004B
(1713559096.663852) can0 5D1#9958000200000000
(1713559096.664100) can0 5D2#7444540000000000
(1713559096.664365) can0 450#005500001B004A00
(1713559096.665106) can0 12F#F820002000000083
(1713559096.665340) can0 128#1388030000EC7842
(1713559096.665572) can0 12A#1428701C60580079
(1713559096.665821) can0 12D#000000000000008B
(1713559096.666062) can0 12E#000000000000C044
(1713559096.666315) can0 290#0000000200000083
(1713559096.666553) can0 5A0#0000006244928076
(1713559096.666789) can0 5B1#008A9A6800000077
(1713559096.667031) can0 5D0#9958010200000000
(1713559096.667277) can0 120#00000000070000C4
(1713559096.667522) can0 121#00000000000000D4
(1713559096.667766) can0 129#00000001000000D0
(1713559096.668001) can0 5CF#7444540000000000
(1713559096.672008) can0 400#28800000000000CB
(1713559096.672250) can0 541#0440E800007FFF38
(1713559096.672830) can0 410#2880008B9F6E8B21
(1713559096.673106) can0 174#EE7F004D2F7901FF
(1713559096.673334) can0 178#02800232119301AF
(1713559096.673570) can0 17C#F27F0100136901DA
(1713559096.675280) can0 12F#F8100120000000AC
(1713559096.675529) can0 12D#00000000000000BE
(1713559096.675775) can0 290#00000002000000B6
(1713559096.676025) can0 4EA#0000000000000000
(1713559096.676270) can0 5B2#0800000000000000
(1713559096.676515) can0 310#FFFFFFFF7D7D0000
(1713559096.682013) can0 400#288000000000002A
(1713559096.682258) can0 551#000000000004C000
(1713559096.682508) can0 5D1#9958000200000000
(1713559096.682758) can0 140#0000030000000000
(1713559096.682996) can0 410#2880008B9F6E8B4B
(1713559096.683230) can0 174#EE7F004D2C790254
(1713559096.683468) can0 178#FC7F033614930284
(1713559096.683704) can0 17C#F47F01001F690224
(1713559096.683950) can0 540#0000001040009D00
(1713559096.684190) can0 5B0#6342000000000077
(1713559096.685079) can0 12F#F8200020000000DC
(1713559096.685312) can0 128#1388030000EC7877
(1713559096.685557) can0 12D#00000000000000D4
(1713559096.685805) can0 12E#000000000000C071
(1713559096.686059) can0 290#00000002000000DC
(1713559096.687195) can0 120#0000000007000025
(1713559096.687444) can0 121#0000000000000035
(1713559096.687686) can0 129#0000000100000031
(1713559096.692106) can0 400#2880000000000040
(1713559096.692775) can0 410#2880008B9F6E8B7E
(1713559096.693104) can0 174#F07F004D25790372
(1713559096.693342) can0 178#F27F0435159303A6
(1713559096.693572) can0 17C#F67F01002A690322
(1713559096.694602) can0 541#0440E800007FFF52
(1713559096.695258) can0 12F#F82000200000003D
(1713559096.695507) can0 12D#0000000000000035
(1713559096.695753) can0 290#000000020000003D
(1713559096.702074) can0 551#000000000004C000
(1713559096.702319) can0 400#2880000000000075
(1713559096.702559) can0 5D1#9958000200000000
(1713559096.702799) can0 410#2880008B9F6E8B9F
(1713559096.703059) can0 174#F47F004D2779044B
(1713559096.703310) can0 140#0000030000000000
(1713559096.703545) can0 178#EA7F0530149304A8
(1713559096.703783) can0 17C#F67F01002D6904FB
(1713559096.705066) can0 12F#F81000200000004A
(1713559096.705300) can0 128#1388030000EC7896
(1713559096.705550) can0 12D#000000000000005F
(1713559096.705796) can0 12E#000000000000C090
(1713559096.706042) can0 290#0000000200000057
(1713559096.707297) can0 120#000000000700004F
(1713559096.707547) can0 121#000000000000005F
(1713559096.707789) can0 129#000000010000005B
(1713559096.709049) can0 550#48000C000100007C
(1713559096.712004) can0 6B9#0020400000000000
(1713559096.712245) can0 541#0440E800007FFF67
(1713559096.712491) can0 400#2880000000000094
(1713559096.712735) can0 552#00FFFFFFFFFFFFA5
(1713559096.712972) can0 410#2880008B9F6E8BAA
(1713559096.713202) can0 174#F47F004D2F79055A
(1713559096.713444) can0 178#E87F06310F9305B4
(1713559096.713674) can0 17C#F67F01002A69056C
(1713559096.713912) can0 450#005500001B004A00
(1713559096.714156) can0 5A2#1410140000000000
(1713559096.715346) can0 12F#F820012000000065
(1713559096.715564) can0 12A#1428701C60580098
(1713559096.715808) can0 12D#000000000000006A
(1713559096.716056) can0 290#0000000200000062
(1713559096.722072) can0 551#000000000004C000
(1713559096.722316) can0 400#28800000000000A1
(1713559096.722556) can0 5D1#9958000200000000
(1713559096.722797) can0 410#2880008B9F6E8BC0
(1713559096.723063) can0 174#F27F004D377906BA
(1713559096.723297) can0 178#EE7F073107930626
(1713559096.723536) can0 17C#F47F0100246906F8
(1713559096.723786) can0 140#0000030000000000
(1713559096.725050) can0 12F#F820002000000083
(1713559096.725284) can0 128#1388030000EC78A3
(1713559096.725529) can0 12D#000000000000008B
(1713559096.725773) can0 12E#000000000000C0A5
(1713559096.726025) can0 290#0000000200000083
(1713559096.727395) can0 120#000000000700007A
(1713559096.727642) can0 121#000000000000006A
(1713559096.727890) can0 129#000000010000006E
(1713559096.732119) can0 541#0440E800007FFF86
(1713559096.732362) can0 400#28800000000000CB
(1713559096.732662) can0 410#2880008B9F6E8B21
(1713559096.733114) can0 174#EA7F004D3879074A
(1713559096.733350) can0 178#F27F0831FC920701
(1713559096.733590) can0 17C#F47F01001F69074D
(1713559096.735310) can0 12F#F8100020000000AB
(1713559096.735554) can0 12D#00000000000000BE
(1713559096.735800) can0 290#00000002000000B6
(1713559096.742068) can0 551#000000000004C000
(1713559096.742321) can0 400#288000000000002A
(1713559096.742561) can0 5D1#9958000200000000
(1713559096.742799) can0 410#2880008B9F6E8B4B
(1713559096.743069) can0 174#E87F004D3879084B
(1713559096.743300) can0 178#F67F0930F692082B
(1713559096.743538) can0 17C#F47F01001F6908F6
(1713559096.744226) can0 140#0000030000000000
(1713559096.744998) can0 12F#F8200020000000DC
(1713559096.745234) can0 128#1388030000EC78C9
(1713559096.745479) can0 12D#00000000000000D4
(1713559096.745722) can0 12E#000000000000C0CF
(1713559096.745970) can0 290#00000002000000DC
(1713559096.747487) can0 120#000000000700009B
(1713559096.747729) can0 121#000000000000008B
(1713559096.747973) can0 129#000000010000008F
(1713559096.752123) can0 541#0440E800007FFFB3
(1713559096.752392) can0 400#2880000000000040
(1713559096.752633) can0 410#2880008B9F6E8B7E
(1713559096.753121) can0 174#EA7F004D35790969
(1713559096.753357) can0 178#FE7F0A38F9920940
(1713559096.753595) can0 17C#FA7F0100216909CB
(1713559096.755266) can0 12F#F810012000000027
(1713559096.755515) can0 12D#0000000000000035
(1713559096.755760) can0 290#000000020000003D
(1713559096.759042) can0 550#48000C000100009D
(1713559096.762089) can0 551#000000000004C000
(1713559096.762328) can0 410#2880008B9F6E8B9F
(1713559096.762574) can0 400#2880000000000075
(1713559096.762820) can0 552#00FFFFFFFFFFFFCF
(1713559096.763066) can0 5D1#9958000200000000
(1713559096.763299) can0 174#EE7F004D30790AAE
(1713559096.763535) can0 178#0280000004930A6D
(1713559096.763774) can0 17C#028001001F690ABF
(1713559096.764012) can0 5D2#7444540000000000
(1713559096.764265) can0 450#005500001B004A00
(1713559096.764754) can0 140#0000030000000000
(1713559096.765053) can0 12F#F820002000000057
(1713559096.765291) can0 128#1388030000EC7828
(1713559096.765526) can0 12A#1428701C605800AD
(1713559096.765775) can0 12D#000000000000005F
(1713559096.766021) can0 12E#000000000000C02E
(1713559096.766266) can0 290#0000000200000057
(1713559096.766502) can0 5A0#0000006244928097
(1713559096.766781) can0 5B1#008A9A6800000096
(1713559096.767028) can0 5D0#9958010200000000
(1713559096.767266) can0 5CF#7444540000000000
(1713559096.767593) can0 120#00000000070000AE
(1713559096.767835) can0 121#00000000000000BE
(1713559096.768077) can0 129#00000001000000BA
(1713559096.772120) can0 541#0440E800007FFFD9
(1713559096.772348) can0 410#2880008B9F6E8BAA
(1713559096.772593) can0 400#2880000000000094
(1713559096.773127) can0 174#EE7F004D2D790B2E
(1713559096.773361) can0 178#0480013012930BBB
(1713559096.773599) can0 17C#048001001C690BFD
(1713559096.775308) can0 12F#F820002000000062
(1713559096.775558) can0 12D#000000000000006A
(1713559096.775803) can0 290#0000000200000062
(1713559096.776051) can0 4EA#0000000000000000
(1713559096.776297) can0 5B2#0800000000000000
(1713559096.776542) can0 310#FFFFFFFF7D7D0000
(1713559096.782069) can0 551#000000000004C000
(1713559096.782309) can0 410#2880008B9F6E8BC0
(1713559096.782554) can0 400#28800000000000A1
(1713559096.782795) can0 5D1#9958000200000000
(1713559096.783082) can0 174#EE7F004D2D790C7D
(1713559096.783327) can0 178#0280000018930C31
(1713559096.783557) can0 17C#008001001E690CC4
(1713559096.783803) can0 540#000000103F009E00
(1713559096.784045) can0 5B0#6342000000000096
(1713559096.785025) can0 12F#F81000200000009E
(1713559096.785259) can0 128#1388030000EC7842
(1713559096.785506) can0 12D#000000000000008B
(1713559096.785750) can0 12E#000000000000C044
(1713559096.786000) can0 140#0000030000000000
(1713559096.786252) can0 290#0000000200000083
(1713559096.787673) can0 120#00000000070000C4
(1713559096.787915) can0 121#00000000000000D4
(1713559096.788159) can0 129#00000001000000D0
(1713559096.792119) can0 541#0440E800007FFF38
(1713559096.792351) can0 410#2880008B9F6E8B21
(1713559096.792603) can0 400#28800000000000CB
(1713559096.793133) can0 174#EE7F004D35790D74
(1713559096.793363) can0 178#FE7F015315930DD3
(1713559096.793603) can0 17C#F87F010026690D8F
(1713559096.795265) can0 12F#F8200120000000B1
(1713559096.795515) can0 12D#00000000000000BE
(1713559096.795767) can0 290#00000002000000B6
(1713559096.802068) can0 551#000000000004C000
(1713559096.802305) can0 410#2880008B9F6E8B4B
(1713559096.802545) can0 5D1#9958000200000000
(1713559096.802794) can0 400#288000000000002A
(1713559096.803088) can0 174#EE7F004D42790E91
(1713559096.803331) can0 178#F87F024314930E33
(1713559096.803557) can0 17C#F47F010022690E15
(1713559096.804984) can0 12F#F8200020000000DC
(1713559096.805218) can0 128#1388030000EC7877
(1713559096.805462) can0 12D#00000000000000D4
(1713559096.805710) can0 12E#000000000000C071
(1713559096.805961) can0 140#0000030000000000
(1713559096.806208) can0 290#00000002000000DC
(1713559096.807771) can0 120#0000000007000025
(1713559096.808016) can0 121#0000000000000035
(1713559096.808260) can0 129#0000000100000031
(1713559096.809051) can0 550#48000C00010000A8
(1713559096.812132) can0 541#0440E800007FFF52
(1713559096.812369) can0 410#2880008B9F6E8B7E
(1713559096.812615) can0 552#00FFFFFFFFFFFF2E
(1713559096.812864) can0 400#2880000000000040
(1713559096.813104) can0 450#005500001B004A00
(1713559096.813336) can0 174#F27F004D45790F04
(1713559096.813562) can0 178#F47F033217930F15
(1713559096.813798) can0 17C#F07F010016690F4F
(1713559096.814047) can0 6B9#0020400000000000
(1713559096.814291) can0 5A2#1410140000000000
(1713559096.815398) can0 12F#F810002000000020
(1713559096.815612) can0 12A#1428701C605800C7
(1713559096.815865) can0 12D#0000000000000035
(1713559096.816107) can0 290#000000020000003D
(1713559096.822068) can0 551#000000000004C000
(1713559096.822307) can0 410#2880008B9F6E8B9F
(1713559096.822547) can0 5D1#9958000200000000
(1713559096.822793) can0 400#2880000000000075
(1713559096.823097) can0 174#F27F004D38790072
(1713559096.823330) can0 178#F27F0430189300D7
(1713559096.823568) can0 17C#F07F01000C6900E3
(1713559096.825003) can0 12F#F820002000000057
(1713559096.825236) can0 128#1388030000EC7896
(1713559096.825486) can0 12D#000000000000005F
(1713559096.825732) can0 12E#000000000000C090
(1713559096.825979) can0 290#0000000200000057
(1713559096.826341) can0 140#0000030000000000
(1713559096.827859) can0 120#000000000700004F
(1713559096.828105) can0 121#000000000000005F
(1713559096.828349) can0 129#000000010000005B
(1713559096.832095) can0 410#2880008B9F6E8BAA
(1713559096.832335) can0 541#0440E800007FFF67
(1713559096.832779) can0 400#2880000000000094
(1713559096.833148) can0 174#F27F004D2C790171
(1713559096.833381) can0 178#F27F053015930125
(1713559096.833617) can0 17C#EE7F01000C690146
(1713559096.835270) can0 12F#F810012000000078
(1713559096.835520) can0 12D#000000000000006A
(1713559096.835764) can0 290#0000000200000062
(1713559096.842078) can0 410#2880008B9F6E8BC0
(1713559096.842317) can0 551#000000000004C000
(1713559096.842565) can0 5D1#9958000200000000
(1713559096.842826) can0 400#28800000000000A1
(1713559096.843148) can0 174#F27F004D2C790256
(1713559096.843403) can0 178#F27F06321193029D
(1713559096.843616) can0 17C#EC7F01001C6902C3
(1713559096.845037) can0 12F#F820002000000083
(1713559096.845273) can0 128#1388030000EC78A3
(1713559096.845519) can0 12D#000000000000008B
(1713559096.845764) can0 12E#000000000000C0A5
(1713559096.845967) can0 290#0000000200000083
(1713559096.846868) can0 140#0000030000000000
(1713559096.847908) can0 120#000000000700007A
(1713559096.848161) can0 121#000000000000006A
(1713559096.848408) can0 129#000000010000006E
(1713559096.851991) can0 410#2880008B9F6E8B21
(1713559096.852233) can0 541#0440E800007FFF86
(1713559096.852828) can0 400#28800000000000CB
(1713559096.853110) can0 174#F27F004D30790359
(1713559096.853344) can0 178#F27F0737129303B5
(1713559096.853631) can0 17C#EE7F01002D6903C3
(1713559096.855267) can0 12F#F8100020000000AB
(1713559096.855514) can0 12D#00000000000000BE
(1713559096.855760) can0 290#00000002000000B6
(1713559096.859042) can0 550#48000C00010000C2
(1713559096.862014) can0 410#2880008B9F6E8B4B
(1713559096.862259) can0 551#000000000004C000
(1713559096.862512) can0 552#00FFFFFFFFFFFF44
(1713559096.862758) can0 5D1#9958000200000000
(1713559096.863008) can0 400#288000000000002A
(1713559096.863238) can0 174#F07F004D327904B3
(1713559096.863474) can0 178#F47F085F17930482
(1713559096.863712) can0 17C#F47F01002D690441
(1713559096.863950) can0 5D2#7444540000000000
(1713559096.864200) can0 450#005500001B004A00
(1713559096.865102) can0 12F#F8200020000000DC
(1713559096.865339) can0 128#1388030000EC78C9
(1713559096.865572) can0 12A#1428701C60580026
(1713559096.865817) can0 12D#00000000000000D4
(1713559096.866012) can0 12E#000000000000C0CF
(1713559096.866261) can0 290#00000002000000DC
(1713559096.866499) can0 5A0#00000062449280A2
(1713559096.866735) can0 5B1#008A9A68000000A3
(1713559096.866977) can0 5D0#9958010200000000
(1713559096.867215) can0 5CF#7444540000000000
(1713559096.867467) can0 140#0000030000000000
(1713559096.868010) can0 120#000000000700009B
(1713559096.868254) can0 121#000000000000008B
(1713559096.868496) can0 129#000000010000008F
(1713559096.871953) can0 410#2880008B9F6E8B7E
(1713559096.872195) can0 541#0440E800007FFFB3
(1713559096.872933) can0 400#2880000000000040
(1713559096.873164) can0 174#F07F004D2F790533
(1713559096.873396) can0 178#F67F0930179305F9
(1713559096.873685) can0 17C#008001001C690532
(1713559096.875223) can0 4EA#0000000000000000
(1713559096.875470) can0 12D#0000000000000035
(1713559096.875712) can0 12F#F810002000000020
(1713559096.875959) can0 290#000000020000003D
(1713559096.876205) can0 5B2#0800000000000000
(1713559096.876451) can0 310#FFFFFFFF7D7D0000
(1713559096.881993) can0 410#2880008B9F6E8B9F
(1713559096.882233) can0 551#000000000004C000
(1713559096.882488) can0 5D1#9958000200000000
(1713559096.883023) can0 400#2880000000000075
(1713559096.883252) can0 174#F27F004D2D7906AD
(1713559096.883485) can0 178#F87F0A371293061C
(1713559096.883724) can0 17C#088001000E6906DC
(1713559096.883970) can0 540#0000001040009E00
(1713559096.884211) can0 5B0#63420000000000A3
(1713559096.885076) can0 12F#F820012000000050
(1713559096.885314) can0 128#1388030000EC7828
(1713559096.885564) can0 12D#000000000000005F
(1713559096.885808) can0 12E#000000000000C02E
(1713559096.886054) can0 290#0000000200000057
(1713559096.887926) can0 140#0000030000000000
(1713559096.888170) can0 120#00000000070000AE
(1713559096.888417) can0 121#00000000000000BE
(1713559096.888659) can0 129#00000001000000BA
(1713559096.891909) can0 410#2880008B9F6E8BAA
(1713559096.892151) can0 541#0440E800007FFFD9
(1713559096.893028) can0 400#2880000000000094
(1713559096.893264) can0 174#F27F004D3079072D
(1713559096.893502) can0 178#F87F0B310F93079F
(1713559096.893739) can0 17C#068001000969074A
(1713559096.895274) can0 12F#F81000200000007F
(1713559096.895521) can0 12D#000000000000006A
(1713559096.895769) can0 290#0000000200000062
(1713559096.901938) can0 410#2880008B9F6E8BC0
(1713559096.902180) can0 551#000000000004C000
(1713559096.902433) can0 5D1#9958000200000000
(1713559096.903121) can0 400#28800000000000A1
(1713559096.903381) can0 174#EE7F004D3579081D
(1713559096.903602) can0 178#F87F00000F93081F
(1713559096.903833) can0 17C#0280010005690892
(1713559096.905043) can0 12F#F820002000000083
(1713559096.905274) can0 128#1388030000EC7842
(1713559096.905519) can0 12D#000000000000008B
(1713559096.905763) can0 12E#000000000000C044
(1713559096.906013) can0 290#0010000200000088
(1713559096.908178) can0 120#00000000070000C4
(1713559096.908421) can0 121#00000000000000D4
(1713559096.908663) can0 129#00000001000000D0
(1713559096.908913) can0 140#0000030000000000
(1713559096.909156) can0 550#48000C0001000023
(1713559096.911857) can0 410#2880008B9F6E8B21
(1713559096.912100) can0 541#0440E800007FFF38
(1713559096.912348) can0 6B9#0020400000000000
(1713559096.912592) can0 552#00FFFFFFFFFFFF71
(1713559096.912837) can0 5A2#1410140000000000
(1713559096.913077) can0 450#005500001B004A00
(1713559096.913305) can0 174#EA7F004D387909EC
(1713559096.913535) can0 178#FA7F0137129309D4
(1713559096.913773) can0 17C#FE7F0100FB680959
(1713559096.914019) can0 400#28800000000000CB
(1713559096.915354) can0 12F#F8100020000000AB
(1713559096.915558) can0 12A#1428701C6058004C
(1713559096.915805) can0 12D#00000000000000BE
(1713559096.916052) can0 290#00100002000000BD
(1713559096.921882) can0 410#2880008B9F6E8B4B
(1713559096.922124) can0 551#000000000004C000
(1713559096.922372) can0 5D1#9958000200000000
(1713559096.923189) can0 174#EA7F004C3B790ADA
(1713559096.923436) can0 178#F87F022E17930A5A
(1713559096.923668) can0 17C#FA7F0100FB680A17
(1713559096.923917) can0 400#288000000000002A
(1713559096.925042) can0 12F#F8200020000000DC
(1713559096.925276) can0 128#1388030000EC7877
(1713559096.925520) can0 12D#00000000000000D4
(1713559096.925768) can0 12E#000000000000C071
(1713559096.926016) can0 290#00000002000000DC
(1713559096.928275) can0 120#0000000007000025
(1713559096.928523) can0 121#0000000000000035
(1713559096.928767) can0 129#0000000100000031
(1713559096.929017) can0 140#0000030000000000
(1713559096.931806) can0 410#2880008B9F6E8B7E
(1713559096.932077) can0 541#0440E800007FFF52
(1713559096.933129) can0 174#EA7F004D3A790BD5
(1713559096.933361) can0 178#FA7F03311A930B5F
(1713559096.933600) can0 17C#F67F010006690BF0
(1713559096.933848) can0 400#2880000000000040
(1713559096.935271) can0 12F#F810002000000020
(1713559096.935515) can0 12D#0000000000000035
(1713559096.935762) can0 290#000000020000003D
(1713559096.941831) can0 410#2880008B9F6E8B9F
(1713559096.942122) can0 551#000000000004C000
(1713559096.942370) can0 5D1#9958000200000000
(1713559096.943180) can0 174#EC7F004D32790C59
(1713559096.943415) can0 178#FC7F043017930CCC
(1713559096.943654) can0 17C#F67F010017690C34
(1713559096.943894) can0 400#2880000000000075
(1713559096.945037) can0 12F#F820012000000050
(1713559096.945270) can0 128#1388030000EC7896
(1713559096.945521) can0 12D#000000000000005F
(1713559096.945767) can0 12E#000000000000C090
(1713559096.946013) can0 290#0000000200000057
(1713559096.948370) can0 120#000000000700004F
(1713559096.948618) can0 121#000000000000005F
(1713559096.948861) can0 129#000000010000005B
(1713559096.949513) can0 140#0000030000000000
(1713559096.951742) can0 410#2880008B9F6E8BAA
(1713559096.952084) can0 541#0440E800007FFF67
(1713559096.953148) can0 174#EA7F004D29790D0F
(1713559096.953384) can0 178#FC7F00000C930D93
(1713559096.953621) can0 17C#FA7F010022690D33
(1713559096.953867) can0 400#2880000000000094
(1713559096.955268) can0 12F#F81000200000007F
(1713559096.955516) can0 12D#000000000000006A
(1713559096.955763) can0 290#0000000200000062
(1713559096.959045) can0 550#48000C0001000049
(1713559096.961798) can0 410#2880008B9F6E8BC0
(1713559096.962147) can0 551#000000000004C000
(1713559096.962403) can0 552#00FFFFFFFFFFFF90
(1713559096.962652) can0 5D1#9958000200000000
(1713559096.962892) can0 5D2#7444540000000000
(1713559096.963137) can0 450#005500001B004A00
(1713559096.963384) can0 174#EA7F004D21790E24
(1713559096.963600) can0 178#FE7F013801930E12
(1713559096.963846) can0 17C#FE7F01001E690E5F
(1713559096.964088) can0 400#28800000000000A1
(1713559096.965096) can0 12F#F820002000000083
(1713559096.965332) can0 128#1388030000EC78A3
(1713559096.965565) can0 12A#1428701C60580079
(1713559096.965810) can0 12D#000000000000008B
(1713559096.966055) can0 12E#000000000000C0A5
(1713559096.966307) can0 290#0000000200000083
(1713559096.966544) can0 5A0#00000062449280C8
(1713559096.966779) can0 5B1#008A9A68000000C9
(1713559096.967021) can0 5D0#9958010200000000
(1713559096.967262) can0 5CF#7444540000000000
(1713559096.968470) can0 120#000000000700007A
(1713559096.968722) can0 121#000000000000006A
(1713559096.968970) can0 129#000000010000006E
(1713559096.970046) can0 140#0000030000000000
(1713559096.971743) can0 410#2880008B9F6E8B21
(1713559096.972072) can0 541#0440E800007FFF86
(1713559096.973146) can0 174#EC7F004D21790FEA
(1713559096.973384) can0 178#0080023201930FAB
(1713559096.973623) can0 17C#FE7F010019690FC8
(1713559096.973869) can0 400#28800000000000CB
(1713559096.974971) can0 4EA#0000000000000000
(1713559096.975216) can0 5B2#0800000000000000
(1713559096.975514) can0 12D#00000000000000BE
(1713559096.975751) can0 12F#F8100020000000AB
(1713559096.975998) can0 290#00000002000000B6
(1713559096.976246) can0 310#FFFFFFFF7D7D0000
(1713559096.981805) can0 410#2880008B9F6E8B4B
(1713559096.982502) can0 551#000000000004C000
(1713559096.982751) can0 5D1#9958000200000000
(1713559096.983202) can0 174#F07F004D227900DF
(1713559096.983442) can0 178#008003320A9300FA
(1713559096.983677) can0 17C#FA7F01001C690093
(1713559096.983925) can0 400#288000000000002A
(1713559096.984180) can0 540#0000001040009D00
(1713559096.984414) can0 5B0#63420000000000C9
(1713559096.985076) can0 12F#F8200020000000DC
(1713559096.985312) can0 128#1388030000EC78C9
(1713559096.985556) can0 12D#00000000000000D4
(1713559096.985800) can0 12E#000000000000C0CF
(1713559096.986049) can0 290#00000002000000DC
(1713559096.988569) can0 120#000000000700009B
(1713559096.988813) can0 121#000000000000008B
(1713559096.989054) can0 129#000000010000008F
(1713559096.990575) can0 140#0000030000000000
(1713559096.991748) can0 410#2880008B9F6E8B7E
(1713559096.992071) can0 541#0440E800007FFFB3
(1713559096.993151) can0 174#F27F004D2479017D
(1713559096.993383) can0 178#FE7F0435129301AD
(1713559096.993619) can0 17C#F67F01001669013A
(1713559096.993867) can0 400#2880000000000040
(1713559096.995216) can0 12F#F810002000000020
(1713559096.995463) can0 12D#0000000000000035
(1713559096.995710) can0 290#000000020000003D
(1713559097.001798) can0 410#2880008B9F6E8B9F
(1713559097.002127) can0 551#000000000004C000
(1713559097.002376) can0 5D1#9958000200000000
(1713559097.003201) can0 174#F27F004D2479025A
(1713559097.003443) can0 178#FA7F0000129302EA
(1713559097.003679) can0 17C#F67F01000169028F
(1713559097.003925) can0 400#2880000000000075
(1713559097.005043) can0 12F#F820002000000057
(1713559097.005282) can0 128#1388030000EC7828
(1713559097.005539) can0 12D#000000000000005F
(1713559097.005778) can0 12E#000000000000C02E
(1713559097.006022) can0 290#0000000200000057
(1713559097.008712) can0 120#00000000070000AE
(1713559097.008956) can0 121#00000000000000BE
(1713559097.009198) can0 129#00000001000000BA
(1713559097.009403) can0 550#48000C000100007C
(1713559097.011103) can0 140#0000030000000000
(1713559097.011797) can0 410#2880008B9F6E8BAA
(1713559097.012089) can0 541#0440E800007FFFD9
(1713559097.012341) can0 552#00FFFFFFFFFFFFA5
(1713559097.012590) can0 6B9#0020400000000000
(1713559097.012829) can0 450#005500001B004A00
(1713559097.013073) can0 5A2#1410140000000000
(1713559097.013303) can0 174#F27F004D24790347
(1713559097.013537) can0 178#F67F01320D9303F0
(1713559097.013777) can0 17C#FC7F0100FA6803BE
(1713559097.014024) can0 400#2880000000000094
(1713559097.015287) can0 12F#F810012000000078
(1713559097.015523) can0 12A#1428701C60580098
(1713559097.015769) can0 12D#000000000000006A
(1713559097.016016) can0 290#0000000200000062
(1713559097.021799) can0 410#2880008B9F6E8BC0
(1713559097.022123) can0 551#000000000004C000
(1713559097.022373) can0 5D1#9958000200000000
(1713559097.023211) can0 174#F07F004D247904AE
(1713559097.023446) can0 178#F27F02300793045C
(1713559097.023686) can0 17C#028001000C69048D
(1713559097.023929) can0 400#28800000000000A1
(1713559097.025046) can0 12F#F820002000000083
(1713559097.025280) can0 128#1388030000EC7842
(1713559097.025526) can0 12D#000000000000008B
(1713559097.025777) can0 12E#000000000000C044
(1713559097.026024) can0 290#0000000200000083
(1713559097.028815) can0 120#00000000070000C4
(1713559097.029057) can0 121#00000000000000D4
(1713559097.029298) can0 129#00000001000000D0
(1713559097.031634) can0 140#0000030000000000
(1713559097.031868) can0 410#2880008B9F6E8B21
(1713559097.032113) can0 541#0440E800007FFF38
(1713559097.033162) can0 174#EE7F004D2979058E
(1713559097.033398) can0 178#EA7F0332FE920520
(1713559097.033639) can0 17C#008001001E690531
(1713559097.033886) can0 400#28800000000000CB
(1713559097.035211) can0 12F#F8100020000000AB
(1713559097.035460) can0 12D#00000000000000BE
(1713559097.035705) can0 290#00000002000000B6
(1713559097.041796) can0 410#2880008B9F6E8B4B
(1713559097.042120) can0 551#000000000004C000
(1713559097.042370) can0 5D1#9958000200000000
(1713559097.043216) can0 174#EE7F004D32790631
(1713559097.043452) can0 178#E87F0433FC920628
(1713559097.043691) can0 17C#FC7F01001B690684
(1713559097.043939) can0 400#288000000000002A
(1713559097.045036) can0 12F#F8200020000000DC
(1713559097.045270) can0 128#1388030000EC7877
(1713559097.045515) can0 12D#00000000000000D4
(1713559097.045763) can0 12E#000000000000C071
(1713559097.046019) can0 290#00000002000000DC
(1713559097.048918) can0 120#0000000007000025
(1713559097.049160) can0 121#0000000000000035
(1713559097.049404) can0 129#0000000100000031
(1713559097.051747) can0 410#2880008B9F6E8B7E
(1713559097.052075) can0 541#0440E800007FFF52
(1713559097.052325) can0 140#0000030000000000
(1713559097.053172) can0 174#EE7F004D38790723
(1713559097.053404) can0 178#EA7F05310993078F
(1713559097.053644) can0 17C#FA7F0100146907CC
(1713559097.053892) can0 400#2880000000000040
(1713559097.055188) can0 6E2#0544000000000000
(1713559097.055435) can0 12D#0000000000000035
(1713559097.055678) can0 12F#F810002000000020
(1713559097.055927) can0 290#000000020000003D
(1713559097.059043) can0 550#48000C000100009D
(1713559097.061796) can0 410#2880008B9F6E8B9F
(1713559097.062144) can0 551#000000000004C000
(1713559097.062395) can0 552#00FFFFFFFFFFFFCF
(1713559097.062642) can0 5D1#9958000200000000
(1713559097.062884) can0 5D2#7444540000000000
(1713559097.063132) can0 450#005500001B004A00
(1713559097.063395) can0 174#F07F004D3D7908A9
(1713559097.063597) can0 178#F07F0630159308D4
(1713559097.063832) can0 17C#FA7F0100196908F2
(1713559097.064078) can0 400#2880000000000075
(1713559097.065137) can0 12F#F820002000000057
(1713559097.065370) can0 128#1388030000EC7896
(1713559097.065604) can0 12A#1428701C605800AD
(1713559097.065854) can0 12D#000000000000005F
(1713559097.066109) can0 12E#000000000000C090
(1713559097.066348) can0 290#0000000200000057
(1713559097.066585) can0 5A0#0000006244928029
(1713559097.066825) can0 5B1#008A9A6800000028
(1713559097.067065) can0 5D0#9958010200000000
(1713559097.067303) can0 5CF#7444540000000000
(1713559097.069002) can0 120#000000000700004F
(1713559097.069248) can0 121#000000000000005F
(1713559097.069492) can0 129#000000010000005B
(1713559097.071722) can0 410#2880008B9F6E8BAA
(1713559097.072069) can0 541#0440E800007FFF67
(1713559097.072690) can0 140#0000030000000000
(1713559097.073177) can0 174#F07F004D3F7909B7
(1713559097.073410) can0 178#FC7F07311493090A
(1713559097.073646) can0 17C#FA7F01001E690965
(1713559097.073916) can0 400#2880000000000094
(1713559097.074766) can0 4EA#0000000000000000
(1713559097.075012) can0 5B2#0800000000000000
(1713559097.075260) can0 12F#F81000200000007F
(1713559097.075508) can0 12D#000000000000006A
(1713559097.075754) can0 290#0000000200000062
(1713559097.076000) can0 310#FFFFFFFF7D7D0000
(1713559097.081700) can0 410#2880008B9F6E8BC0
(1713559097.082077) can0 551#000000000004C000
(1713559097.082326) can0 5D1#9958000200000000
(1713559097.083180) can0 174#F07F004D38790A1A
(1713559097.083467) can0 178#048008380C930A36
(1713559097.083703) can0 17C#FA7F010022690A60
(1713559097.083991) can0 400#28800000000000A1
(1713559097.084623) can0 540#0000001040009E00
(1713559097.084864) can0 5B0#6342000000000028
(1713559097.085109) can0 12D#000000000000008B
(1713559097.085345) can0 128#1388030000EC78A3
(1713559097.085589) can0 12E#000000000000C0A5
(1713559097.085836) can0 12F#F820002000000083
(1713559097.086090) can0 290#0000000200000083
(1713559097.089101) can0 120#000000000700007A
(1713559097.089350) can0 121#000000000000006A
(1713559097.089598) can0 129#000000010000006E
(1713559097.091719) can0 410#2880008B9F6E8B21
(1713559097.092102) can0 541#0440E800007FFF86
(1713559097.093231) can0 174#F07F004D2F790B95
(1713559097.093480) can0 140#0000030000000000
(1713559097.093718) can0 178#FE7F000004930B6B
(1713559097.093956) can0 17C#FC7F01002D690B28
(1713559097.094203) can0 400#28800000000000CB
(1713559097.095301) can0 12F#F8100120000000AC
(1713559097.095552) can0 12D#00000000000000BE
(1713559097.095747) can0 290#00000002000000B6
(1713559097.101645) can0 410#2880008B9F6E8B4B
(1713559097.102052) can0 551#000000000004C000
(1713559097.102303) can0 5D1#9958000200000000
(1713559097.103184) can0 174#F07F004D29790CC3
(1713559097.103421) can0 178#F67F000004930CEA
(1713559097.103704) can0 17C#FE7F01002A690C4B
(1713559097.104090) can0 400#288000000000002A
(1713559097.105048) can0 12F#F8200020000000DC
(1713559097.105282) can0 128#1388030000EC78C9
(1713559097.105526) can0 12D#00000000000000D4
(1713559097.105770) can0 12E#000000000000C0CF
(1713559097.106018) can0 290#00000002000000DC
(1713559097.109045) can0 550#48000C00010000A8
(1713559097.109289) can0 120#000000000700009B
(1713559097.109533) can0 121#000000000000008B
(1713559097.109775) can0 129#000000010000008F
(1713559097.111669) can0 410#2880008B9F6E8B7E
(1713559097.112118) can0 541#0440E800007FFFB3
(1713559097.112378) can0 552#00FFFFFFFFFFFF2E
(1713559097.112620) can0 450#005500001B004A00
(1713559097.112867) can0 6B9#0020400000000000
(1713559097.113112) can0 5A2#1410140000000000
(1713559097.113340) can0 174#F27F004D27790D6D
(1713559097.113570) can0 178#F27F01520C930D6E
(1713559097.113819) can0 140#0000030000000000
(1713559097.114056) can0 17C#028001001E690D63
(1713559097.114305) can0 400#2880000000000040
(1713559097.115345) can0 12F#F810002000000020
(1713559097.115566) can0 12A#1428701C605800C7
(1713559097.115811) can0 12D#0000000000000035
(1713559097.116056) can0 290#000000020000003D
(1713559097.121594) can0 410#2880008B9F6E8B9F
(1713559097.122053) can0 551#000000000004C000
(1713559097.122303) can0 5D1#9958000200000000
(1713559097.123192) can0 174#F27F004D27790E4A
(1713559097.123419) can0 178#F27F026F12930EC6
(1713559097.123655) can0 17C#0280010019690ECE
(1713559097.124185) can0 400#2880000000000075
(1713559097.125037) can0 12F#F820002000000057
(1713559097.125277) can0 128#1388030000EC7828
(1713559097.125525) can0 12D#000000000000005F
(1713559097.125769) can0 12E#000000000000C02E
(1713559097.126015) can0 290#0000000200000057
(1713559097.129294) can0 120#00000000070000AE
(1713559097.129538) can0 121#00000000000000BE
(1713559097.129780) can0 129#00000001000000BA
(1713559097.131286) can0 410#2880008B9F6E8BAA
(1713559097.132097) can0 541#0440E800007FFFD9
(1713559097.133253) can0 174#F07F004D25790FEE
(1713559097.133480) can0 178#F67F03620C930F86
(1713559097.133717) can0 17C#028001001C690F5A
(1713559097.134246) can0 400#2880000000000094
(1713559097.134497) can0 140#0000030000000000
(1713559097.135267) can0 12F#F81000200000007F
(1713559097.135514) can0 12D#000000000000006A
(1713559097.135761) can0 290#0000000200000062
(1713559097.141218) can0 410#2880008B9F6E8BC0
(1713559097.142047) can0 551#000000000004C000
(1713559097.142297) can0 5D1#9958000200000000
(1713559097.143201) can0 174#EE7F004D277900EE
(1713559097.143441) can0 178#FA7F0465079300F9
(1713559097.143679) can0 17C#028001002169004C
(1713559097.144233) can0 400#28800000000000A1
(1713559097.145032) can0 12F#F820002000000083
(1713559097.145265) can0 128#1388030000EC7842
(1713559097.145511) can0 12D#000000000000008B
(1713559097.145758) can0 12E#000000000000C044
(1713559097.146006) can0 290#0010000200000088
(1713559097.149391) can0 120#00000000070000C4
(1713559097.149632) can0 121#00000000000000D4
(1713559097.149874) can0 129#00000001000000D0
(1713559097.151234) can0 410#2880008B9F6E8B21
(1713559097.152107) can0 541#0440E800007FFF38
(1713559097.153253) can0 174#EE7F004D30790161
(1713559097.153490) can0 178#008005720993019E
(1713559097.153731) can0 17C#008001001F6901CA
(1713559097.154337) can0 400#28800000000000CB
(1713559097.154843) can0 140#0000030000000000
(1713559097.155261) can0 12F#F8100020000000AB
(1713559097.155510) can0 12D#00000000000000BE
(1713559097.155755) can0 290#00100002000000BD
(1713559097.158994) can0 550#48000C00010000C2
(1713559097.161161) can0 410#2880008B9F6E8B4B
(1713559097.162070) can0 551#000000000004C000
(1713559097.162324) can0 552#00FFFFFFFFFFFF44
(1713559097.162570) can0 5D1#9958000200000000
(1713559097.162814) can0 5D2#7444540000000000
(1713559097.163060) can0 450#005500001B004A00
(1713559097.163292) can0 174#F27F004D38790248
(1713559097.163531) can0 178#008006740F93026B
(1713559097.163770) can0 17C#00800100196902E8
(1713559097.164332) can0 400#288000000000002A
(1713559097.165096) can0 12F#F8100020000000C1
(1713559097.165331) can0 128#1388030000EC7877
(1713559097.165564) can0 12A#1428701C60580026
(1713559097.165809) can0 12D#00000000000000D4
(1713559097.166057) can0 12E#000000000000C071
(1713559097.166306) can0 290#00000002000000DC
(1713559097.166546) can0 5A0#0000006244928043
(1713559097.166779) can0 5B1#008A9A6800000042
(1713559097.167021) can0 5D0#9958010200000000
(1713559097.167259) can0 5CF#7444540000000000
(1713559097.169487) can0 120#0000000007000025
(1713559097.169734) can0 121#0000000000000035
(1713559097.169978) can0 129#0000000100000031
(1713559097.171184) can0 410#2880008B9F6E8B7E
(1713559097.173257) can0 174#F67F004D34790336
(1713559097.173497) can0 178#FA7F0720149303B3
(1713559097.173732) can0 17C#0080010014690370
(1713559097.174431) can0 400#2880000000000040
(1713559097.174681) can0 4EA#0000000000000000
(1713559097.174923) can0 541#0440E800007FFF52
(1713559097.175168) can0 5B2#0800000000000000
(1713559097.175417) can0 12D#0000000000000035
(1713559097.175659) can0 12F#F82001200000003A
(1713559097.175906) can0 140#0000030000000000
(1713559097.176155) can0 290#000000020000003D
(1713559097.176400) can0 310#FFFFFFFF7D7D0000
(1713559097.181111) can0 410#2880008B9F6E8B9F
(1713559097.182052) can0 551#000000000004C000
(1713559097.182302) can0 5D1#9958000200000000
(1713559097.183214) can0 174#F87F004D22790479
(1713559097.183452) can0 178#F87F0842149304DF
(1713559097.183693) can0 17C#0080010014690423
(1713559097.184426) can0 400#2880000000000075
(1713559097.185054) can0 12F#F81000200000004A
(1713559097.185289) can0 128#1388030000EC7896
(1713559097.185539) can0 12D#000000000000005F
(1713559097.185785) can0 12E#000000000000C090
(1713559097.186031) can0 290#0000000200000057
(1713559097.186282) can0 540#000000103F009E00
(1713559097.186520) can0 5B0#6342000000000042
(1713559097.189584) can0 120#000000000700004F
(1713559097.189830) can0 121#000000000000005F
(1713559097.190074) can0 129#000000010000005B
(1713559097.191126) can0 410#2880008B9F6E8BAA
(1713559097.192097) can0 541#0440E800007FFF67
(1713559097.193262) can0 174#F27F004D14790521
(1713559097.193495) can0 178#F87F096F15930522
(1713559097.193742) can0 17C#0280010016690587
(1713559097.194525) can0 400#2880000000000094
(1713559097.195305) can0 12F#F820002000000062
(1713559097.195553) can0 12D#000000000000006A
(1713559097.195800) can0 290#0000000200000062
(1713559097.196049) can0 140#0000030000000000
(1713559097.201056) can0 410#2880008B9F6E8BC0
(1713559097.202048) can0 551#000000000004C000
(1713559097.202297) can0 5D1#9958000200000000
(1713559097.203223) can0 174#EA7F004D1079066B
(1713559097.203454) can0 178#F47F0A73159306F7
(1713559097.203694) can0 17C#08800100166906C8
(1713559097.204532) can0 400#28800000000000A1
(1713559097.204985) can0 12F#F81000200000009E
(1713559097.205270) can0 128#1388030000EC78A3
(1713559097.205516) can0 12D#000000000000008B
(1713559097.205760) can0 12E#000000000000C0A5
(1713559097.206012) can0 290#0000000200000083
(1713559097.209044) can0 550#48000C0001000023
(1713559097.209681) can0 120#000000000700007A
(1713559097.209933) can0 121#000000000000006A
(1713559097.210181) can0 129#000000010000006E
(1713559097.211073) can0 410#2880008B9F6E8B21
(1713559097.212115) can0 541#0440E800007FFF86
(1713559097.212363) can0 552#00FFFFFFFFFFFF71
(1713559097.212609) can0 450#005500001B004A00
(1713559097.212901) can0 6B9#0020400000000000
(1713559097.213145) can0 5A2#1410140000000000
(1713559097.213377) can0 174#E87F004D167907C9
(1713559097.213609) can0 178#F67F0B630F930708
(1713559097.213857) can0 17C#0880010019690753
(1713559097.214625) can0 400#28800000000000CB
(1713559097.215345) can0 12F#F8100020000000AB
(1713559097.215559) can0 12A#1428701C6058004C
(1713559097.215806) can0 12D#00000000000000BE
(1713559097.216052) can0 290#00000002000000B6
(1713559097.216416) can0 140#0000030000000000
(1713559097.221003) can0 410#2880008B9F6E8B4B
(1713559097.222047) can0 551#000000000004C000
(1713559097.222298) can0 5D1#9958000200000000
(1713559097.223224) can0 174#EE7F004D27790806
(1713559097.223455) can0 178#FC7F0C68099308F3
(1713559097.223694) can0 17C#0480010021690877
(1713559097.224630) can0 400#288000000000002A
(1713559097.224990) can0 12F#F8200020000000DC
(1713559097.225225) can0 128#1388030000EC78C9
(1713559097.225469) can0 12D#00000000000000D4
(1713559097.225713) can0 12E#000000000000C0CF
(1713559097.225961) can0 290#00000002000000DC
(1713559097.229778) can0 120#000000000700009B
(1713559097.230020) can0 121#000000000000008B
(1713559097.230262) can0 129#000000010000008F
(1713559097.231022) can0 410#2880008B9F6E8B7E
(1713559097.232095) can0 541#0440E800007FFFB3
(1713559097.233278) can0 174#F47F004D38790954
(1713559097.233513) can0 178#FC7F0D200D93098A
(1713559097.233747) can0 17C#0480010029690966
(1713559097.234718) can0 400#2880000000000040
(1713559097.235266) can0 12F#F810002000000020
(1713559097.235513) can0 12D#0000000000000035
(1713559097.235759) can0 290#000000020000003D
(1713559097.236945) can0 140#0000030000000000
(1713559097.240950) can0 410#2880008B9F6E8B9F
(1713559097.242045) can0 551#000000000004C000
(1713559097.242295) can0 5D1#9958000200000000
(1713559097.243227) can0 174#F27F004D42790AE7
(1713559097.243460) can0 178#FA7F0E4715930AFE
(1713559097.243699) can0 17C#008001002D690A2E
(1713559097.244723) can0 400#2880000000000075
(1713559097.245016) can0 12F#F81001200000004D
(1713559097.245254) can0 128#1388030000EC7828
(1713559097.245505) can0 12D#000000000000005F
(1713559097.245748) can0 12E#000000000000C02E
(1713559097.245994) can0 290#0000000200000057
(1713559097.249875) can0 120#00000000070000AE
(1713559097.250119) can0 121#00000000000000BE
(1713559097.250361) can0 129#00000001000000BA
(1713559097.250991) can0 410#2880008B9F6E8BAA
(1713559097.252098) can0 541#0440E800007FFFD9
(1713559097.253282) can0 174#F27F004D42790BFA
(1713559097.253513) can0 178#FA7F0F6D1A930BFE
(1713559097.253752) can0 17C#F87F010029690B47
(1713559097.254814) can0 400#2880000000000094
(1713559097.255275) can0 12F#F820002000000062
(1713559097.255519) can0 12D#000000000000006A
(1713559097.255766) can0 290#0000000200000062
(1713559097.257472) can0 140#0000030000000000
(1713559097.259003) can0 550#48000C0001000049
(1713559097.260921) can0 410#2880008B9F6E8BC0
(1713559097.262066) can0 551#000000000004C000
(1713559097.262322) can0 552#00FFFFFFFFFFFF90
(1713559097.262568) can0 5D1#9958000200000000
(1713559097.262812) can0 5D2#7444540000000000
(1713559097.263058) can0 450#005500001B004A00
(1713559097.263286) can0 174#F27F004D3A790CED
(1713559097.263521) can0 178#F87F00621A930C03
(1713559097.263758) can0 17C#F67F010021690C19
(1713559097.264821) can0 400#28800000000000A1
(1713559097.265064) can0 12F#F81000200000009E
(1713559097.265297) can0 128#1388030000EC7842
(1713559097.265529) can0 12A#1428701C60580079
(1713559097.265775) can0 12D#000000000000008B
(1713559097.266019) can0 12E#000000000000C044
(1713559097.266291) can0 290#0000000200000083
(1713559097.266557) can0 5A0#0000006244928076
(1713559097.266793) can0 5B1#008A9A6800000077
(1713559097.267036) can0 5D0#9958010200000000
(1713559097.267274) can0 5CF#7444540000000000
(1713559097.269971) can0 120#00000000070000C4
(1713559097.270212) can0 121#00000000000000D4
(1713559097.270455) can0 129#00000001000000D0
(1713559097.270938) can0 410#2880008B9F6E8B21
(1713559097.272097) can0 541#0440E800007FFF38
(1713559097.273287) can0 174#F07F004D2F790DDB
(1713559097.273518) can0 178#FA7F014817930DBA
(1713559097.273759) can0 17C#F87F01001F690D24
(1713559097.274405) can0 4EA#0000000000000000
(1713559097.274651) can0 5B2#0800000000000000
(1713559097.274897) can0 310#FFFFFFFF7D7D0000
(1713559097.275152) can0 400#28800000000000CB
(1713559097.275396) can0 12D#00000000000000BE
(1713559097.275635) can0 12F#F8200020000000B6
(1713559097.275881) can0 290#00000002000000B6
(1713559097.278003) can0 140#0000030000000000
(1713559097.280867) can0 410#2880008B9F6E8B4B
(1713559097.282047) can0 551#000000000004C000
(1713559097.282297) can0 5D1#9958000200000000
(1713559097.283239) can0 174#EE7F004D2F790E44
(1713559097.283476) can0 178#FE7F000014930E1A
(1713559097.283713) can0 17C#FE7F010024690E78
(1713559097.284920) can0 400#288000000000002A
(1713559097.285155) can0 128#1388030000EC7877
(1713559097.285399) can0 12D#00000000000000D4
(1713559097.285646) can0 12E#000000000000C071
(1713559097.285886) can0 12F#F8100120000000C6
(1713559097.286133) can0 290#00100002000000D7
(1713559097.286378) can0 540#0000001040009E00
(1713559097.286663) can0 5B0#6342000000000077
(1713559097.290068) can0 120#0000000007000025
(1713559097.290315) can0 121#0000000000000035
(1713559097.290559) can0 129#0000000100000031
(1713559097.290953) can0 410#2880008B9F6E8B7E
(1713559097.292088) can0 541#0440E800007FFF52
(1713559097.293295) can0 174#EE7F004D35790F4E
(1713559097.293531) can0 178#0280000014930F1C
(1713559097.293771) can0 17C#008001002A690FCD
(1713559097.295010) can0 400#2880000000000040
(1713559097.295292) can0 12F#F810002000000020
(1713559097.295532) can0 12D#0000000000000035
(1713559097.295774) can0 290#0010000200000036
(1713559097.298536) can0 140#0000030000000000
(1713559097.300817) can0 410#2880008B9F6E8B9F
(1713559097.302046) can0 551#000000000004C000
(1713559097.302296) can0 5D1#9958000200000000
(1713559097.303248) can0 174#F27F004D377900F4
(1713559097.303489) can0 178#0080000D0F9300CA
(1713559097.303726) can0 17C#FC7F01002F6900E4
(1713559097.304968) can0 12F#F820002000000057
(1713559097.305203) can0 128#1388030000EC7896
(1713559097.305453) can0 12D#000000000000005F
(1713559097.305699) can0 12E#000000000000C090
(1713559097.305945) can0 290#0000000200000057
(1713559097.306191) can0 400#2880000000000075
(1713559097.309045) can0 550#48000C000100007C
(1713559097.310162) can0 120#000000000700004F
(1713559097.310410) can0 121#000000000000005F
(1713559097.310656) can0 129#000000010000005B
(1713559097.310951) can0 410#2880008B9F6E8BAA
(1713559097.312112) can0 541#0440E800007FFF67
(1713559097.312361) can0 552#00FFFFFFFFFFFFA5
(1713559097.312607) can0 450#005500001B004A00
(1713559097.313071) can0 6B9#0020400000000000
(1713559097.313315) can0 5A2#1410140000000000
(1713559097.313545) can0 174#F47F004D347901B6
(1713559097.313785) can0 178#FE7F000001930130
(1713559097.314023) can0 17C#F47F010021690122
(1713559097.315105) can0 400#2880000000000094
(1713559097.315386) can0 12F#F81000200000007F
(1713559097.315590) can0 12A#1428701C60580098
(1713559097.315834) can0 12D#000000000000006A
(1713559097.316082) can0 290#0000000200000062
(1713559097.319059) can0 140#0000030000000000
(1713559097.320734) can0 410#2880008B9F6E8BC0
(1713559097.322044) can0 551#000000000004C000
(1713559097.322294) can0 5D1#9958000200000000
(1713559097.323255) can0 174#F27F004D2D7902D9
(1713559097.323490) can0 178#02800136F99202A8
(1713559097.323725) can0 17C#EC7F01000B690251
(1713559097.325029) can0 12F#F81000200000009E
(1713559097.325264) can0 128#1388030000EC78A3
(1713559097.325511) can0 12D#000000000000008B
(1713559097.325754) can0 12E#000000000000C0A5
(1713559097.326005) can0 290#0010000200000088
(1713559097.326250) can0 400#28800000000000A1
(1713559097.330263) can0 120#000000000700007A
(1713559097.330513) can0 121#000000000000006A
(1713559097.330761) can0 129#000000010000006E
(1713559097.330997) can0 410#2880008B9F6E8B21
(1713559097.332092) can0 541#0440E800007FFF86
(1713559097.333312) can0 174#F07F004D2D79037E
(1713559097.333546) can0 178#06800230FE920381
(1713559097.333784) can0 17C#E87F0100106903BD
(1713559097.335202) can0 400#28800000000000CB
(1713559097.335460) can0 12D#00000000000000BE
(1713559097.335694) can0 12F#F8200120000000B1
(1713559097.335938) can0 290#00100002000000BD
(1713559097.339542) can0 140#0000030000000000
(1713559097.340722) can0 410#2880008B9F6E8B4B
(1713559097.342040) can0 551#000000000004C000
(1713559097.342290) can0 5D1#9958000200000000
(1713559097.343264) can0 174#EE7F004D35790481
(1713559097.343503) can0 178#04800331079304D8
(1713559097.343738) can0 17C#EE7F01002D690490
(1713559097.344978) can0 12F#F8100020000000C1
(1713559097.345214) can0 128#1388030000EC78C9
(1713559097.345460) can0 12D#00000000000000D4
(1713559097.345703) can0 12E#000000000000C0CF
(1713559097.345948) can0 290#00100002000000D7
(1713559097.346196) can0 400#288000000000002A
(1713559097.350359) can0 120#000000000700009B
(1713559097.350601) can0 121#000000000000008B
(1713559097.350843) can0 129#000000010000008F
(1713559097.351083) can0 410#2880008B9F6E8B7E
(1713559097.352096) can0 541#0440E800007FFFB3
(1713559097.353316) can0 174#EC7F004D427905E4
(1713559097.353552) can0 178#008004380A930523
(1713559097.353788) can0 17C#F27F0100456905D3
(1713559097.355262) can0 12F#F82000200000003D
(1713559097.355509) can0 12D#0000000000000035
(1713559097.355759) can0 290#0010000200000036
(1713559097.356005) can0 400#2880000000000040
(1713559097.359047) can0 550#48000C000100009D
(1713559097.360076) can0 140#0000030000000000
(1713559097.360777) can0 410#2880008B9F6E8B9F
(1713559097.362063) can0 551#000000000004C000
(1713559097.362319) can0 552#00FFFFFFFFFFFFCF
(1713559097.362565) can0 5D1#9958000200000000
(1713559097.362809) can0 5D2#7444540000000000
(1713559097.363055) can0 450#005500001B004A00
(1713559097.363289) can0 174#EC7F004D45790649
(1713559097.363525) can0 178#FA7F053107930622
(1713559097.363759) can0 17C#F67F01004569069D
(1713559097.365045) can0 12F#F81000200000004A
(1713559097.365283) can0 128#1388030000EC7828
(1713559097.365517) can0 12A#1428701C605800AD
(1713559097.365768) can0 12D#000000000000005F
(1713559097.366013) can0 12E#000000000000C02E
(1713559097.366259) can0 290#0000000200000057
(1713559097.366504) can0 400#2880000000000075
(1713559097.366740) can0 5A0#0000006244928097
(1713559097.366977) can0 5B1#008A9A6800000096
(1713559097.367262) can0 5D0#9958010200000000
(1713559097.367507) can0 5CF#7444540000000000
(1713559097.370458) can0 120#00000000070000AE
(1713559097.370702) can0 121#00000000000000BE
(1713559097.370943) can0 129#00000001000000BA
(1713559097.371180) can0 410#2880008B9F6E8BAA
(1713559097.372091) can0 541#0440E800007FFFD9
(1713559097.373326) can0 174#EE7F004D3F7907A9
(1713559097.373566) can0 178#F87F063203930787
(1713559097.373804) can0 17C#FE7F010037690719
(1713559097.374201) can0 4EA#0000000000000000
(1713559097.374447) can0 5B2#0800000000000000
(1713559097.374695) can0 310#FFFFFFFF7D7D0000
(1713559097.375283) can0 12F#F81000200000007F
(1713559097.375531) can0 12D#000000000000006A
(1713559097.375777) can0 290#0000000200000062
(1713559097.376030) can0 400#2880000000000094
(1713559097.380612) can0 140#0000030000000000
(1713559097.380849) can0 410#2880008B9F6E8BC0
(1713559097.382043) can0 551#000000000004C000
(1713559097.382293) can0 5D1#9958000200000000
(1713559097.383278) can0 174#F07F004D377908A6
(1713559097.383515) can0 178#F87F0739049308FA
(1713559097.383751) can0 17C#068001002F6908C4
(1713559097.384982) can0 12F#F820002000000083
(1713559097.385216) can0 128#1388030000EC7842
(1713559097.385462) can0 12D#000000000000008B
(1713559097.385706) can0 12E#000000000000C044
(1713559097.385959) can0 290#0000000200000083
(1713559097.386205) can0 400#28800000000000A1
(1713559097.386451) can0 540#0000001040009E00
(1713559097.386692) can0 5B0#6342000000000096
(1713559097.390562) can0 120#00000000070000C4
(1713559097.390800) can0 121#00000000000000D4
(1713559097.391042) can0 129#00000001000000D0
(1713559097.391277) can0 410#2880008B9F6E8B21
(1713559097.392087) can0 541#0440E800007FFF38
(1713559097.393324) can0 174#F27F004D3479098D
(1713559097.393558) can0 178#0080082D0A93098B
(1713559097.393796) can0 17C#0A8001002F690962
(1713559097.395298) can0 12F#F8100020000000AB
(1713559097.395549) can0 12D#00000000000000BE
(1713559097.395792) can0 290#00000002000000B6
(1713559097.396039) can0 400#28800000000000CB
(1713559097.400784) can0 410#2880008B9F6E8B4B
(1713559097.401193) can0 140#0000030000000000
(1713559097.402091) can0 551#000000000004C000
(1713559097.402341) can0 5D1#9958000200000000
(1713559097.403360) can0 174#F47F004D30790A7F
(1713559097.403568) can0 178#0A80093011930A5C
(1713559097.403810) can0 17C#068001002F690AFE
(1713559097.404977) can0 12F#F8100120000000C6
(1713559097.405211) can0 128#1388030000EC7877
(1713559097.405455) can0 12D#00000000000000D4
(1713559097.405703) can0 12E#000000000000C071
(1713559097.405951) can0 290#00000002000000DC
(1713559097.406199) can0 400#288000000000002A
(1713559097.408997) can0 550#48000C00010000A8
(1713559097.410620) can0 120#0000000007000025
(1713559097.410868) can0 121#0000000000000035
(1713559097.411114) can0 129#0000000100000031
(1713559097.411353) can0 410#2880008B9F6E8B7E
(1713559097.412054) can0 541#0440E800007FFF52
(1713559097.412320) can0 552#00FFFFFFFFFFFF2E
(1713559097.412603) can0 450#005500001B004A00
(1713559097.413239) can0 6B9#0020400000000000
(1713559097.413467) can0 174#F27F004D32790BB2
(1713559097.413701) can0 178#08800A3211930B62
(1713559097.413940) can0 17C#FE7F01002A690B18
(1713559097.414184) can0 5A2#1410140000000000
(1713559097.415345) can0 12F#F82000200000003D
(1713559097.415563) can0 12A#1428701C605800C7
(1713559097.415808) can0 12D#0000000000000035
(1713559097.416056) can0 290#000000020000003D
(1713559097.416304) can0 400#2880000000000040
(1713559097.420775) can0 410#2880008B9F6E8B9F
(1713559097.421732) can0 140#0000030000000000
(1713559097.422104) can0 551#000000000004C000
(1713559097.422353) can0 5D1#9958000200000000
(1713559097.423347) can0 174#EE7F004D38790CEC
(1713559097.423572) can0 178#00800B360C930C5A
(1713559097.423807) can0 17C#FA7F010022690C2E
(1713559097.425037) can0 12F#F81000200000004A
(1713559097.425271) can0 128#1388030000EC7896
(1713559097.425521) can0 12D#000000000000005F
(1713559097.425719) can0 12E#000000000000C090
(1713559097.425965) can0 290#0000000200000057
(1713559097.426210) can0 400#2880000000000075
(1713559097.430726) can0 120#000000000700004F
(1713559097.430973) can0 121#000000000000005F
(1713559097.431217) can0 129#000000010000005B
(1713559097.431454) can0 410#2880008B9F6E8BAA
(1713559097.432041) can0 541#0440E800007FFF67
(1713559097.433290) can0 174#EC7F004D3B790DC7
(1713559097.433568) can0 178#FA7F0C3006930DE2
(1713559097.433806) can0 17C#FA7F010024690D36
(1713559097.435264) can0 12F#F820002000000062
(1713559097.435510) can0 12D#000000000000006A
(1713559097.435757) can0 290#0000000200000062
(1713559097.436003) can0 400#2880000000000094
(1713559097.440768) can0 410#2880008B9F6E8BC0
(1713559097.442085) can0 551#000000000004C000
(1713559097.442337) can0 140#0000030000000000
(1713559097.442576) can0 5D1#9958000200000000
(1713559097.443347) can0 174#EE7F004D38790ED6
(1713559097.443577) can0 178#F67F0000FF920E94
(1713559097.443813) can0 17C#FE7F010032690E65
(1713559097.445026) can0 12F#F81000200000009E
(1713559097.445264) can0 128#1388030000EC78A3
(1713559097.445508) can0 12D#000000000000008B
(1713559097.445752) can0 12E#000000000000C0A5
(1713559097.446002) can0 290#0000000200000083
(1713559097.446202) can0 400#28800000000000A1
(1713559097.450687) can0 410#2880008B9F6E8B21
(1713559097.450934) can0 120#000000000700007A
(1713559097.451186) can0 121#000000000000006A
(1713559097.451435) can0 129#000000010000006E
(1713559097.452040) can0 541#0440E800007FFF86
(1713559097.453299) can0 174#F07F004D2D790FE2
(1713559097.453535) can0 178#F67F0130FC920F00
(1713559097.453777) can0 17C#FE7F01003D690FFE
(1713559097.455255) can0 12F#F8100020000000AB
(1713559097.455506) can0 12D#00000000000000BE
(1713559097.455760) can0 290#00000002000000B6
(1713559097.456001) can0 400#28800000000000CB
(1713559097.459043) can0 550#48000C00010000C2
(1713559097.460713) can0 410#2880008B9F6E8B4B
(1713559097.462488) can0 551#000000000004C000
(1713559097.462744) can0 552#00FFFFFFFFFFFF44
(1713559097.462994) can0 140#0000030000000000
(1713559097.463234) can0 5D1#9958000200000000
(1713559097.463478) can0 174#EE7F004D277900EE
(1713559097.463706) can0 178#FE7F0232039300B2
(1713559097.463948) can0 17C#F87F01003869001F
(1713559097.464187) can0 5D2#7444540000000000
(1713559097.464437) can0 450#005500001B004A00
(1713559097.465091) can0 12F#F8200020000000DC
(1713559097.465327) can0 128#1388030000EC78C9
(1713559097.465562) can0 12A#1428701C60580026
(1713559097.465807) can0 12D#00000000000000D4
(1713559097.466052) can0 12E#000000000000C0CF
(1713559097.466296) can0 290#00100002000000D7
(1713559097.466544) can0 400#288000000000002A
(1713559097.466782) can0 5A0#00000062449280A2
(1713559097.467018) can0 5B1#008A9A68000000A3
(1713559097.467260) can0 5D0#9958010200000000
(1713559097.467450) can0 5CF#7444540000000000
(1713559097.470636) can0 410#2880008B9F6E8B7E
(1713559097.470896) can0 120#000000000700009B
(1713559097.471140) can0 121#000000000000008B
(1713559097.471383) can0 129#000000010000008F
(1713559097.472035) can0 541#0440E800007FFFB3
(1713559097.473307) can0 174#EE7F004D2F7901FF
(1713559097.473541) can0 178#08800336119301E3
(1713559097.473780) can0 17C#F67F01002A690118
(1713559097.474028) can0 4EA#0000000000000000
(1713559097.474275) can0 5B2#0800000000000000
(1713559097.474520) can0 310#FFFFFFFF7D7D0000
(1713559097.475274) can0 12F#F810002000000020
(1713559097.475521) can0 12D#0000000000000035
(1713559097.475765) can0 290#0010000200000036
(1713559097.476013) can0 400#2880000000000040
(1713559097.480662) can0 410#2880008B9F6E8B9F
(1713559097.482090) can0 551#000000000004C000
(1713559097.482337) can0 5D1#9958000200000000
(1713559097.483308) can0 140#0000030000000000
(1713559097.483546) can0 174#F07F004D3B79027E
(1713559097.483784) can0 178#0A8004351893024C
(1713559097.484019) can0 17C#F87F01001C690213
(1713559097.485029) can0 12F#F81001200000004D
(1713559097.485267) can0 128#1388030000EC7828
(1713559097.485517) can0 12D#000000000000005F
(1713559097.485763) can0 12E#000000000000C02E
(1713559097.486007) can0 290#0000000200000057
(1713559097.486253) can0 400#2880000000000075
(1713559097.486638) can0 540#0000001040009E00
(1713559097.486880) can0 5B0#63420000000000A3
(1713559097.490580) can0 410#2880008B9F6E8BAA
(1713559097.490994) can0 120#00000000070000AE
(1713559097.491239) can0 121#00000000000000BE
(1713559097.491483) can0 129#00000001000000BA
(1713559097.492032) can0 541#0440E800007FFFD9
(1713559097.493312) can0 174#F07F004D43790327
(1713559097.493546) can0 178#088005301A930351
(1713559097.493789) can0 17C#FA7F01001B69033E
(1713559097.495303) can0 12F#F820002000000062
(1713559097.495550) can0 12D#000000000000006A
(1713559097.495796) can0 290#0000000200000062
(1713559097.496044) can0 400#2880000000000094
(1713559097.500608) can0 410#2880008B9F6E8BC0
(1713559097.502084) can0 551#000000000004C000
(1713559097.502334) can0 5D1#9958000200000000
(1713559097.503389) can0 174#F07F004D45790471
(1713559097.503603) can0 178#00800631129304FF
(1713559097.503852) can0 140#0000030000000000
(1713559097.504099) can0 17C#FC7F010022690415
(1713559097.505026) can0 12F#F81000200000009E
(1713559097.505258) can0 128#1388030000EC7842
(1713559097.505504) can0 12D#000000000000008B
(1713559097.505749) can0 12E#000000000000C044
(1713559097.506000) can0 290#0000000200000083
(1713559097.506247) can0 400#28800000000000A1
(1713559097.508993) can0 550#48000C0001000023
(1713559097.510221) can0 410#2880008B9F6E8B21
(1713559097.511098) can0 120#00000000070000C4
(1713559097.511353) can0 121#00000000000000D4
(1713559097.511583) can0 129#00000001000000D0
(1713559097.512051) can0 541#0440E800007FFF38
(1713559097.512303) can0 552#00FFFFFFFFFFFF71
(1713559097.512549) can0 450#005500001B004A00
(1713559097.513317) can0 174#EE7F004D4079055D
(1713559097.513549) can0 178#FC7F07310993050B
(1713559097.513794) can0 17C#F87F010026690567
(1713559097.514042) can0 6B9#0020400000000000
(1713559097.514286) can0 5A2#1410140000000000
(1713559097.515286) can0 12F#F8200020000000B6
(1713559097.515569) can0 12A#1428701C6058004C
(1713559097.515814) can0 12D#00000000000000BE
(1713559097.516061) can0 290#00000002000000B6
(1713559097.516307) can0 400#28800000000000CB
(1713559097.520252) can0 410#2880008B9F6E8B4B
(1713559097.522083) can0 551#000000000004C000
(1713559097.522333) can0 5D1#9958000200000000
(1713559097.523397) can0 174#EE7F004D357906BB
(1713559097.523609) can0 178#F87F083107930630
(1713559097.523844) can0 17C#F67F01001C690666
(1713559097.524371) can0 140#0000030000000000
(1713559097.525036) can0 12F#F8100020000000C1
(1713559097.525267) can0 128#1388030000EC7877
(1713559097.525511) can0 12D#00000000000000D4
(1713559097.525760) can0 12E#000000000000C071
(1713559097.526007) can0 290#00000002000000DC
(1713559097.526256) can0 400#288000000000002A
(1713559097.530172) can0 410#2880008B9F6E8B7E
(1713559097.531190) can0 120#0000000007000025
(1713559097.531439) can0 121#0000000000000035
(1713559097.531683) can0 129#0000000100000031
(1713559097.532046) can0 541#0440E800007FFF52
(1713559097.533328) can0 174#F07F004D2C790785
(1713559097.533561) can0 178#F67F0930099307D2
(1713559097.533805) can0 17C#F87F0100116907FF
(1713559097.535212) can0 12F#F810002000000020
(1713559097.535459) can0 12D#0000000000000035
(1713559097.535705) can0 290#000000020000003D
(1713559097.536127) can0 400#2880000000000040
(1713559097.540198) can0 410#2880008B9F6E8B9F
(1713559097.542140) can0 551#000000000004C000
(1713559097.542390) can0 5D1#9958000200000000
(1713559097.543389) can0 174#F07F004D2A79083B
(1713559097.543619) can0 178#F67F0A380993084B
(1713559097.543858) can0 17C#FC7F01000B69083A
(1713559097.544891) can0 140#0000030000000000
(1713559097.545127) can0 128#1388030000EC7896
(1713559097.545383) can0 12D#000000000000005F
(1713559097.545623) can0 12E#000000000000C090
(1713559097.545865) can0 12F#F820002000000057
(1713559097.546111) can0 290#0000000200000057
(1713559097.546358) can0 400#2880000000000075
(1713559097.550114) can0 410#2880008B9F6E8BAA
(1713559097.551277) can0 120#000000000700004F
(1713559097.551527) can0 121#000000000000005F
(1713559097.551770) can0 129#000000010000005B
(1713559097.552054) can0 541#0440E800007FFF67
(1713559097.553334) can0 174#F47F004D2D7909C5
(1713559097.553568) can0 178#F27F0000069309E9
(1713559097.553808) can0 17C#FE7F01000969099E
(1713559097.555218) can0 12F#F81000200000007F
(1713559097.555466) can0 12D#000000000000006A
(1713559097.555714) can0 290#0000000200000062
(1713559097.556225) can0 400#2880000000000094
(1713559097.559045) can0 550#48000C0001000049
(1713559097.560142) can0 410#2880008B9F6E8BC0
(1713559097.562107) can0 551#000000000004C000
(1713559097.562362) can0 552#00FFFFFFFFFFFF90
(1713559097.562610) can0 55A#0017160000000000
(1713559097.562856) can0 5D1#9958000200000000
(1713559097.563100) can0 5D2#7444540000000000
(1713559097.563348) can0 450#005500001B004A00
(1713559097.563579) can0 174#F87F004D32790AC7
(1713559097.563812) can0 178#EC7F013001930AF9
(1713559097.564048) can0 17C#FE7F010009690AB9
(1713559097.565108) can0 12F#F810012000000099
(1713559097.565346) can0 128#1388030000EC78A3
(1713559097.565583) can0 12A#1428701C60580079
(1713559097.565825) can0 12D#000000000000008B
(1713559097.566065) can0 12E#000000000000C0A5
(1713559097.566315) can0 140#0000030000000000
(1713559097.566567) can0 290#0000000200000083
(1713559097.566812) can0 400#28800000000000A1
(1713559097.567049) can0 5A0#00000062449280C8
(1713559097.567285) can0 5B1#008A9A68000000C9
(1713559097.567528) can0 5D0#9958010200000000
(1713559097.567765) can0 5CF#7444540000000000
(1713559097.570062) can0 410#2880008B9F6E8B21
(1713559097.571392) can0 120#000000000700007A
(1713559097.571643) can0 121#000000000000006A
(1713559097.571891) can0 129#000000010000006E
(1713559097.572134) can0 541#0440E800007FFF86
(1713559097.573348) can0 174#F87F004D35790B50
(1713559097.573584) can0 178#EE7F0000FF920B96
(1713559097.573821) can0 17C#FA7F01000E690B47
(1713559097.574069) can0 4EA#0000000000000000
(1713559097.574315) can0 5B2#0800000000000000
(1713559097.574561) can0 310#FFFFFFFF7D7D0000
(1713559097.575261) can0 12F#F8200020000000B6
(1713559097.575510) can0 12D#00000000000000BE
(1713559097.575756) can0 290#00000002000000B6
(1713559097.576325) can0 400#28800000000000CB
(1713559097.578120) can0 6AB#A5CD1C2E77A3E100
(1713559097.580088) can0 410#2880008B9F6E8B4B
(1713559097.582082) can0 551#000000000004C000
(1713559097.582333) can0 5D1#9958000200000000
(1713559097.583404) can0 174#F67F004D35790C02
(1713559097.583636) can0 178#F67F0153FC920C43
(1713559097.583876) can0 17C#F87F010019690C3C
(1713559097.585024) can0 12F#F8100020000000C1
(1713559097.585263) can0 128#1388030000EC78C9
(1713559097.585505) can0 12D#00000000000000D4
(1713559097.585757) can0 12E#000000000000C0CF
(1713559097.586001) can0 140#0000030000000000
(1713559097.586247) can0 290#00000002000000DC
(1713559097.586495) can0 400#288000000000002A
(1713559097.587121) can0 540#0000001040009E00
(1713559097.587399) can0 5B0#63420000000000C9
(1713559097.590013) can0 410#2880008B9F6E8B7E
(1713559097.591479) can0 120#000000000700009B
(1713559097.591722) can0 121#000000000000008B
(1713559097.591964) can0 129#000000010000008F
(1713559097.592206) can0 541#0440E800007FFFB3
(1713559097.593350) can0 174#F47F004D35790DA5
(1713559097.593584) can0 178#FC7F0243FC920DAD
(1713559097.593822) can0 17C#FA7F01002A690D3F
(1713559097.595249) can0 12F#F82000200000003D
(1713559097.595495) can0 12D#0000000000000035
(1713559097.595743) can0 290#000000020000003D
(1713559097.596423) can0 400#2880000000000040
(1713559097.600038) can0 410#2880008B9F6E8B9F
(1713559097.602078) can0 551#000000000004C000
(1713559097.602327) can0 5D1#9958000200000000
(1713559097.603401) can0 174#F47F004D3A790E04
(1713559097.603631) can0 178#FE7F033204930EF4
(1713559097.603871) can0 17C#008001003B690E47
(1713559097.605025) can0 12F#F81000200000004A
(1713559097.605263) can0 128#1388030000EC7828
(1713559097.605513) can0 12D#000000000000005F
(1713559097.605758) can0 12E#000000000000C02E
(1713559097.606011) can0 290#0000000200000057
(1713559097.606481) can0 140#0000030000000000
(1713559097.606728) can0 400#2880000000000075
(1713559097.609046) can0 550#48000C000100007C
(1713559097.609954) can0 410#2880008B9F6E8BAA
(1713559097.611577) can0 120#00000000070000AE
(1713559097.611820) can0 121#00000000000000BE
(1713559097.612063) can0 129#00000001000000BA
(1713559097.612305) can0 541#0440E800007FFFD9
(1713559097.612557) can0 552#00FFFFFFFFFFFFA5
(1713559097.612803) can0 450#005500001B004A00
(1713559097.613355) can0 174#F67F004D3F790F2A
(1713559097.613589) can0 178#FE7F04300C930FC9
(1713559097.613827) can0 17C#0080010042690F91
(1713559097.614075) can0 6B9#0020400000000000
(1713559097.614319) can0 5A2#1410140000000000
(1713559097.615289) can0 12F#F81000200000007F
(1713559097.615526) can0 12A#1428701C60580098
(1713559097.615772) can0 12D#000000000000006A
(1713559097.616020) can0 290#0000000200000062
(1713559097.616530) can0 400#2880000000000094
(1713559097.619997) can0 410#2880008B9F6E8BC0
(1713559097.622078) can0 551#000000000004C000
(1713559097.622328) can0 5D1#9958000200000000
(1713559097.623404) can0 174#F27F004D3D7900FB
(1713559097.623638) can0 178#FE7F05300D930097
(1713559097.623883) can0 17C#FC7F01003F6900FC
(1713559097.625035) can0 12F#F820002000000083
(1713559097.625269) can0 128#1388030000EC7842
(1713559097.625515) can0 12D#000000000000008B
(1713559097.625759) can0 12E#000000000000C044
(1713559097.626009) can0 290#0010000200000088
(1713559097.626630) can0 400#28800000000000A1
(1713559097.627014) can0 140#0000030000000000
(1713559097.629980) can0 410#2880008B9F6E8B21
(1713559097.631674) can0 120#00000000070000C4
(1713559097.631917) can0 121#00000000000000D4
(1713559097.632159) can0 129#00000001000000D0
(1713559097.632403) can0 541#0440E800007FFF38
(1713559097.633363) can0 174#F07F004D37790153
(1713559097.633597) can0 178#FC7F06320D9301A9
(1713559097.633838) can0 17C#FA7F01003B690134
(1713559097.635204) can0 12F#F8100020000000AB
(1713559097.635453) can0 12D#00000000000000BE
(1713559097.635698) can0 290#00100002000000BD
(1713559097.636623) can0 400#28800000000000CB
(1713559097.639952) can0 410#2880008B9F6E8B4B
(1713559097.642073) can0 551#000000000004C000
(1713559097.642323) can0 5D1#9958000200000000
(1713559097.643410) can0 174#EE7F004D2F7902D8
(1713559097.643637) can0 178#FC7F07370A9302BD
(1713559097.643875) can0 17C#00800100376902D1
(1713559097.645013) can0 12F#F8100120000000C6
(1713559097.645247) can0 128#1388030000EC7877
(1713559097.645491) can0 12D#00000000000000D4
(1713559097.645739) can0 12E#000000000000C071
(1713559097.645987) can0 290#00000002000000DC
(1713559097.646738) can0 400#288000000000002A
(1713559097.647536) can0 140#0000030000000000
(1713559097.649926) can0 410#2880008B9F6E8B7E
(1713559097.651772) can0 120#0000000007000025
(1713559097.652019) can0 121#0000000000000035
(1713559097.652263) can0 129#0000000100000031
(1713559097.653361) can0 174#EC7F004D27790373
(1713559097.653595) can0 178#FC7F085F0793031B
(1713559097.653836) can0 17C#0280010031690373
(1713559097.654554) can0 541#0440E800007FFF52
(1713559097.655192) can0 12F#F82000200000003D
(1713559097.655438) can0 12D#0000000000000035
(1713559097.655686) can0 290#000000020000003D
(1713559097.656735) can0 400#2880000000000040
(1713559097.659043) can0 550#48000C000100009D
(1713559097.659899) can0 410#2880008B9F6E8B9F
(1713559097.662097) can0 551#000000000004C000
(1713559097.662351) can0 552#00FFFFFFFFFFFFCF
(1713559097.662596) can0 5D1#9958000200000000
(1713559097.662840) can0 5D2#7444540000000000
(1713559097.663086) can0 450#005500001B004A00
(1713559097.663415) can0 174#EC7F004D27790420
(1713559097.663650) can0 178#0080093009930486
(1713559097.663893) can0 17C#FE7F01002D690429
(1713559097.665119) can0 12F#F81000200000004A
(1713559097.665352) can0 128#1388030000EC7896
(1713559097.665584) can0 12A#1428701C605800AD
(1713559097.665833) can0 12D#000000000000005F
(1713559097.666079) can0 12E#000000000000C090
(1713559097.666326) can0 290#0000000200000057
(1713559097.666563) can0 5A0#0000006244928029
(1713559097.666802) can0 5B1#008A9A6800000028
(1713559097.667050) can0 400#2880000000000075
(1713559097.667290) can0 5D0#9958010200000000
(1713559097.667529) can0 5CF#7444540000000000
(1713559097.668068) can0 140#0000030000000000
(1713559097.669867) can0 410#2880008B9F6E8BAA
(1713559097.671867) can0 120#000000000700004F
(1713559097.672113) can0 121#000000000000005F
(1713559097.672357) can0 129#000000010000005B
(1713559097.672601) can0 541#0440E800007FFF67
(1713559097.673370) can0 174#EE7F004D2F79058B
(1713559097.673601) can0 178#06800A370A93058E
(1713559097.673841) can0 17C#FC7F01002C690501
(1713559097.674091) can0 4EA#0000000000000000
(1713559097.674337) can0 5B2#0800000000000000
(1713559097.674582) can0 310#FFFFFFFF7D7D0000
(1713559097.675226) can0 12F#F820002000000062
(1713559097.675473) can0 12D#000000000000006A
(1713559097.675720) can0 290#0000000200000062
(1713559097.676825) can0 400#2880000000000094
(1713559097.679845) can0 410#2880008B9F6E8BC0
(1713559097.682077) can0 551#000000000004C000
(1713559097.682326) can0 5D1#9958000200000000
(1713559097.683424) can0 174#F27F004D3879063C
(1713559097.683656) can0 178#08800B3109930627
(1713559097.683893) can0 17C#FC7F010032690637
(1713559097.685026) can0 12F#F81000200000009E
(1713559097.685260) can0 128#1388030000EC78A3
(1713559097.685506) can0 12D#000000000000008B
(1713559097.685749) can0 12E#000000000000C0A5
(1713559097.686002) can0 290#0000000200000083
(1713559097.686945) can0 400#28800000000000A1
(1713559097.687553) can0 540#0000001040009E00
(1713559097.687793) can0 5B0#6342000000000028
(1713559097.688603) can0 140#0000030000000000
(1713559097.689813) can0 410#2880008B9F6E8B21
(1713559097.691967) can0 120#000000000700007A
(1713559097.692217) can0 121#000000000000006A
(1713559097.692465) can0 129#000000010000006E
(1713559097.692707) can0 541#0440E800007FFF86
(1713559097.693377) can0 174#F67F004D3D7907C1
(1713559097.693615) can0 178#0280000009930769
(1713559097.693856) can0 17C#F87F01003869074C
(1713559097.695241) can0 12F#F8100020000000AB
(1713559097.695490) can0 12D#00000000000000BE
(1713559097.695736) can0 290#00000002000000B6
(1713559097.696927) can0 400#28800000000000CB
(1713559097.699789) can0 410#2880008B9F6E8B4B
(1713559097.702077) can0 551#000000000004C000
(1713559097.702326) can0 5D1#9958000200000000
(1713559097.703427) can0 174#F67F004D407908B7
(1713559097.703654) can0 178#FE7F01370A9308B4
(1713559097.703890) can0 17C#F47F01003B6908C0
(1713559097.705026) can0 12F#F8200020000000DC
(1713559097.705262) can0 128#1388030000EC78C9
(1713559097.705506) can0 12D#00000000000000D4
(1713559097.705751) can0 12E#000000000000C0CF
(1713559097.705999) can0 290#00000002000000DC
(1713559097.707038) can0 400#288000000000002A
(1713559097.709048) can0 550#48000C00010000A8
(1713559097.709294) can0 140#0000030000000000
(1713559097.709856) can0 410#2880008B9F6E8B7E
(1713559097.712041) can0 541#0440E800007FFFB3
(1713559097.712286) can0 120#000000000700009B
(1713559097.712530) can0 121#000000000000008B
(1713559097.712772) can0 129#000000010000008F
(1713559097.713018) can0 552#00FFFFFFFFFFFF2E
(1713559097.713264) can0 450#005500001B004A00
(1713559097.713496) can0 174#F07F004D437909F5
(1713559097.713730) can0 178#FE7F022E0D9309B9
(1713559097.713971) can0 17C#F87F01003A6909E9
(1713559097.714219) can0 6B9#0020400000000000
(1713559097.714463) can0 5A2#1410140000000000
(1713559097.715277) can0 12F#F810002000000020
(1713559097.715514) can0 12A#1428701C605800C7
(1713559097.715759) can0 12D#0000000000000035
(1713559097.716007) can0 290#000000020000003D
(1713559097.717026) can0 400#2880000000000040
(1713559097.719797) can0 410#2880008B9F6E8B9F
(1713559097.722074) can0 551#000000000004C000
(1713559097.722319) can0 5D1#9958000200000000
(1713559097.723436) can0 174#EA7F004D42790A8C
(1713559097.723664) can0 178#FC7F03310A930A89
(1713559097.723902) can0 17C#0080010032690AB0
(1713559097.725032) can0 12F#F81001200000004D
(1713559097.725270) can0 128#1388030000EC7828
(1713559097.725520) can0 12D#000000000000005F
(1713559097.725764) can0 12E#000000000000C02E
(1713559097.726010) can0 290#0000000200000057
(1713559097.727128) can0 400#2880000000000075
(1713559097.729665) can0 140#0000030000000000
(1713559097.729895) can0 410#2880008B9F6E8BAA
(1713559097.732024) can0 541#0440E800007FFFD9
(1713559097.732269) can0 120#00000000070000AE
(1713559097.732515) can0 121#00000000000000BE
(1713559097.732757) can0 129#00000001000000BA
(1713559097.733383) can0 174#E87F004D38790B6C
(1713559097.733613) can0 178#F67F043004930B63
(1713559097.733856) can0 17C#068001002D690BE0
(1713559097.735205) can0 12F#F820002000000062
(1713559097.735453) can0 12D#000000000000006A
(1713559097.735700) can0 290#0000000200000062
(1713559097.737120) can0 400#2880000000000094
(1713559097.739788) can0 410#2880008B9F6E8BC0
(1713559097.742072) can0 551#000000000004C000
(1713559097.742320) can0 5D1#9958000200000000
(1713559097.743445) can0 174#EA7F004D35790C00
(1713559097.743678) can0 178#F27F000004930C83
(1713559097.743917) can0 17C#0080010037690C77
(1713559097.745025) can0 12F#F81000200000009E
(1713559097.745259) can0 128#1388030000EC7842
(1713559097.745505) can0 12D#000000000000008B
(1713559097.745749) can0 12E#000000000000C044
(1713559097.746002) can0 290#0000000200000083
(1713559097.747239) can0 400#28800000000000A1
(1713559097.749784) can0 410#2880008B9F6E8B21
(1713559097.750190) can0 140#0000030000000000
(1713559097.752035) can0 541#0440E800007FFF38
(1713559097.752286) can0 120#00000000070000C4
(1713559097.752530) can0 121#00000000000000D4
(1713559097.752772) can0 129#00000001000000D0
(1713559097.753390) can0 174#EC7F004D38790D4B
(1713559097.753623) can0 178#F47F013809930D51
(1713559097.753860) can0 17C#F87F010048690DD6
(1713559097.755243) can0 12F#F8200020000000B6
(1713559097.755491) can0 12D#00000000000000BE
(1713559097.755737) can0 290#00000002000000B6
(1713559097.757217) can0 400#28800000000000CB
(1713559097.759043) can0 550#48000C00010000C2
(1713559097.759827) can0 410#2880008B9F6E8B4B
(1713559097.762093) can0 551#000000000004C000
(1713559097.762345) can0 552#00FFFFFFFFFFFF44
(1713559097.762592) can0 5D1#9958000200000000
(1713559097.762835) can0 5D2#7444540000000000
(1713559097.763081) can0 450#005500001B004A00
(1713559097.763444) can0 174#EE7F004D3B790E5A
(1713559097.763675) can0 178#F87F02320A930E44
(1713559097.763910) can0 17C#F67F010055690E6D
(1713559097.765096) can0 12F#F8100020000000C1
(1713559097.765328) can0 128#1388030000EC7877
(1713559097.765562) can0 12A#1428701C60580026
(1713559097.765806) can0 12D#00000000000000D4
(1713559097.766054) can0 12E#000000000000C071
(1713559097.766300) can0 290#00100002000000D7
(1713559097.766538) can0 5A0#0000006244928043
(1713559097.766774) can0 5B1#008A9A6800000042
(1713559097.767016) can0 5D0#9958010200000000
(1713559097.767254) can0 5CF#7444540000000000
(1713559097.767510) can0 400#288000000000002A
(1713559097.769825) can0 410#2880008B9F6E8B7E
(1713559097.770726) can0 140#0000030000000000
(1713559097.772019) can0 541#0440E800007FFF52
(1713559097.772345) can0 120#0000000007000025
(1713559097.772593) can0 121#0000000000000035
(1713559097.772838) can0 129#0000000100000031
(1713559097.773340) can0 4EA#0000000000000000
(1713559097.773570) can0 174#EE7F004D3B790F47
(1713559097.773807) can0 178#F87F033207930FB6
(1713559097.774044) can0 17C#FA7F01004D690FDF
(1713559097.774290) can0 5B2#0800000000000000
(1713559097.774536) can0 310#FFFFFFFF7D7D0000
(1713559097.775220) can0 12F#F810002000000020
(1713559097.775467) can0 12D#0000000000000035
(1713559097.775710) can0 290#0010000200000036
(1713559097.777317) can0 400#2880000000000040
(1713559097.779787) can0 410#2880008B9F6E8B9F
(1713559097.782072) can0 551#000000000004C000
(1713559097.782321) can0 5D1#9958000200000000
(1713559097.783455) can0 174#EE7F004D3D7900F9
(1713559097.783689) can0 178#FC7F043504930017
(1713559097.783935) can0 17C#008001002D6900FC
(1713559097.785027) can0 12F#F820002000000057
(1713559097.785261) can0 128#1388030000EC7896
(1713559097.785511) can0 12D#000000000000005F
(1713559097.785758) can0 12E#000000000000C090
(1713559097.786003) can0 290#0000000200000057
(1713559097.787422) can0 400#2880000000000075
(1713559097.788010) can0 540#0000001040009E00
(1713559097.788250) can0 5B0#6342000000000042
(1713559097.789816) can0 410#2880008B9F6E8BAA
(1713559097.791243) can0 140#0000030000000000
(1713559097.792019) can0 541#0440E800007FFF67
(1713559097.792442) can0 120#000000000700004F
(1713559097.792691) can0 121#000000000000005F
(1713559097.792935) can0 129#000000010000005B
(1713559097.793409) can0 174#EC7F004D40790193
(1713559097.793649) can0 178#FE7F0000069301BA
(1713559097.793889) can0 17C#048001001C69012F
(1713559097.795273) can0 12F#F810012000000078
(1713559097.795520) can0 12D#000000000000006A
(1713559097.795767) can0 290#0000000200000062
(1713559097.797410) can0 400#2880000000000094
(1713559097.799824) can0 410#2880008B9F6E8BC0
(1713559097.802072) can0 551#000000000004C000
(1713559097.802320) can0 5D1#9958000200000000
(1713559097.803463) can0 174#EC7F004D427902B7
(1713559097.803694) can0 178#FE7F01320C9302B0
(1713559097.803936) can0 17C#0480010019690281
(1713559097.805017) can0 12F#F81000200000009E
(1713559097.805252) can0 128#1388030000EC78A3
(1713559097.805498) can0 12D#000000000000008B
(1713559097.805742) can0 12E#000000000000C0A5
(1713559097.805997) can0 290#0000000200000083
(1713559097.807511) can0 400#28800000000000A1
(1713559097.809043) can0 550#48000C0001000023
(1713559097.809831) can0 410#2880008B9F6E8B21
(1713559097.811732) can0 140#0000030000000000
(1713559097.812055) can0 541#0440E800007FFF86
(1713559097.812309) can0 552#00FFFFFFFFFFFF71
(1713559097.812563) can0 120#000000000700007A
(1713559097.812816) can0 121#000000000000006A
(1713559097.813064) can0 129#000000010000006E
(1713559097.813304) can0 450#005500001B004A00
(1713559097.813536) can0 174#EA7F004D3B7903B2
(1713559097.813774) can0 178#FC7F02301293039F
(1713559097.814012) can0 17C#FE7F01000E6903C6
(1713559097.814260) can0 6B9#0020400000000000
(1713559097.814504) can0 5A2#1410140000000000
(1713559097.815269) can0 12F#F8200020000000B6
(1713559097.815501) can0 12A#1428701C6058004C
(1713559097.815748) can0 12D#00000000000000BE
(1713559097.815994) can0 290#00000002000000B6
(1713559097.817507) can0 400#28800000000000CB
(1713559097.819776) can0 410#2880008B9F6E8B4B
(1713559097.822068) can0 551#000000000004C000
(1713559097.822317) can0 5D1#9958000200000000
(1713559097.823465) can0 174#EA7F004D377904EB
(1713559097.823697) can0 178#FA7F03321A93045E
(1713559097.823935) can0 17C#F67F01000069044E
(1713559097.825029) can0 12F#F8100020000000C1
(1713559097.825265) can0 128#1388030000EC78C9
(1713559097.825510) can0 12D#00000000000000D4
(1713559097.825754) can0 12E#000000000000C0CF
(1713559097.826003) can0 290#00000002000000DC
(1713559097.827610) can0 400#288000000000002A
(1713559097.829749) can0 410#2880008B9F6E8B7E
(1713559097.832017) can0 541#0440E800007FFFB3
(1713559097.832268) can0 140#0000030000000000
(1713559097.832634) can0 120#000000000700009B
(1713559097.832879) can0 121#000000000000008B
(1713559097.833121) can0 129#000000010000008F
(1713559097.833417) can0 174#EA7F004D3479057A
(1713559097.833651) can0 178#FA7F04331D93055F
(1713559097.833893) can0 17C#F07F010000690580
(1713559097.835245) can0 12F#F82001200000003A
(1713559097.835492) can0 12D#0000000000000035
(1713559097.835739) can0 290#000000020000003D
(1713559097.837602) can0 400#2880000000000040
(1713559097.839722) can0 410#2880008B9F6E8B9F
(1713559097.842066) can0 551#000000000004C000
(1713559097.842316) can0 5D1#9958000200000000
(1713559097.843477) can0 174#E87F004D3779066B
(1713559097.843710) can0 178#FA7F05311A9306BF
(1713559097.843950) can0 17C#F27F010006690618
(1713559097.845024) can0 12F#F81000200000004A
(1713559097.845262) can0 128#1388030000EC7828
(1713559097.845512) can0 12D#000000000000005F
(1713559097.845756) can0 12E#000000000000C02E
(1713559097.846003) can0 290#0000000200000057
(1713559097.847688) can0 400#2880000000000075
(1713559097.849690) can0 410#2880008B9F6E8BAA
(1713559097.852023) can0 541#0440E800007FFFD9
(1713559097.852730) can0 120#00000000070000AE
(1713559097.852977) can0 121#00000000000000BE
(1713559097.853219) can0 129#00000001000000BA
(1713559097.853469) can0 140#0000030000000000
(1713559097.853702) can0 174#E87F004D3A7907F3
(1713559097.853937) can0 178#FA7F063011930701
(1713559097.854179) can0 17C#F47F0100106907CB
(1713559097.855207) can0 12F#F81000200000007F
(1713559097.855454) can0 12D#000000000000006A
(1713559097.855701) can0 290#0000000200000062
(1713559097.857688) can0 400#2880000000000094
(1713559097.858996) can0 550#48000C0001000049
(1713559097.859668) can0 410#2880008B9F6E8BC0
(1713559097.862088) can0 551#000000000004C000
(1713559097.862342) can0 552#00FFFFFFFFFFFF90
(1713559097.862588) can0 5D1#9958000200000000
(1713559097.862832) can0 5D2#7444540000000000
(1713559097.863078) can0 450#005500001B004A00
(1713559097.863482) can0 174#E87F004D3D7908C2
(1713559097.863712) can0 178#F87F0731099308E3
(1713559097.863951) can0 17C#F47F01001B6908F0
(1713559097.865088) can0 12F#F820002000000083
(1713559097.865323) can0 128#1388030000EC7842
(1713559097.865555) can0 12A#1428701C60580079
(1713559097.865801) can0 12D#000000000000008B
(1713559097.866045) can0 12E#000000000000C044
(1713559097.866297) can0 290#0000000200000083
(1713559097.866536) can0 5A0#0000006244928076
(1713559097.866772) can0 5B1#008A9A6800000077
(1713559097.867014) can0 5D0#9958010200000000
(1713559097.867252) can0 5CF#7444540000000000
(1713559097.867802) can0 400#28800000000000A1
(1713559097.869629) can0 410#2880008B9F6E8B21
(1713559097.872017) can0 541#0440E800007FFF38
(1713559097.872829) can0 120#00000000070000C4
(1713559097.873073) can0 121#00000000000000D4
(1713559097.873316) can0 129#00000001000000D0
(1713559097.873565) can0 140#0000030000000000
(1713559097.873795) can0 174#EC7F004D42790978
(1713559097.874029) can0 178#FA7F0838069309BF
(1713559097.874269) can0 17C#F87F0100266909FB
(1713559097.874519) can0 4EA#0000000000000000
(1713559097.874764) can0 5B2#0800000000000000
(1713559097.875010) can0 310#FFFFFFFF7D7D0000
(1713559097.875250) can0 12F#F8100120000000AC
(1713559097.875499) can0 12D#00000000000000BE
(1713559097.875744) can0 290#00000002000000B6
(1713559097.877787) can0 400#28800000000000CB
(1713559097.879262) can0 410#2880008B9F6E8B4B
(1713559097.882070) can0 551#000000000004C000
(1713559097.882317) can0 5D1#9958000200000000
(1713559097.883493) can0 174#F07F004D48790A52
(1713559097.883729) can0 178#FC7F000009930A49
(1713559097.883965) can0 17C#F87F01002C690AD3
(1713559097.885021) can0 12F#F8100020000000C1
(1713559097.885255) can0 128#1388030000EC7877
(1713559097.885499) can0 12D#00000000000000D4
(1713559097.885747) can0 12E#000000000000C071
(1713559097.885995) can0 290#00000002000000DC
(1713559097.887896) can0 400#288000000000002A
(1713559097.888488) can0 540#0000001040009E00
(1713559097.888726) can0 5B0#6342000000000077
(1713559097.889255) can0 410#2880008B9F6E8B7E
(1713559097.892013) can0 541#0440E800007FFF52
(1713559097.892927) can0 120#0000000007000025
(1713559097.893174) can0 121#0000000000000035
