(1713559122.575397) can0 12F#F820002000000062
(1713559122.575496) can0 12D#000000000000006A
(1713559122.575524) can0 290#0000000200000062
(1713559122.576968) can0 400#2880000000000094
(1713559122.580944) can0 551#000000000004C000
(1713559122.581188) can0 5D1#9958000200000000
(1713559122.581418) can0 174#EC7F004F4E790F1B
(1713559122.581652) can0 178#F47F000017930FE3
(1713559122.581893) can0 17C#088001003B690F88
(1713559122.582911) can0 410#2880008B9F6E8B21
(1713559122.584684) can0 12F#F81000200000009E
(1713559122.584913) can0 128#1388030000EC7842
(1713559122.585158) can0 12D#000000000000008B
(1713559122.585403) can0 12E#000000000000C044
(1713559122.585654) can0 290#0000000200000083
(1713559122.586968) can0 400#28800000000000A1
(1713559122.590287) can0 140#0000030000000000
(1713559122.590887) can0 541#0440E800007FFF38
(1713559122.591355) can0 174#EC7F004F487900A5
(1713559122.591588) can0 178#EE7F000D18930040
(1713559122.591826) can0 17C#0480010031690087
(1713559122.592079) can0 120#00000000070000C4
(1713559122.592323) can0 121#00000000000000D4
(1713559122.592564) can0 129#00000001000000D0
(1713559122.592836) can0 410#2880008B9F6E8B4B
(1713559122.594886) can0 12F#F8100020000000AB
(1713559122.595132) can0 12D#00000000000000BE
(1713559122.595394) can0 290#00000002000000B6
(1713559122.597035) can0 400#28800000000000CB
(1713559122.600911) can0 551#000000000004C000
(1713559122.601162) can0 5D1#9958000200000000
(1713559122.601397) can0 174#EC7F004F427901B7
(1713559122.601631) can0 178#EA7F0000159301FE
(1713559122.601870) can0 17C#FC7F01001C69015D
(1713559122.602842) can0 410#2880008B9F6E8B7E
(1713559122.604674) can0 12F#F8200020000000DC
(1713559122.604904) can0 128#1388030000EC7877
(1713559122.605148) can0 12D#00000000000000D4
(1713559122.605397) can0 12E#000000000000C071
(1713559122.605635) can0 290#00000002000000DC
(1713559122.607066) can0 400#288000000000002A
(1713559122.607663) can0 540#0000001040009E00
(1713559122.607901) can0 5B0#6342000000000077
(1713559122.609000) can0 550#48000C00010000A8
(1713559122.610815) can0 140#0000030000000000
(1713559122.611361) can0 174#EC7F004F3D79025E
(1713559122.611595) can0 178#EE7F01360F9302CB
(1713559122.611835) can0 17C#FA7F010009690238
(1713559122.612137) can0 120#0000000007000025
(1713559122.612385) can0 121#0000000000000035
(1713559122.612629) can0 129#0000000100000031
(1713559122.612870) can0 410#2880008B9F6E8B9F
(1713559122.613494) can0 541#0440E800007FFF52
(1713559122.613749) can0 552#00FFFFFFFFFFFF2E
(1713559122.613997) can0 450#005500001B004A00
(1713559122.615016) can0 12F#F810002000000020
(1713559122.615252) can0 12A#1428701C605800C7
(1713559122.615498) can0 12D#0000000000000035
(1713559122.615747) can0 290#000000020000003D
(1713559122.617162) can0 400#2880000000000040
(1713559122.620939) can0 551#000000000004C000
(1713559122.621186) can0 5D1#9958000200000000
(1713559122.621424) can0 174#F07F004F3D790341
(1713559122.621662) can0 178#FA7F02300F9303D1
(1713559122.621902) can0 17C#008001000C690364
(1713559122.622293) can0 4EA#0000000000000000
(1713559122.622539) can0 5B2#0800000000000000
(1713559122.622785) can0 310#FFFFFFFF7D7D0000
(1713559122.623029) can0 410#2880008B9F6E8BAA
(1713559122.624697) can0 12F#F81000200000004A
(1713559122.624927) can0 128#1388030000EC7896
(1713559122.625177) can0 12D#000000000000005F
(1713559122.625423) can0 12E#000000000000C090
(1713559122.625669) can0 290#001000020000005C
(1713559122.627154) can0 400#2880000000000075
(1713559122.630888) can0 541#0440E800007FFF67
(1713559122.631344) can0 140#0000030000000000
(1713559122.631575) can0 174#F07F004F3A790498
(1713559122.631809) can0 178#0080033114930425
(1713559122.632052) can0 17C#068001001E6904FF
(1713559122.632298) can0 120#000000000700004F
(1713559122.632546) can0 121#000000000000005F
(1713559122.632790) can0 129#000000010000005B
(1713559122.633031) can0 410#2880008B9F6E8BC0
(1713559122.634912) can0 12F#F820002000000062
(1713559122.635157) can0 12D#000000000000006A
(1713559122.635404) can0 290#0010000200000069
(1713559122.637239) can0 400#2880000000000094
(1713559122.640932) can0 551#000000000004C000
(1713559122.641180) can0 5D1#9958000200000000
(1713559122.641422) can0 174#EC7F004F38790584
(1713559122.641655) can0 178#0280043814930588
(1713559122.641896) can0 17C#048001002C690573
(1713559122.642749) can0 410#2880008B9F6E8B21
(1713559122.644687) can0 12F#F81000200000009E
(1713559122.644916) can0 128#1388030000EC78A3
(1713559122.645158) can0 12D#000000000000008B
(1713559122.645401) can0 12E#000000000000C0A5
(1713559122.645653) can0 290#0000000200000083
(1713559122.647298) can0 400#28800000000000A1
(1713559122.650887) can0 541#0440E800007FFF86
(1713559122.651378) can0 174#EA7F004F3B7906FC
(1713559122.651611) can0 178#028005310F93065C
(1713559122.651852) can0 17C#FE7F010034690688
(1713559122.652102) can0 140#0000030000000000
(1713559122.652356) can0 120#000000000700007A
(1713559122.652608) can0 121#000000000000006A
(1713559122.652856) can0 129#000000010000006E
(1713559122.653095) can0 410#2880008B9F6E8B4B
(1713559122.654863) can0 12F#F8100020000000AB
(1713559122.655111) can0 12D#00000000000000BE
(1713559122.655359) can0 290#00000002000000B6
(1713559122.657333) can0 400#28800000000000CB
(1713559122.659051) can0 550#48000C00010000C2
(1713559122.660958) can0 551#000000000004C000
(1713559122.661207) can0 552#00FFFFFFFFFFFF44
(1713559122.661445) can0 174#EE7F004F3B790788
(1713559122.661685) can0 178#0480063211930787
(1713559122.661926) can0 17C#FE7F01002F69070D
(1713559122.662165) can0 5D1#9958000200000000
(1713559122.662410) can0 5D2#7444540000000000
(1713559122.662655) can0 450#005500001B004A00
(1713559122.662896) can0 410#2880008B9F6E8B7E
(1713559122.664750) can0 12F#F8100020000000C1
(1713559122.664992) can0 128#1388030000EC78C9
(1713559122.665219) can0 12A#1428701C60580026
(1713559122.665462) can0 12D#00000000000000D4
(1713559122.665708) can0 12E#000000000000C0CF
(1713559122.665955) can0 290#00000002000000DC
(1713559122.666192) can0 5A0#00000062449280A2
(1713559122.666441) can0 6B9#0020400000000000
(1713559122.666685) can0 5A2#1410140000000000
(1713559122.667406) can0 400#288000000000002A
(1713559122.667639) can0 5B1#008A9A68000000A3
(1713559122.667882) can0 5D0#9958010200000000
(1713559122.668119) can0 5CF#7444540000000000
(1713559122.670880) can0 541#0440E800007FFFB3
(1713559122.671382) can0 174#F27F004F3779083B
(1713559122.671616) can0 178#028007391493082A
(1713559122.671858) can0 17C#008001002169081E
(1713559122.672394) can0 140#0000030000000000
(1713559122.672640) can0 120#000000000700009B
(1713559122.672884) can0 121#000000000000008B
(1713559122.673127) can0 129#000000010000008F
(1713559122.673367) can0 410#2880008B9F6E8B9F
(1713559122.674882) can0 12F#F82000200000003D
(1713559122.675129) can0 12D#0000000000000035
(1713559122.675378) can0 290#000000020000003D
(1713559122.677425) can0 400#2880000000000040
(1713559122.680939) can0 551#000000000004C000
(1713559122.681185) can0 5D1#9958000200000000
(1713559122.681443) can0 174#F07F004F2C790904
(1713559122.681677) can0 178#0080082D1493099A
(1713559122.681919) can0 17C#0080010013690928
(1713559122.682665) can0 410#2880008B9F6E8BAA
(1713559122.684680) can0 12F#F81000200000004A
(1713559122.684916) can0 128#1388030000EC7828
(1713559122.685166) can0 12D#000000000000005F
(1713559122.685417) can0 12E#000000000000C02E
(1713559122.685660) can0 290#001000020000005C
(1713559122.687487) can0 400#2880000000000075
(1713559122.690877) can0 541#0440E800007FFFD9
(1713559122.691397) can0 174#EE7F004F29790A12
(1713559122.691630) can0 178#0280093012930A02
(1713559122.691871) can0 17C#0080010008690A97
(1713559122.692529) can0 120#00000000070000AE
(1713559122.692775) can0 121#00000000000000BE
(1713559122.693017) can0 129#00000001000000BA
(1713559122.693267) can0 140#0000030000000000
(1713559122.693507) can0 410#2880008B9F6E8BC0
(1713559122.694870) can0 12F#F820002000000062
(1713559122.695116) can0 12D#000000000000006A
(1713559122.695360) can0 290#0010000200000069
(1713559122.697524) can0 400#2880000000000094
(1713559122.699194) can0 6AB#ACC2A57596A3C162
(1713559122.700938) can0 551#000000000004C000
(1713559122.701182) can0 5D1#9958000200000000
(1713559122.701447) can0 174#EE7F004F34790B92
(1713559122.701684) can0 178#0A800A320F930BC9
(1713559122.701922) can0 17C#FC7F010006690B98
(1713559122.702615) can0 410#2880008B9F6E8B21
(1713559122.704686) can0 12F#F81000200000009E
(1713559122.704919) can0 128#1388030000EC7842
(1713559122.705165) can0 12D#000000000000008B
(1713559122.705409) can0 12E#000000000000C044
(1713559122.705668) can0 290#0000000200000083
(1713559122.707579) can0 400#28800000000000A1
(1713559122.708172) can0 540#0000001040009E00
(1713559122.708414) can0 5B0#6342000000000096
(1713559122.709050) can0 550#48000C0001000023
(1713559122.710908) can0 541#0440E800007FFF38
(1713559122.711162) can0 552#00FFFFFFFFFFFF71
(1713559122.711394) can0 174#EC7F004F43790CB9
(1713559122.711630) can0 178#0C800B360F930C6D
(1713559122.711870) can0 17C#F87F010006690CA2
(1713559122.712110) can0 450#005500001B004A00
(1713559122.712542) can0 410#2880008B9F6E8B4B
(1713559122.712788) can0 120#00000000070000C4
(1713559122.713032) can0 121#00000000000000D4
(1713559122.713275) can0 129#00000001000000D0
(1713559122.713525) can0 140#0000030000000000
(1713559122.714967) can0 12F#F8100120000000AC
(1713559122.715199) can0 12A#1428701C6058004C
(1713559122.715448) can0 12D#00000000000000BE
(1713559122.715694) can0 290#00000002000000B6
(1713559122.717625) can0 400#28800000000000CB
(1713559122.720934) can0 551#000000000004C000
(1713559122.721183) can0 5D1#9958000200000000
(1713559122.721453) can0 174#EC7F004F4B790DA8
(1713559122.721687) can0 178#04800C3011930DD1
(1713559122.721924) can0 17C#F67F010008690DB7
(1713559122.722173) can0 4EA#0000000000000000
(1713559122.722419) can0 5B2#0800000000000000
(1713559122.722665) can0 310#FFFFFFFF7D7D0000
(1713559122.722905) can0 410#2880008B9F6E8B7E
(1713559122.724687) can0 12F#F8200020000000DC
(1713559122.724919) can0 128#1388030000EC7877
(1713559122.725163) can0 12D#00000000000000D4
(1713559122.725411) can0 12E#000000000000C071
(1713559122.725659) can0 290#00000002000000DC
(1713559122.727683) can0 400#288000000000002A
(1713559122.730934) can0 541#0440E800007FFF52
(1713559122.731462) can0 174#F07F004F4A790E02
(1713559122.731651) can0 178#F87F000014930EC9
(1713559122.731886) can0 17C#F67F010010690E84
(1713559122.732492) can0 410#2880008B9F6E8B9F
(1713559122.732746) can0 120#0000000007000025
(1713559122.732994) can0 121#0000000000000035
(1713559122.733238) can0 129#0000000100000031
(1713559122.733976) can0 140#0000030000000000
(1713559122.734866) can0 12F#F810002000000020
(1713559122.735112) can0 12D#0000000000000035
(1713559122.735361) can0 290#000000020000003D
(1713559122.737661) can0 400#2880000000000040
(1713559122.740929) can0 551#000000000004C000
(1713559122.741175) can0 5D1#9958000200000000
(1713559122.741457) can0 174#F07F004F46790F15
(1713559122.741691) can0 178#F27F013014930FB9
(1713559122.741933) can0 17C#FA7F010017690FA8
(1713559122.742509) can0 410#2880008B9F6E8BAA
(1713559122.744722) can0 12F#F81000200000004A
(1713559122.744953) can0 128#1388030000EC7896
(1713559122.745203) can0 12D#000000000000005F
(1713559122.745450) can0 12E#000000000000C090
(1713559122.745696) can0 290#0000000200000057
(1713559122.747778) can0 400#2880000000000075
(1713559122.750934) can0 541#0440E800007FFF67
(1713559122.751470) can0 174#F07F004F427900A8
(1713559122.751651) can0 178#F47F0232159300C7
(1713559122.751893) can0 17C#FA7F01001E690090
(1713559122.752452) can0 410#2880008B9F6E8BC0
(1713559122.752826) can0 120#000000000700004F
(1713559122.753075) can0 121#000000000000005F
(1713559122.753319) can0 129#000000010000005B
(1713559122.754503) can0 140#0000030000000000
(1713559122.754874) can0 12F#F820002000000062
(1713559122.755119) can0 12D#000000000000006A
(1713559122.755368) can0 290#0000000200000062
(1713559122.757762) can0 400#2880000000000094
(1713559122.759004) can0 550#48000C0001000049
(1713559122.760952) can0 551#000000000004C000
(1713559122.761204) can0 552#00FFFFFFFFFFFF90
(1713559122.761450) can0 5D1#9958000200000000
(1713559122.761680) can0 174#EE7F004F3A790149
(1713559122.761912) can0 178#FC7F03361A9301AA
(1713559122.762155) can0 17C#FA7F01001F690102
(1713559122.762392) can0 5D2#7444540000000000
(1713559122.762629) can0 410#2880008B9F6E8B21
(1713559122.762869) can0 450#005500001B004A00
(1713559122.764742) can0 12F#F81000200000009E
(1713559122.764975) can0 128#1388030000EC78A3
(1713559122.765210) can0 12A#1428701C60580079
(1713559122.765453) can0 12D#000000000000008B
(1713559122.765697) can0 12E#000000000000C0A5
(1713559122.765947) can0 290#0010000200000088
(1713559122.766184) can0 5A0#00000062449280C8
(1713559122.766431) can0 6B9#0020400000000000
(1713559122.766676) can0 5A2#1410140000000000
(1713559122.767578) can0 5D0#9958010200000000
(1713559122.767812) can0 5B1#008A9A68000000C9
(1713559122.768065) can0 400#28800000000000A1
(1713559122.768298) can0 5CF#7444540000000000
(1713559122.770926) can0 541#0440E800007FFF86
(1713559122.771465) can0 174#EE7F004F2D7902FC
(1713559122.771694) can0 178#028004351C930298
(1713559122.771916) can0 17C#FA7F01001E6902AA
(1713559122.772451) can0 410#2880008B9F6E8B4B
(1713559122.772928) can0 120#000000000700007A
(1713559122.773179) can0 121#000000000000006A
(1713559122.773427) can0 129#000000010000006E
(1713559122.774881) can0 12F#F8200020000000B6
(1713559122.775129) can0 12D#00000000000000BE
(1713559122.775380) can0 140#0000030000000000
(1713559122.775625) can0 290#00100002000000BD
(1713559122.777853) can0 400#28800000000000CB
(1713559122.780885) can0 551#000000000004C000
(1713559122.781134) can0 5D1#9958000200000000
(1713559122.781418) can0 174#F07F004F247903DA
(1713559122.781652) can0 178#06800530159303D6
(1713559122.781892) can0 17C#FC7F0100196903EE
(1713559122.782500) can0 410#2880008B9F6E8B7E
(1713559122.784704) can0 12F#F8100020000000C1
(1713559122.784938) can0 128#1388030000EC78C9
(1713559122.785185) can0 12D#00000000000000D4
(1713559122.785427) can0 12E#000000000000C0CF
(1713559122.785675) can0 290#00000002000000DC
(1713559122.787965) can0 400#288000000000002A
(1713559122.790922) can0 541#0440E800007FFFB3
(1713559122.791477) can0 174#F67F004F277904D6
(1713559122.791707) can0 178#068006310F9304B1
(1713559122.791946) can0 17C#FC7F0100176904B4
(1713559122.792504) can0 410#2880008B9F6E8B9F
(1713559122.793068) can0 120#000000000700009B
(1713559122.793312) can0 121#000000000000008B
(1713559122.793554) can0 129#000000010000008F
(1713559122.794888) can0 12F#F810002000000020
(1713559122.795109) can0 12D#0000000000000035
(1713559122.795357) can0 290#000000020000003D
(1713559122.795606) can0 140#0000030000000000
(1713559122.797953) can0 400#2880000000000040
(1713559122.800877) can0 551#000000000004C000
(1713559122.801128) can0 5D1#9958000200000000
(1713559122.801425) can0 174#F87F004F2D7905C5
(1713559122.801661) can0 178#048007310D93057F
(1713559122.801897) can0 17C#F67F0100216905EC
(1713559122.802453) can0 410#2880008B9F6E8BAA
(1713559122.804677) can0 12F#F820002000000057
(1713559122.804913) can0 128#1388030000EC7828
(1713559122.805163) can0 12D#000000000000005F
(1713559122.805408) can0 12E#000000000000C02E
(1713559122.805653) can0 290#0000000200000057
(1713559122.808055) can0 400#2880000000000075
(1713559122.808680) can0 540#0000001040009E00
(1713559122.808922) can0 5B0#63420000000000A3
(1713559122.809166) can0 550#48000C000100007C
(1713559122.810949) can0 541#0440E800007FFFD9
(1713559122.811201) can0 552#00FFFFFFFFFFFFA5
(1713559122.811456) can0 450#005500001B004A00
(1713559122.811679) can0 174#F27F004F3779069D
(1713559122.811917) can0 178#048008310F930627
(1713559122.812153) can0 17C#EC7F01002F690613
(1713559122.812499) can0 410#2880008B9F6E8BC0
(1713559122.813166) can0 120#00000000070000AE
(1713559122.813412) can0 121#00000000000000BE
(1713559122.813653) can0 129#00000001000000BA
(1713559122.815018) can0 12F#F81000200000007F
(1713559122.815252) can0 12A#1428701C60580098
(1713559122.815450) can0 12D#000000000000006A
(1713559122.815698) can0 290#0000000200000062
(1713559122.816090) can0 140#0000030000000000
(1713559122.818046) can0 400#2880000000000094
(1713559122.820880) can0 551#000000000004C000
(1713559122.821128) can0 5D1#9958000200000000
(1713559122.821433) can0 174#EE7F004F3F79078E
(1713559122.821671) can0 178#068009300F930777
(1713559122.821906) can0 17C#E87F010037690773
(1713559122.822156) can0 4EA#0000000000000000
(1713559122.822401) can0 5B2#0800000000000000
(1713559122.822647) can0 310#FFFFFFFF7D7D0000
(1713559122.822910) can0 410#2880008B9F6E8B21
(1713559122.824729) can0 12F#F81000200000009E
(1713559122.824961) can0 128#1388030000EC7842
(1713559122.825208) can0 12D#000000000000008B
(1713559122.825451) can0 12E#000000000000C044
(1713559122.825704) can0 290#0000000200000083
(1713559122.828153) can0 400#28800000000000A1
(1713559122.830926) can0 541#0440E800007FFF38
(1713559122.831485) can0 174#EE7F004F3B790833
(1713559122.831718) can0 178#04800A380F930854
(1713559122.831954) can0 17C#F27F01003169081C
(1713559122.832510) can0 410#2880008B9F6E8B4B
(1713559122.833255) can0 120#00000000070000C4
(1713559122.833499) can0 121#00000000000000D4
(1713559122.833741) can0 129#00000001000000D0
(1713559122.834915) can0 12F#F8200020000000B6
(1713559122.835163) can0 12D#00000000000000BE
(1713559122.835411) can0 290#00000002000000B6
(1713559122.836618) can0 140#0000030000000000
(1713559122.838143) can0 400#28800000000000CB
(1713559122.840874) can0 551#000000000004C000
(1713559122.841123) can0 5D1#9958000200000000
(1713559122.841433) can0 174#EE7F004F327909AD
(1713559122.841670) can0 178#FC7F00001193097A
(1713559122.841909) can0 17C#0080010026690989
(1713559122.842466) can0 410#2880008B9F6E8B7E
(1713559122.844678) can0 12F#F8100020000000C1
(1713559122.844910) can0 128#1388030000EC7877
(1713559122.845154) can0 12D#00000000000000D4
(1713559122.845402) can0 12E#000000000000C071
(1713559122.845650) can0 290#00000002000000DC
(1713559122.848250) can0 400#288000000000002A
(1713559122.850927) can0 541#0440E800007FFF52
(1713559122.851489) can0 174#F07F004F2D790AAC
(1713559122.851721) can0 178#F87F013015930A37
(1713559122.851967) can0 17C#048001001F690A6C
(1713559122.852519) can0 410#2880008B9F6E8B9F
(1713559122.853355) can0 120#0000000007000025
(1713559122.853603) can0 121#0000000000000035
(1713559122.853848) can0 129#0000000100000031
(1713559122.854915) can0 12F#F82000200000003D
(1713559122.855158) can0 12D#0000000000000035
(1713559122.855408) can0 290#000000020000003D
(1713559122.857146) can0 140#0000030000000000
(1713559122.858242) can0 400#2880000000000040
(1713559122.859010) can0 550#48000C000100009D
(1713559122.860899) can0 551#000000000004C000
(1713559122.861154) can0 552#00FFFFFFFFFFFFCF
(1713559122.861400) can0 5D1#9958000200000000
(1713559122.861628) can0 174#F27F004F2C790B84
(1713559122.861866) can0 178#F87F00001D930B23
(1713559122.862105) can0 17C#0480010017690B7D
(1713559122.862343) can0 5D2#7444540000000000
(1713559122.862578) can0 410#2880008B9F6E8BAA
(1713559122.862818) can0 450#005500001B004A00
(1713559122.864750) can0 12F#F81000200000004A
(1713559122.864985) can0 128#1388030000EC7896
(1713559122.865216) can0 12A#1428701C605800AD
(1713559122.865466) can0 12D#000000000000005F
(1713559122.865711) can0 12E#000000000000C090
(1713559122.865958) can0 290#001000020000005C
(1713559122.866196) can0 5A0#0000006244928029
(1713559122.866444) can0 6B9#0020400000000000
(1713559122.866688) can0 5A2#1410140000000000
(1713559122.867551) can0 5D0#9958010200000000
(1713559122.867786) can0 5B1#008A9A6800000028
(1713559122.868025) can0 5CF#7444540000000000
(1713559122.868337) can0 400#2880000000000075
(1713559122.870923) can0 541#0440E800007FFF67
(1713559122.871495) can0 174#F27F004F2D790C58
(1713559122.871725) can0 178#F87F015325930C35
(1713559122.871965) can0 17C#008001000E690CDC
(1713559122.872531) can0 410#2880008B9F6E8BC0
(1713559122.873451) can0 120#000000000700004F
(1713559122.873698) can0 121#000000000000005F
(1713559122.873942) can0 129#000000010000005B
(1713559122.874932) can0 12F#F81000200000007F
(1713559122.875178) can0 12D#000000000000006A
(1713559122.875425) can0 290#0010000200000069
(1713559122.877673) can0 140#0000030000000000
(1713559122.878342) can0 400#2880000000000094
(1713559122.880879) can0 551#000000000004C000
(1713559122.881128) can0 5D1#9958000200000000
(1713559122.881445) can0 174#F27F004F34790DDE
(1713559122.881679) can0 178#F87F024327930DB0
(1713559122.881917) can0 17C#FC7F010006690DD6
(1713559122.882363) can0 410#2880008B9F6E8B21
(1713559122.884631) can0 12F#F820002000000083
(1713559122.884867) can0 128#1388030000EC78A3
(1713559122.885111) can0 12D#000000000000008B
(1713559122.885355) can0 12E#000000000000C0A5
(1713559122.885607) can0 290#0000000200000083
(1713559122.888436) can0 400#28800000000000A1
(1713559122.890916) can0 541#0440E800007FFF86
(1713559122.891498) can0 174#F27F004F37790E75
(1713559122.891728) can0 178#FA7F03321D930E06
(1713559122.891964) can0 17C#F67F010005690E15
(1713559122.892386) can0 410#2880008B9F6E8B4B
(1713559122.893549) can0 120#000000000700007A
(1713559122.893801) can0 121#000000000000006A
(1713559122.894049) can0 129#000000010000006E
(1713559122.894915) can0 12F#F8100020000000AB
(1713559122.895157) can0 12D#00000000000000BE
(1713559122.895404) can0 290#00000002000000B6
(1713559122.898252) can0 140#0000030000000000
(1713559122.898502) can0 400#28800000000000CB
(1713559122.901217) can0 551#000000000004C000
(1713559122.901453) can0 174#F27F004F34790FE4
(1713559122.901690) can0 178#FE7F04300A930FCC
(1713559122.901932) can0 17C#F07F01000B690FD2
(1713559122.902172) can0 5D1#9958000200000000
(1713559122.902412) can0 410#2880008B9F6E8B7E
(1713559122.904633) can0 12F#F8100020000000C1
(1713559122.904869) can0 128#1388030000EC78C9
(1713559122.905113) can0 12D#00000000000000D4
(1713559122.905356) can0 12E#000000000000C0CF
(1713559122.905604) can0 290#00000002000000DC
(1713559122.908534) can0 400#288000000000002A
(1713559122.909051) can0 550#48000C00010000A8
(1713559122.909297) can0 540#0000001040009E00
(1713559122.909540) can0 5B0#63420000000000C9
(1713559122.910937) can0 541#0440E800007FFFB3
(1713559122.911193) can0 552#00FFFFFFFFFFFF2E
(1713559122.911442) can0 450#005500001B004A00
(1713559122.911675) can0 174#F07F004F2D79007E
(1713559122.911909) can0 178#FE7F0530FC9200DC
(1713559122.912147) can0 17C#EC7F01001169007C
(1713559122.912388) can0 410#2880008B9F6E8B9F
(1713559122.913637) can0 120#000000000700009B
(1713559122.913880) can0 121#000000000000008B
(1713559122.914122) can0 129#000000010000008F
(1713559122.915022) can0 12F#F82000200000003D
(1713559122.915252) can0 12A#1428701C605800C7
(1713559122.915506) can0 12D#0000000000000035
(1713559122.915747) can0 290#000000020000003D
(1713559122.918589) can0 400#2880000000000040
(1713559122.918837) can0 140#0000030000000000
(1713559122.920875) can0 551#000000000004C000
(1713559122.921123) can0 5D1#9958000200000000
(1713559122.921463) can0 174#EC7F004F29790167
(1713559122.921699) can0 178#FE7F0632FC920158
(1713559122.921935) can0 17C#EC7F010011690161
(1713559122.922184) can0 4EA#0000000000000000
(1713559122.922421) can0 410#2880008B9F6E8BAA
(1713559122.922666) can0 5B2#0800000000000000
(1713559122.922912) can0 310#FFFFFFFF7D7D0000
(1713559122.924634) can0 12F#F81000200000004A
(1713559122.924871) can0 128#1388030000EC7828
(1713559122.925122) can0 12D#000000000000005F
(1713559122.925366) can0 12E#000000000000C02E
(1713559122.925613) can0 290#0000000200000057
(1713559122.928631) can0 400#2880000000000075
(1713559122.930921) can0 541#0440E800007FFFD9
(1713559122.931513) can0 174#EC7F004F2D790246
(1713559122.931749) can0 178#FC7F073707930238
(1713559122.931986) can0 17C#F27F01000B6902E9
(1713559122.932281) can0 410#2880008B9F6E8BC0
(1713559122.933747) can0 120#00000000070000AE
(1713559122.933993) can0 121#00000000000000BE
(1713559122.934235) can0 129#00000001000000BA
(1713559122.934865) can0 12F#F820002000000062
(1713559122.935111) can0 12D#000000000000006A
(1713559122.935387) can0 290#0000000200000062
(1713559122.938685) can0 400#2880000000000094
(1713559122.939262) can0 140#0000030000000000
(1713559122.940870) can0 551#000000000004C000
(1713559122.941118) can0 5D1#9958000200000000
(1713559122.941468) can0 174#EE7F004F3D7903F9
(1713559122.941701) can0 178#FE7F085F14930335
(1713559122.941938) can0 17C#FA7F01000369032A
(1713559122.942174) can0 410#2880008B9F6E8B21
(1713559122.944683) can0 12F#F81000200000009E
(1713559122.944916) can0 128#1388030000EC7842
(1713559122.945163) can0 12D#000000000000008B
(1713559122.945407) can0 12E#000000000000C044
(1713559122.945660) can0 290#0000000200000083
(1713559122.948728) can0 400#28800000000000A1
(1713559122.950924) can0 541#0440E800007FFF38
(1713559122.951519) can0 174#EE7F004F4E79046E
(1713559122.951753) can0 178#048009301D9304F1
(1713559122.951991) can0 17C#048001000B6904D4
(1713559122.952229) can0 410#2880008B9F6E8B4B
(1713559122.953837) can0 120#00000000070000C4
(1713559122.954080) can0 121#00000000000000D4
(1713559122.954325) can0 129#00000001000000D0
(1713559122.954848) can0 12F#F8100020000000AB
(1713559122.955097) can0 12D#00000000000000BE
(1713559122.955349) can0 290#00000002000000B6
(1713559122.958789) can0 400#28800000000000CB
(1713559122.959051) can0 550#48000C00010000C2
(1713559122.959842) can0 140#0000030000000000
(1713559122.960950) can0 551#000000000004C000
(1713559122.961204) can0 552#00FFFFFFFFFFFF44
(1713559122.961450) can0 5D1#9958000200000000
(1713559122.961680) can0 174#EA7F004F53790587
(1713559122.961912) can0 178#08800A371D93051D
(1713559122.962150) can0 17C#068001001B69056B
(1713559122.962390) can0 410#2880008B9F6E8B7E
(1713559122.962627) can0 5D2#7444540000000000
(1713559122.962839) can0 450#005500001B004A00
(1713559122.964746) can0 12F#F8200020000000DC
(1713559122.964978) can0 128#1388030000EC7877
(1713559122.965212) can0 12A#1428701C60580026
(1713559122.965456) can0 12D#00000000000000D4
(1713559122.965704) can0 12E#000000000000C071
(1713559122.965952) can0 290#00000002000000DC
(1713559122.966190) can0 5A0#0000006244928043
(1713559122.966439) can0 6B9#0020400000000000
(1713559122.966683) can0 5A2#1410140000000000
(1713559122.967558) can0 5D0#9958010200000000
(1713559122.967793) can0 5B1#008A9A6800000042
(1713559122.968031) can0 5CF#7444540000000000
(1713559122.968776) can0 400#288000000000002A
(1713559122.970915) can0 541#0440E800007FFF52
(1713559122.971528) can0 174#E67F004F45790606
(1713559122.971758) can0 178#06800B3117930637
(1713559122.972000) can0 17C#0080010024690631
(1713559122.972239) can0 410#2880008B9F6E8B9F
(1713559122.973936) can0 120#0000000007000025
(1713559122.974184) can0 121#0000000000000035
(1713559122.974428) can0 129#0000000100000031
(1713559122.974788) can0 12F#F810002000000020
(1713559122.975035) can0 12D#0000000000000035
(1713559122.975283) can0 290#000000020000003D
(1713559122.978889) can0 400#2880000000000040
(1713559122.980374) can0 140#0000030000000000
(1713559122.980922) can0 551#000000000004C000
(1713559122.981172) can0 5D1#9958000200000000
(1713559122.981528) can0 174#E87F004F2D790746
(1713559122.981772) can0 178#02800000129307F1
(1713559122.982012) can0 17C#FC7F010024690737
(1713559122.982248) can0 410#2880008B9F6E8BAA
(1713559122.984780) can0 12F#F81000200000004A
(1713559122.985012) can0 128#1388030000EC7896
(1713559122.985262) can0 12D#000000000000005F
(1713559122.985508) can0 12E#000000000000C090
(1713559122.985754) can0 290#0000000200000057
(1713559122.988872) can0 400#2880000000000075
(1713559122.990917) can0 541#0440E800007FFF67
(1713559122.991539) can0 174#EE7F004F247908AD
(1713559122.991770) can0 178#FE7F01371593082A
(1713559122.992007) can0 17C#FE7F0100216908BF
(1713559122.992247) can0 410#2880008B9F6E8BC0
(1713559122.994033) can0 120#000000000700004F
(1713559122.994281) can0 121#000000000000005F
(1713559122.994525) can0 129#000000010000005B
(1713559122.994770) can0 12F#F820002000000062
(1713559122.995017) can0 12D#000000000000006A
(1713559122.995266) can0 290#0000000200000062
(1713559122.998987) can0 400#2880000000000094
(1713559123.000907) can0 140#0000030000000000
(1713559123.001145) can0 551#000000000004C000
(1713559123.001395) can0 5D1#9958000200000000
(1713559123.001622) can0 174#F27F004F2A7909BB
(1713559123.001858) can0 178#0080022E1C93098F
(1713559123.002097) can0 17C#048001001C6909C7
(1713559123.002332) can0 410#2880008B9F6E8B21
(1713559123.004769) can0 12F#F81000200000009E
(1713559123.005002) can0 128#1388030000EC78A3
(1713559123.005248) can0 12D#000000000000008B
(1713559123.005493) can0 12E#000000000000C0A5
(1713559123.005745) can0 290#0000000200000083
(1713559123.008969) can0 400#28800000000000A1
(1713559123.009210) can0 550#48000C0001000023
(1713559123.009564) can0 540#0000001040009E00
(1713559123.009806) can0 5B0#6342000000000028
(1713559123.010942) can0 541#0440E800007FFF86
(1713559123.011194) can0 552#00FFFFFFFFFFFF71
(1713559123.011443) can0 450#005500001B004A00
(1713559123.011667) can0 174#F27F004F3A790A84
(1713559123.011899) can0 178#048003311A930AE3
(1713559123.012134) can0 17C#0880010014690A57
(1713559123.012372) can0 410#2880008B9F6E8B4B
(1713559123.014130) can0 120#000000000700007A
(1713559123.014383) can0 121#000000000000006A
(1713559123.014630) can0 129#000000010000006E
(1713559123.014881) can0 12F#F8200020000000B6
(1713559123.015113) can0 12A#1428701C6058004C
(1713559123.015390) can0 12D#00000000000000BE
(1713559123.015608) can0 290#00000002000000B6
(1713559123.019079) can0 400#28800000000000CB
(1713559123.020922) can0 551#000000000004C000
(1713559123.021168) can0 5D1#9958000200000000
(1713559123.021432) can0 140#0000030000000000
(1713559123.021660) can0 174#EE7F004F45790B55
(1713559123.021891) can0 178#0880043014930BDA
(1713559123.022129) can0 17C#0680010017690BC7
(1713559123.022370) can0 410#2880008B9F6E8B7E
(1713559123.022620) can0 4EA#0000000000000000
(1713559123.022865) can0 5B2#0800000000000000
(1713559123.023063) can0 310#FFFFFFFF7D7D0000
(1713559123.024780) can0 12F#F8100020000000C1
(1713559123.025015) can0 128#1388030000EC78C9
(1713559123.025259) can0 12D#00000000000000D4
(1713559123.025503) can0 12E#000000000000C0CF
(1713559123.025751) can0 290#00000002000000DC
(1713559123.029068) can0 400#288000000000002A
(1713559123.030918) can0 541#0440E800007FFFB3
(1713559123.031548) can0 174#EC7F004F48790C39
(1713559123.031783) can0 178#088000000F930CCB
(1713559123.032023) can0 17C#FE7F010026690C41
(1713559123.032262) can0 410#2880008B9F6E8B9F
(1713559123.034224) can0 120#000000000700009B
(1713559123.034468) can0 121#000000000000008B
(1713559123.034710) can0 129#000000010000008F
(1713559123.034957) can0 12D#0000000000000035
(1713559123.035201) can0 12F#F810002000000020
(1713559123.035451) can0 290#000000020000003D
(1713559123.039176) can0 400#2880000000000040
(1713559123.040917) can0 551#000000000004C000
(1713559123.041163) can0 5D1#9958000200000000
(1713559123.041553) can0 174#EE7F004F46790D97
(1713559123.041792) can0 178#068001380F930D4E
(1713559123.042040) can0 140#0000030000000000
(1713559123.042275) can0 17C#F27F01002F690D64
(1713559123.042511) can0 410#2880008B9F6E8BAA
(1713559123.044831) can0 12F#F820002000000057
(1713559123.045067) can0 128#1388030000EC7828
(1713559123.045317) can0 12D#000000000000005F
(1713559123.045561) can0 12E#000000000000C02E
(1713559123.045807) can0 290#0000000200000057
(1713559123.049161) can0 400#2880000000000075
(1713559123.050916) can0 541#0440E800007FFFD9
(1713559123.051560) can0 174#EE7F004F3F790E7B
(1713559123.051795) can0 178#FE7F02320F930E1E
(1713559123.052032) can0 17C#EC7F01002F690EFB
(1713559123.052270) can0 410#2880008B9F6E8BC0
(1713559123.054321) can0 120#00000000070000AE
(1713559123.054569) can0 121#00000000000000BE
(1713559123.054809) can0 129#00000001000000BA
(1713559123.055055) can0 12D#000000000000006A
(1713559123.055304) can0 12F#F81000200000007F
(1713559123.055555) can0 290#0000000200000062
(1713559123.055798) can0 6E2#0544000000000000
(1713559123.059051) can0 550#48000C0001000049
(1713559123.059312) can0 400#2880000000000094
(1713559123.060944) can0 551#000000000004C000
(1713559123.061198) can0 552#00FFFFFFFFFFFF90
(1713559123.061444) can0 5D1#9958000200000000
(1713559123.061672) can0 174#EE7F004F35790F69
(1713559123.061908) can0 178#F87F03320C930F36
(1713559123.062144) can0 17C#EE7F01002D690F5F
(1713559123.062380) can0 410#2880008B9F6E8B21
(1713559123.062631) can0 140#0000030000000000
(1713559123.062871) can0 5D2#7444540000000000
(1713559123.063118) can0 450#005500001B004A00
(1713559123.064898) can0 12F#F81000200000009E
(1713559123.065131) can0 128#1388030000EC7842
(1713559123.065363) can0 12A#1428701C60580079
(1713559123.065609) can0 12D#000000000000008B
(1713559123.065854) can0 12E#000000000000C044
(1713559123.066106) can0 290#0000000200000083
(1713559123.066344) can0 5A0#0000006244928076
(1713559123.066592) can0 6B9#0020400000000000
(1713559123.066836) can0 5A2#1410140000000000
(1713559123.067561) can0 5D0#9958010200000000
(1713559123.067796) can0 5B1#008A9A6800000077
(1713559123.068035) can0 5CF#7444540000000000
(1713559123.069260) can0 400#28800000000000A1
(1713559123.070915) can0 541#0440E800007FFF38
(1713559123.071583) can0 174#F07F004F3579006A
(1713559123.071815) can0 178#F87F04350F9300FE
(1713559123.072059) can0 17C#F87F01002669000E
(1713559123.072296) can0 410#2880008B9F6E8B4B
(1713559123.074424) can0 120#00000000070000C4
(1713559123.074667) can0 121#00000000000000D4
(1713559123.074911) can0 129#00000001000000D0
(1713559123.075158) can0 12D#00000000000000BE
(1713559123.075404) can0 12F#F8200020000000B6
(1713559123.075648) can0 290#00000002000000B6
(1713559123.079398) can0 400#28800000000000CB
(1713559123.080922) can0 551#000000000004C000
(1713559123.081169) can0 5D1#9958000200000000
(1713559123.081559) can0 174#F27F004F3A79014B
(1713559123.081797) can0 178#FA7F00001A9301C1
(1713559123.082039) can0 17C#02800100146901F0
(1713559123.082282) can0 410#2880008B9F6E8B7E
(1713559123.083009) can0 140#0000030000000000
(1713559123.084830) can0 12F#F8100020000000C1
(1713559123.085063) can0 128#1388030000EC7877
(1713559123.085307) can0 12D#00000000000000D4
(1713559123.085555) can0 12E#000000000000C071
(1713559123.085804) can0 290#00000002000000DC
(1713559123.089358) can0 400#288000000000002A
(1713559123.091579) can0 410#2880008B9F6E8B9F
(1713559123.091803) can0 174#F27F004F3B7902E3
(1713559123.092037) can0 178#F67F01322293025B
(1713559123.092283) can0 17C#008001000869027F
(1713559123.093370) can0 541#0440E800007FFF52
(1713559123.094516) can0 120#0000000007000025
(1713559123.094764) can0 121#0000000000000035
(1713559123.095008) can0 129#0000000100000031
(1713559123.095271) can0 12D#0000000000000035
(1713559123.095502) can0 12F#F82000200000003D
(1713559123.095747) can0 290#000000020000003D
(1713559123.099480) can0 400#2880000000000040
(1713559123.100916) can0 551#000000000004C000
(1713559123.101164) can0 5D1#9958000200000000
(1713559123.101544) can0 410#2880008B9F6E8BAA
(1713559123.101776) can0 174#F67F004F3879031B
(1713559123.102007) can0 178#EC7F02302293030E
(1713559123.102248) can0 17C#F87F010008690310
(1713559123.103489) can0 140#0000030000000000
(1713559123.104834) can0 12F#F81000200000004A
(1713559123.105068) can0 128#1388030000EC7896
(1713559123.105318) can0 12D#000000000000005F
(1713559123.105564) can0 12E#000000000000C090
(1713559123.105810) can0 290#0000000200000057
(1713559123.109006) can0 550#48000C000100007C
(1713559123.109452) can0 400#2880000000000075
(1713559123.110064) can0 540#0000001040009E00
(1713559123.110305) can0 5B0#6342000000000042
(1713559123.110904) can0 541#0440E800007FFF67
(1713559123.111191) can0 552#00FFFFFFFFFFFFA5
(1713559123.111439) can0 450#005500001B004A00
(1713559123.111670) can0 174#F67F004F357904CD
(1713559123.111900) can0 178#EA7F03321A9304E7
(1713559123.112137) can0 17C#F47F0100166904E9
(1713559123.112379) can0 410#2880008B9F6E8BC0
(1713559123.114613) can0 120#000000000700004F
(1713559123.114861) can0 121#000000000000005F
(1713559123.115104) can0 129#000000010000005B
(1713559123.115351) can0 12A#1428701C60580098
(1713559123.115587) can0 12D#000000000000006A
(1713559123.115836) can0 12F#F81000200000007F
(1713559123.116081) can0 290#0000000200000062
(1713559123.119565) can0 400#2880000000000094
(1713559123.120915) can0 551#000000000004C000
(1713559123.121163) can0 5D1#9958000200000000
(1713559123.121412) can0 4EA#0000000000000000
(1713559123.121645) can0 174#F47F004F327905E0
(1713559123.121877) can0 178#EE7F043312930509
(1713559123.122115) can0 17C#FA7F0100226905DB
(1713559123.122351) can0 410#2880008B9F6E8B21
(1713559123.122597) can0 5B2#0800000000000000
(1713559123.122842) can0 310#FFFFFFFF7D7D0000
(1713559123.124017) can0 140#0000030000000000
(1713559123.124838) can0 12F#F820002000000083
(1713559123.125075) can0 128#1388030000EC78A3
(1713559123.125321) can0 12D#000000000000008B
(1713559123.125565) can0 12E#000000000000C0A5
(1713559123.125816) can0 290#0000000200000083
(1713559123.129550) can0 400#28800000000000A1
(1713559123.130862) can0 541#0440E800007FFF86
(1713559123.131523) can0 410#2880008B9F6E8B4B
(1713559123.131755) can0 174#F07F004F327906AE
(1713559123.131993) can0 178#F87F053111930685
(1713559123.132233) can0 17C#04800100216906D1
(1713559123.134705) can0 120#000000000700007A
(1713559123.134956) can0 121#000000000000006A
(1713559123.135204) can0 129#000000010000006E
(1713559123.135454) can0 12D#00000000000000BE
(1713559123.135692) can0 12F#F8100020000000AB
(1713559123.135938) can0 290#00000002000000B6
(1713559123.139684) can0 400#28800000000000CB
(1713559123.140910) can0 551#000000000004C000
(1713559123.141161) can0 5D1#9958000200000000
(1713559123.141523) can0 410#2880008B9F6E8B7E
(1713559123.141757) can0 174#F07F004F347907B6
(1713559123.141995) can0 178#FE7F0630149307E1
(1713559123.142235) can0 17C#04800100196907E8
(1713559123.144544) can0 140#0000030000000000
(1713559123.144829) can0 12F#F8100020000000C1
(1713559123.145065) can0 128#1388030000EC78C9
(1713559123.145309) can0 12D#00000000000000D4
(1713559123.145553) can0 12E#000000000000C0CF
(1713559123.145801) can0 290#00000002000000DC
(1713559123.149649) can0 400#288000000000002A
(1713559123.150866) can0 541#0440E800007FFFB3
(1713559123.151524) can0 410#2880008B9F6E8B9F
(1713559123.151756) can0 174#F07F004F38790807
(1713559123.151992) can0 178#0080073115930883
(1713559123.152232) can0 17C#00800100166908BC
(1713559123.154702) can0 12F#F82000200000003D
(1713559123.154946) can0 120#000000000700009B
(1713559123.155191) can0 121#000000000000008B
(1713559123.155435) can0 129#000000010000008F
(1713559123.155679) can0 12D#0000000000000035
(1713559123.155927) can0 290#000000020000003D
(1713559123.159049) can0 550#48000C000100009D
(1713559123.159761) can0 400#2880000000000040
(1713559123.160942) can0 551#000000000004C000
(1713559123.161196) can0 552#00FFFFFFFFFFFFCF
(1713559123.161441) can0 5D1#9958000200000000
(1713559123.161675) can0 174#F07F004F3F790990
(1713559123.161909) can0 178#FA7F0838149309A4
(1713559123.162147) can0 17C#008001001B690924
(1713559123.162384) can0 410#2880008B9F6E8BAA
(1713559123.162624) can0 5D2#7444540000000000
(1713559123.162878) can0 450#005500001B004A00
(1713559123.164897) can0 12F#F81000200000004A
(1713559123.165134) can0 128#1388030000EC7828
(1713559123.165368) can0 12A#1428701C605800AD
(1713559123.165618) can0 12D#000000000000005F
(1713559123.165862) can0 12E#000000000000C02E
(1713559123.166112) can0 140#0000030000000000
(1713559123.166358) can0 290#0000000200000057
(1713559123.166595) can0 5A0#0000006244928097
(1713559123.166843) can0 6B9#0020400000000000
(1713559123.167087) can0 5A2#1410140000000000
(1713559123.167538) can0 5D0#9958010200000000
(1713559123.167773) can0 5B1#008A9A6800000096
(1713559123.168011) can0 5CF#7444540000000000
(1713559123.169742) can0 400#2880000000000075
(1713559123.170859) can0 541#0440E800007FFFD9
(1713559123.171525) can0 410#2880008B9F6E8BC0
(1713559123.171752) can0 174#F07F004F42790A7A
(1713559123.171983) can0 178#F67F000012930AB9
(1713559123.172220) can0 17C#0480010027690A48
(1713559123.174721) can0 12F#F820002000000062
(1713559123.174966) can0 120#00000000070000AE
(1713559123.175212) can0 121#00000000000000BE
(1713559123.175457) can0 129#00000001000000BA
(1713559123.175701) can0 12D#000000000000006A
(1713559123.175949) can0 290#0000000200000062
(1713559123.179855) can0 400#2880000000000094
(1713559123.180915) can0 551#000000000004C000
(1713559123.181163) can0 5D1#9958000200000000
(1713559123.181517) can0 410#2880008B9F6E8B21
(1713559123.181747) can0 174#EC7F004F40790B66
(1713559123.181982) can0 178#F67F000012930BA4
(1713559123.182218) can0 17C#0680010032690B7E
(1713559123.184832) can0 12F#F81000200000009E
(1713559123.185066) can0 128#1388030000EC7842
(1713559123.185312) can0 12D#000000000000008B
(1713559123.185556) can0 12E#000000000000C044
(1713559123.185806) can0 140#0000030000000000
(1713559123.186058) can0 290#0000000200000083
(1713559123.189840) can0 400#28800000000000A1
(1713559123.190864) can0 541#0440E800007FFF38
(1713559123.191521) can0 410#2880008B9F6E8B4B
(1713559123.191748) can0 174#EC7F004F3A790C72
(1713559123.191985) can0 178#F87F01520F930C97
(1713559123.192223) can0 17C#0480010034690C92
(1713559123.194697) can0 12F#F8100020000000AB
(1713559123.194943) can0 12D#00000000000000BE
(1713559123.195192) can0 120#00000000070000C4
(1713559123.195436) can0 121#00000000000000D4
(1713559123.195676) can0 129#00000001000000D0
(1713559123.195921) can0 290#00000002000000B6
(1713559123.199954) can0 400#28800000000000CB
(1713559123.200912) can0 551#000000000004C000
(1713559123.201160) can0 5D1#9958000200000000
(1713559123.201520) can0 410#2880008B9F6E8B7E
(1713559123.201751) can0 174#EC7F004F34790D66
(1713559123.201987) can0 178#FC7F026F07930D71
(1713559123.202228) can0 17C#008001002A690DF7
(1713559123.204834) can0 12F#F8200020000000DC
(1713559123.205067) can0 128#1388030000EC7877
(1713559123.205311) can0 12D#00000000000000D4
(1713559123.205559) can0 12E#000000000000C071
(1713559123.205803) can0 290#00200002000000CA
(1713559123.206128) can0 140#0000030000000000
(1713559123.209005) can0 550#48000C00010000A8
(1713559123.209938) can0 400#288000000000002A
(1713559123.210581) can0 540#0000001040009E00
(1713559123.210820) can0 5B0#6342000000000077
(1713559123.211062) can0 541#0440E800007FFF52
(1713559123.211316) can0 552#00FFFFFFFFFFFF2E
(1713559123.211608) can0 410#2880008B9F6E8B9F
(1713559123.211835) can0 174#F07F004F32790E46
(1713559123.212071) can0 178#F87F036201930E1F
(1713559123.212309) can0 17C#FC7F01001B690E6C
(1713559123.212549) can0 450#005500001B004A00
(1713559123.214813) can0 12F#F810002000000020
(1713559123.215047) can0 12A#1428701C605800C7
(1713559123.215295) can0 120#0000000007000025
(1713559123.215545) can0 121#0000000000000035
(1713559123.215790) can0 129#0000000100000031
(1713559123.216033) can0 12D#0000000000000035
(1713559123.216280) can0 290#002000020000002B
(1713559123.220045) can0 400#2880000000000040
(1713559123.220908) can0 551#000000000004C000
(1713559123.221156) can0 4EA#0000000000000000
(1713559123.221401) can0 5B2#0800000000000000
(1713559123.221631) can0 174#F67F004F2C790F99
(1713559123.221866) can0 178#EA7F046503930FFD
(1713559123.222105) can0 17C#FC7F01000E690FE0
(1713559123.222351) can0 310#FFFFFFFF7D7D0000
(1713559123.222588) can0 410#2880008B9F6E8BAA
(1713559123.222828) can0 5D1#9958000200000000
(1713559123.224844) can0 12F#F81000200000004A
(1713559123.225078) can0 128#1388030000EC7896
(1713559123.225328) can0 12D#000000000000005F
(1713559123.225575) can0 12E#000000000000C090
(1713559123.225820) can0 290#001000020000005C
(1713559123.226656) can0 140#0000030000000000
(1713559123.230036) can0 400#2880000000000075
(1713559123.230861) can0 541#0440E800007FFF67
(1713559123.231469) can0 410#2880008B9F6E8BC0
(1713559123.231745) can0 174#FA7F004F1A7900B4
(1713559123.231979) can0 178#DC7F057206930071
(1713559123.232219) can0 17C#FC7F0100036900DE
(1713559123.234699) can0 12F#F820002000000062
(1713559123.234943) can0 12D#000000000000006A
(1713559123.235187) can0 290#0010000200000069
(1713559123.235435) can0 120#000000000700004F
(1713559123.235681) can0 121#000000000000005F
(1713559123.235925) can0 129#000000010000005B
(1713559123.240144) can0 400#2880000000000094
(1713559123.240910) can0 551#000000000004C000
(1713559123.241156) can0 5D1#9958000200000000
(1713559123.241510) can0 410#2880008B9F6E8B21
(1713559123.241746) can0 174#F87F004F08790108
(1713559123.241978) can0 178#DA7F067406930168
(1713559123.242220) can0 17C#FC7F0100016901C0
(1713559123.244830) can0 12F#F81000200000009E
(1713559123.245063) can0 128#1388030000EC78A3
(1713559123.245310) can0 12D#000000000000008B
(1713559123.245553) can0 12E#000000000000C0A5
(1713559123.245806) can0 290#0000000200000083
(1713559123.247182) can0 140#0000030000000000
(1713559123.250135) can0 400#28800000000000A1
(1713559123.250862) can0 541#0440E800007FFF86
(1713559123.251391) can0 410#2880008B9F6E8B4B
(1713559123.251671) can0 174#F07F004F067902F4
(1713559123.251908) can0 178#E87F0720049302B5
(1713559123.252144) can0 17C#FE7F01000569025B
(1713559123.254740) can0 12F#F8200020000000B6
(1713559123.254994) can0 12D#00000000000000BE
(1713559123.255233) can0 290#00000002000000B6
(1713559123.255483) can0 120#000000000700007A
(1713559123.255731) can0 121#000000000000006A
(1713559123.255979) can0 129#000000010000006E
(1713559123.259049) can0 550#48000C00010000C2
(1713559123.260241) can0 400#28800000000000CB
(1713559123.260938) can0 551#000000000004C000
(1713559123.261190) can0 552#00FFFFFFFFFFFF44
(1713559123.261430) can0 410#2880008B9F6E8B7E
(1713559123.261660) can0 174#EE7F004F117903C3
(1713559123.261894) can0 178#F87F08420C930398
(1713559123.262132) can0 17C#FE7F01000E6903C6
(1713559123.262375) can0 5D1#9958000200000000
(1713559123.262617) can0 5D2#7444540000000000
(1713559123.262872) can0 450#005500001B004A00
(1713559123.264903) can0 12F#F8100020000000C1
(1713559123.265138) can0 128#1388030000EC78C9
(1713559123.265373) can0 12A#1428701C60580026
(1713559123.265617) can0 12D#00000000000000D4
(1713559123.265861) can0 12E#000000000000C0CF
(1713559123.266107) can0 290#00100002000000D7
(1713559123.266345) can0 5A0#00000062449280A2
(1713559123.266593) can0 6B9#0020400000000000
(1713559123.266837) can0 5A2#1410140000000000
(1713559123.267588) can0 5D0#9958010200000000
(1713559123.267838) can0 140#0000030000000000
(1713559123.268074) can0 5B1#008A9A68000000A3
(1713559123.268312) can0 5CF#7444540000000000
(1713559123.270236) can0 400#288000000000002A
(1713559123.270853) can0 541#0440E800007FFFB3
(1713559123.271351) can0 410#2880008B9F6E8B9F
(1713559123.271573) can0 174#EE7F004F217904B8
(1713559123.271853) can0 178#0480096F15930424
(1713559123.272097) can0 17C#FE7F01001B690404
(1713559123.274715) can0 12F#F810002000000020
(1713559123.274959) can0 12D#0000000000000035
(1713559123.275204) can0 290#0010000200000036
(1713559123.275452) can0 120#000000000700009B
(1713559123.275694) can0 121#000000000000008B
(1713559123.275936) can0 129#000000010000008F
(1713559123.280327) can0 400#2880000000000040
(1713559123.280912) can0 551#000000000004C000
(1713559123.281158) can0 5D1#9958000200000000
(1713559123.281394) can0 410#2880008B9F6E8BAA
(1713559123.281635) can0 174#EC7F004F30790588
(1713559123.281871) can0 178#0A800A731A9305F7
(1713559123.282111) can0 17C#FC7F010027690581
(1713559123.284831) can0 12F#F81000200000004A
(1713559123.285068) can0 128#1388030000EC7828
(1713559123.285319) can0 12D#000000000000005F
(1713559123.285563) can0 12E#000000000000C02E
(1713559123.285809) can0 290#0000000200000057
(1713559123.288242) can0 140#0000030000000000
(1713559123.290335) can0 400#2880000000000075
(1713559123.290850) can0 541#0440E800007FFFD9
(1713559123.291286) can0 410#2880008B9F6E8BC0
(1713559123.291582) can0 174#EC7F004F3B79062F
(1713559123.291866) can0 178#08800B63179306A0
(1713559123.292108) can0 17C#F87F01002F6906C3
(1713559123.294724) can0 12F#F820002000000062
(1713559123.294971) can0 12D#000000000000006A
(1713559123.295217) can0 290#0000000200000062
(1713559123.295481) can0 120#00000000070000AE
(1713559123.295725) can0 121#00000000000000BE
(1713559123.295967) can0 129#00000001000000BA
(1713559123.300443) can0 400#2880000000000094
(1713559123.300903) can0 551#000000000004C000
(1713559123.301151) can0 5D1#9958000200000000
(1713559123.301388) can0 410#2880008B9F6E8B21
(1713559123.301631) can0 174#EE7F004F3D79078D
(1713559123.301871) can0 178#02800C68119307FD
(1713559123.302112) can0 17C#F87F01002A690757
(1713559123.304826) can0 12F#F81000200000009E
(1713559123.305060) can0 128#1388030000EC7842
(1713559123.305305) can0 12D#000000000000008B
(1713559123.305550) can0 12E#000000000000C044
(1713559123.305803) can0 290#0000000200000083
(1713559123.308769) can0 140#0000030000000000
(1713559123.309010) can0 550#48000C0001000023
(1713559123.310436) can0 400#28800000000000A1
(1713559123.310882) can0 541#0440E800007FFF38
(1713559123.311117) can0 410#2880008B9F6E8B4B
(1713559123.311364) can0 540#0000001040009E00
(1713559123.311607) can0 552#00FFFFFFFFFFFF71
(1713559123.311835) can0 174#F27F004F347908B7
(1713559123.312115) can0 178#FE7F0D20129308B3
(1713559123.312353) can0 17C#FA7F0100216908D6
(1713559123.312593) can0 450#005500001B004A00
(1713559123.312836) can0 5B0#6342000000000096
(1713559123.314799) can0 12F#F8100020000000AB
(1713559123.315031) can0 12A#1428701C6058004C
(1713559123.315278) can0 12D#00000000000000BE
(1713559123.315528) can0 290#00000002000000B6
(1713559123.315771) can0 120#00000000070000C4
(1713559123.316014) can0 121#00000000000000D4
(1713559123.316257) can0 129#00000001000000D0
(1713559123.320520) can0 400#28800000000000CB
(1713559123.320798) can0 4EA#0000000000000000
(1713559123.321039) can0 551#000000000004C000
(1713559123.321285) can0 5B2#0800000000000000
(1713559123.321530) can0 310#FFFFFFFF7D7D0000
(1713559123.321759) can0 174#F67F004F2C7909D7
(1713559123.321992) can0 178#FC7F0E471593090A
(1713559123.322230) can0 17C#FC7F010011690930
(1713559123.322471) can0 410#2880008B9F6E8B7E
(1713559123.322711) can0 5D1#9958000200000000
(1713559123.324834) can0 12F#F8100020000000C1
(1713559123.325067) can0 128#1388030000EC7877
(1713559123.325312) can0 12D#00000000000000D4
(1713559123.325560) can0 12E#000000000000C071
(1713559123.325808) can0 290#00000002000000DC
(1713559123.329299) can0 140#0000030000000000
(1713559123.330526) can0 400#288000000000002A
(1713559123.330857) can0 410#2880008B9F6E8B9F
(1713559123.331098) can0 541#0440E800007FFF52
(1713559123.331595) can0 174#F67F004F32790AE1
(1713559123.331826) can0 178#00800F6D11930AAB
(1713559123.332113) can0 17C#FC7F010005690A09
(1713559123.334743) can0 12F#F82000200000003D
(1713559123.334987) can0 12D#0000000000000035
(1713559123.335234) can0 290#000000020000003D
(1713559123.335675) can0 120#0000000007000025
(1713559123.335922) can0 121#0000000000000035
(1713559123.336166) can0 129#0000000100000031
(1713559123.340620) can0 400#2880000000000040
(1713559123.340875) can0 410#2880008B9F6E8BAA
(1713559123.341120) can0 551#000000000004C000
(1713559123.341368) can0 5D1#9958000200000000
(1713559123.341650) can0 174#F47F004F3D790BC0
(1713559123.341886) can0 178#008000620A930B3A
(1713559123.342122) can0 17C#FE7F010008690B2B
(1713559123.344834) can0 12F#F81000200000004A
(1713559123.345068) can0 128#1388030000EC7896
(1713559123.345318) can0 12D#000000000000005F
(1713559123.345564) can0 12E#000000000000C090
(1713559123.345810) can0 290#001000020000005C
(1713559123.349826) can0 140#0000030000000000
(1713559123.350621) can0 400#2880000000000075
(1713559123.350862) can0 410#2880008B9F6E8BC0
(1713559123.351105) can0 541#0440E800007FFF67
(1713559123.351611) can0 174#F47F004F3A790C19
(1713559123.351844) can0 178#0280014804930C41
(1713559123.352128) can0 17C#0680010014690C18
(1713559123.354704) can0 12F#F81000200000007F
(1713559123.354947) can0 12D#000000000000006A
(1713559123.355192) can0 290#0010000200000069
(1713559123.355770) can0 120#000000000700004F
(1713559123.356016) can0 121#000000000000005F
(1713559123.356260) can0 129#000000010000005B
(1713559123.359050) can0 550#48000C0001000049
(1713559123.360727) can0 400#2880000000000094
(1713559123.360954) can0 410#2880008B9F6E8B21
(1713559123.361199) can0 551#000000000004C000
(1713559123.361453) can0 552#00FFFFFFFFFFFF90
(1713559123.361683) can0 174#F47F004F2D790D96
(1713559123.361919) can0 178#0280000003930DB4
(1713559123.362159) can0 17C#0680010024690D2D
(1713559123.362398) can0 5D1#9958000200000000
(1713559123.362641) can0 5D2#7444540000000000
(1713559123.362888) can0 450#005500001B004A00
(1713559123.364890) can0 12F#F81000200000009E
(1713559123.365125) can0 128#1388030000EC78A3
(1713559123.365357) can0 12A#1428701C60580079
(1713559123.365603) can0 12D#000000000000008B
(1713559123.365848) can0 12E#000000000000C0A5
(1713559123.366100) can0 290#0000000200000083
(1713559123.366336) can0 5A0#00000062449280C8
(1713559123.366584) can0 6B9#0020400000000000
(1713559123.366828) can0 5A2#1410140000000000
(1713559123.367591) can0 5D0#9958010200000000
(1713559123.367826) can0 5B1#008A9A68000000C9
(1713559123.368064) can0 5CF#7444540000000000
(1713559123.370354) can0 140#0000030000000000
(1713559123.370718) can0 400#28800000000000A1
(1713559123.370956) can0 410#2880008B9F6E8B4B
(1713559123.371197) can0 541#0440E800007FFF86
(1713559123.371618) can0 174#F07F004F27790ED7
(1713559123.371855) can0 178#FC7F00000A930EB1
(1713559123.372093) can0 17C#0080010031690E48
(1713559123.374719) can0 12F#F8200020000000B6
(1713559123.374966) can0 12D#00000000000000BE
(1713559123.375212) can0 290#00000002000000B6
(1713559123.375870) can0 120#000000000700007A
(1713559123.376120) can0 121#000000000000006A
(1713559123.376368) can0 129#000000010000006E
(1713559123.380775) can0 410#2880008B9F6E8B7E
(1713559123.381019) can0 400#28800000000000CB
(1713559123.381283) can0 551#000000000004C000
(1713559123.381535) can0 5D1#9958000200000000
(1713559123.381765) can0 174#F07F004F2D790FC5
(1713559123.381999) can0 178#F47F000D15930FAF
(1713559123.382243) can0 17C#F87F01003F690F2E
(1713559123.384881) can0 12F#F8100020000000C1
(1713559123.385116) can0 128#1388030000EC78C9
(1713559123.385362) can0 12D#00000000000000D4
(1713559123.385616) can0 12E#000000000000C0CF
(1713559123.385854) can0 290#00000002000000DC
(1713559123.390698) can0 410#2880008B9F6E8B9F
(1713559123.390946) can0 140#0000030000000000
(1713559123.391194) can0 400#288000000000002A
(1713559123.391437) can0 541#0440E800007FFFB3
(1713559123.391672) can0 174#F07F004F3579006A
(1713559123.391908) can0 178#EA7F0000239300CE
(1713559123.392146) can0 17C#F47F01004A6900EF
(1713559123.394700) can0 12F#F810002000000020
(1713559123.394942) can0 12D#0000000000000035
(1713559123.395191) can0 290#000000020000003D
(1713559123.395971) can0 120#000000000700009B
(1713559123.396213) can0 121#000000000000008B
(1713559123.396455) can0 129#000000010000008F
(1713559123.400716) can0 410#2880008B9F6E8BAA
(1713559123.400961) can0 400#2880000000000040
(1713559123.401209) can0 551#000000000004C000
(1713559123.401457) can0 5D1#9958000200000000
(1713559123.401693) can0 174#F07F004F3B79017E
(1713559123.401927) can0 178#E87F01362E930180
(1713559123.402162) can0 17C#F67F0100456901CE
(1713559123.404879) can0 12F#F81000200000004A
(1713559123.405066) can0 128#1388030000EC7828
(1713559123.405316) can0 12D#000000000000005F
(1713559123.405561) can0 12E#000000000000C02E
(1713559123.405806) can0 290#0000000200000057
(1713559123.409004) can0 550#48000C000100007C
(1713559123.410642) can0 410#2880008B9F6E8BC0
(1713559123.410885) can0 541#0440E800007FFFD9
(1713559123.411132) can0 400#2880000000000075
(1713559123.411377) can0 552#00FFFFFFFFFFFFA5
(1713559123.411625) can0 140#0000030000000000
(1713559123.411857) can0 174#F07F004F3D79025C
(1713559123.412089) can0 178#F67F02302E9302C8
(1713559123.412333) can0 17C#F87F01002F6902B7
(1713559123.412575) can0 450#005500001B004A00
(1713559123.412868) can0 540#0000001040009E00
(1713559123.413110) can0 5B0#63420000000000A3
(1713559123.414808) can0 12F#F820002000000062
(1713559123.415040) can0 12A#1428701C60580098
(1713559123.415289) can0 12D#000000000000006A
(1713559123.415547) can0 290#0000000200000062
(1713559123.416065) can0 120#00000000070000AE
(1713559123.416323) can0 121#00000000000000BE
(1713559123.416553) can0 129#00000001000000BA
(1713559123.420595) can0 4EA#0000000000000000
(1713559123.420826) can0 410#2880008B9F6E8B21
(1713559123.421071) can0 400#2880000000000094
(1713559123.421326) can0 551#000000000004C000
(1713559123.421565) can0 5B2#0800000000000000
(1713559123.421797) can0 174#F07F004F3D790341
(1713559123.422029) can0 178#04800331259303B8
(1713559123.422271) can0 17C#F87F010014690302
(1713559123.422517) can0 310#FFFFFFFF7D7D0000
(1713559123.422757) can0 5D1#9958000200000000
(1713559123.424885) can0 12F#F81000200000009E
(1713559123.425118) can0 128#1388030000EC7842
(1713559123.425315) can0 12D#000000000000008B
(1713559123.425559) can0 12E#000000000000C044
(1713559123.425811) can0 290#0000000200000083
(1713559123.430613) can0 410#2880008B9F6E8B4B
(1713559123.430856) can0 541#0440E800007FFF38
(1713559123.431102) can0 400#28800000000000A1
(1713559123.431627) can0 174#EE7F004F3B7904AF
(1713559123.431861) can0 178#0A8004381A93044E
(1713559123.432110) can0 140#0000030000000000
(1713559123.432346) can0 17C#F67F0100096904CD
(1713559123.434694) can0 12F#F8100020000000AB
(1713559123.434940) can0 12D#00000000000000BE
(1713559123.435186) can0 290#00000002000000B6
(1713559123.436172) can0 120#00000000070000C4
(1713559123.436414) can0 121#00000000000000D4
(1713559123.436658) can0 129#00000001000000D0
(1713559123.440642) can0 410#2880008B9F6E8B7E
(1713559123.440914) can0 551#000000000004C000
(1713559123.441159) can0 400#28800000000000CB
(1713559123.441399) can0 5D1#9958000200000000
(1713559123.441677) can0 174#EE7F004F377905B8
(1713559123.441917) can0 178#0680053117930506
(1713559123.442154) can0 17C#F47F01000E6905E0
(1713559123.444879) can0 12F#F8100020000000C1
(1713559123.445110) can0 128#1388030000EC7877
(1713559123.445354) can0 12D#00000000000000D4
(1713559123.445602) can0 12E#000000000000C071
(1713559123.445803) can0 290#00000002000000DC
(1713559123.450563) can0 410#2880008B9F6E8B9F
(1713559123.450870) can0 541#0440E800007FFF52
(1713559123.451124) can0 400#288000000000002A
(1713559123.451636) can0 174#EE7F004F30790615
(1713559123.451870) can0 178#FE7F063215930654
(1713559123.452109) can0 17C#F67F01001B6906EC
(1713559123.452463) can0 140#0000030000000000
(1713559123.454700) can0 12F#F82000200000003D
(1713559123.454946) can0 12D#0000000000000035
(1713559123.455192) can0 290#000000020000003D
(1713559123.456277) can0 120#0000000007000025
(1713559123.456523) can0 121#0000000000000035
(1713559123.456767) can0 129#0000000100000031
(1713559123.459050) can0 550#48000C000100009D
(1713559123.460580) can0 410#2880008B9F6E8BAA
(1713559123.460942) can0 551#000000000004C000
(1713559123.461196) can0 552#00FFFFFFFFFFFFCF
(1713559123.461444) can0 400#2880000000000040
(1713559123.461684) can0 5D1#9958000200000000
(1713559123.461918) can0 174#F07F004F2F79072E
(1713559123.462162) can0 178#F87F0739179307D5
(1713559123.462396) can0 17C#FA7F01002A6907ED
(1713559123.462633) can0 5D2#7444540000000000
(1713559123.462884) can0 450#005500001B004A00
(1713559123.464942) can0 12F#F81000200000004A
(1713559123.465173) can0 128#1388030000EC7896
(1713559123.465407) can0 12A#1428701C605800AD
(1713559123.465657) can0 12D#000000000000005F
(1713559123.465903) can0 12E#000000000000C090
(1713559123.466101) can0 290#0000000200000057
(1713559123.466340) can0 5A0#0000006244928029
(1713559123.466588) can0 6B9#0020400000000000
(1713559123.466832) can0 5A2#1410140000000000
(1713559123.467562) can0 5D0#9958010200000000
(1713559123.467800) can0 5B1#008A9A6800000028
(1713559123.468039) can0 5CF#7444540000000000
(1713559123.470508) can0 410#2880008B9F6E8BC0
(1713559123.470864) can0 541#0440E800007FFF67
(1713559123.471202) can0 400#2880000000000075
(1713559123.471641) can0 174#F27F004F35790838
(1713559123.471870) can0 178#FA7F082D22930862
(1713559123.472109) can0 17C#FC7F01003169081D
(1713559123.472991) can0 140#0000030000000000
(1713559123.474715) can0 12F#F81000200000007F
(1713559123.474964) can0 12D#000000000000006A
(1713559123.475209) can0 290#0000000200000062
(1713559123.476378) can0 120#000000000700004F
(1713559123.476638) can0 121#000000000000005F
(1713559123.476868) can0 129#000000010000005B
(1713559123.480532) can0 410#2880008B9F6E8B21
(1713559123.480920) can0 551#000000000004C000
(1713559123.481169) can0 5D1#9958000200000000
(1713559123.481416) can0 400#2880000000000094
(1713559123.481692) can0 174#F07F004F3D790993
(1713559123.481924) can0 178#FE7F09302B930995
(1713559123.482160) can0 17C#FE7F01002F6909AB
(1713559123.484883) can0 12F#F81000200000009E
(1713559123.485110) can0 128#1388030000EC78A3
(1713559123.485354) can0 12D#000000000000008B
(1713559123.485598) can0 12E#000000000000C0A5
(1713559123.485849) can0 290#0010000200000088
(1713559123.490454) can0 410#2880008B9F6E8B4B
(1713559123.490845) can0 541#0440E800007FFF86
(1713559123.491301) can0 400#28800000000000A1
(1713559123.491647) can0 174#EC7F004F3F790AB5
(1713559123.491883) can0 178#00800A322A930A05
(1713559123.492121) can0 17C#FE7F01002D690A8F
(1713559123.493519) can0 140#0000030000000000
(1713559123.494653) can0 12F#F8200020000000B6
(1713559123.494902) can0 12D#00000000000000BE
(1713559123.495148) can0 290#00100002000000BD
(1713559123.496489) can0 120#000000000700007A
(1713559123.496738) can0 121#000000000000006A
(1713559123.496986) can0 129#000000010000006E
(1713559123.500456) can0 410#2880008B9F6E8B7E
(1713559123.500899) can0 551#000000000004C000
(1713559123.501149) can0 5D1#9958000200000000
(1713559123.501401) can0 400#28800000000000CB
(1713559123.501699) can0 174#E87F004F3A790B48
(1713559123.501931) can0 178#00800B3622930B30
(1713559123.502167) can0 17C#FC7F01002C690BA7
(1713559123.504881) can0 12F#F8100020000000C1
(1713559123.505123) can0 128#1388030000EC78C9
(1713559123.505361) can0 12D#00000000000000D4
(1713559123.505604) can0 12E#000000000000C0CF
(1713559123.505851) can0 290#00000002000000DC
(1713559123.509004) can0 550#48000C00010000A8
(1713559123.510390) can0 410#2880008B9F6E8B9F
(1713559123.510869) can0 541#0440E800007FFFB3
(1713559123.511124) can0 552#00FFFFFFFFFFFF2E
(1713559123.511371) can0 450#005500001B004A00
(1713559123.511618) can0 400#288000000000002A
(1713559123.511848) can0 174#EA7F004F2F790C30
(1713559123.512082) can0 178#FC7F0C3020930C19
(1713559123.512320) can0 17C#FC7F01002F690C78
(1713559123.512566) can0 540#000000103F009E00
(1713559123.512807) can0 5B0#63420000000000C9
(1713559123.514045) can0 140#0000030000000000
(1713559123.514753) can0 12F#F810002000000020
(1713559123.514989) can0 12A#1428701C605800C7
(1713559123.515235) can0 12D#0000000000000035
(1713559123.515484) can0 290#000000020000003D
(1713559123.516525) can0 120#000000000700009B
(1713559123.516819) can0 121#000000000000008B
(1713559123.517062) can0 129#000000010000008F
(1713559123.520410) can0 4EA#0000000000000000
(1713559123.520626) can0 410#2880008B9F6E8BAA
(1713559123.520873) can0 5B2#0800000000000000
(1713559123.521108) can0 310#FFFFFFFF7D7D0000
(1713559123.521354) can0 551#000000000004C000
(1713559123.521612) can0 400#2880000000000040
(1713559123.521839) can0 174#F07F004F21790DF5
(1713559123.522084) can0 178#FA7F000020930D7A
(1713559123.522319) can0 17C#FC7F010038690DF7
(1713559123.522560) can0 5D1#9958000200000000
(1713559123.524897) can0 12F#F81000200000004A
(1713559123.525132) can0 128#1388030000EC7828
(1713559123.525392) can0 12D#000000000000005F
(1713559123.525628) can0 12E#000000000000C02E
(1713559123.525872) can0 290#0000000200000057
(1713559123.530390) can0 410#2880008B9F6E8BC0
(1713559123.530847) can0 541#0440E800007FFFD9
(1713559123.531496) can0 400#2880000000000075
(1713559123.531724) can0 174#F67F004F19790E25
(1713559123.531960) can0 178#FA7F01301A930E7F
(1713559123.532196) can0 17C#FC7F01003B690E5C
(1713559123.534568) can0 140#0000030000000000
(1713559123.534814) can0 12D#000000000000006A
(1713559123.535058) can0 12F#F820002000000062
(1713559123.535307) can0 290#0000000200000062
(1713559123.536622) can0 120#00000000070000AE
(1713559123.536917) can0 121#00000000000000BE
(1713559123.537160) can0 129#00000001000000BA
(1713559123.540440) can0 410#2880008B9F6E8B21
(1713559123.540892) can0 551#000000000004C000
(1713559123.541140) can0 5D1#9958000200000000
(1713559123.541586) can0 400#2880000000000094
(1713559123.541820) can0 174#F87F004F1C790FB0
(1713559123.542052) can0 178#F67F02320D930FD2
(1713559123.542292) can0 17C#FA7F010031690F9D
(1713559123.544880) can0 12F#F81000200000009E
(1713559123.545112) can0 128#1388030000EC7842
(1713559123.545358) can0 12D#000000000000008B
(1713559123.545610) can0 12E#000000000000C044
(1713559123.545856) can0 290#0000000200000083
(1713559123.550389) can0 410#2880008B9F6E8B4B
(1713559123.550848) can0 541#0440E800007FFF38
(1713559123.551599) can0 400#28800000000000A1
(1713559123.551833) can0 174#F67F004F2A790027
(1713559123.552065) can0 178#F47F0336099300F1
(1713559123.552303) can0 17C#F67F010022690009
(1713559123.554643) can0 12F#F8100120000000AC
(1713559123.554891) can0 12D#00000000000000BE
(1713559123.555142) can0 140#0000030000000000
(1713559123.555388) can0 290#00000002000000B6
(1713559123.556718) can0 120#00000000070000C4
(1713559123.556963) can0 121#00000000000000D4
(1713559123.557204) can0 129#00000001000000D0
(1713559123.559059) can0 550#48000C00010000C2
(1713559123.560440) can0 410#2880008B9F6E8B7E
(1713559123.560923) can0 551#000000000004C000
(1713559123.561177) can0 552#00FFFFFFFFFFFF44
(1713559123.561425) can0 55A#0017160000000000
(1713559123.561671) can0 5D1#9958000200000000
(1713559123.561905) can0 174#F07F004F387901F2
(1713559123.562137) can0 178#F47F04350A9301D1
(1713559123.562378) can0 17C#F47F01001E69018C
(1713559123.562622) can0 400#28800000000000CB
(1713559123.562859) can0 5D2#7444540000000000
(1713559123.563110) can0 450#005500001B004A00
(1713559123.564964) can0 12F#F8100020000000C1
(1713559123.565195) can0 128#1388030000EC7877
(1713559123.565430) can0 12A#1428701C60580026
(1713559123.565674) can0 12D#00000000000000D4
(1713559123.565922) can0 12E#000000000000C071
(1713559123.566169) can0 290#00100002000000D7
(1713559123.566407) can0 5A0#0000006244928043
(1713559123.566771) can0 6B9#0020400000000000
(1713559123.567017) can0 5A2#1410140000000000
(1713559123.567660) can0 5D0#9958010200000000
(1713559123.567894) can0 5B1#008A9A6800000042
(1713559123.568131) can0 5CF#7444540000000000
(1713559123.570439) can0 410#2880008B9F6E8B9F
(1713559123.571673) can0 174#EC7F004F40790293
(1713559123.571903) can0 178#F67F05300C9302F0
(1713559123.572143) can0 17C#FA7F01002469028D
(1713559123.572391) can0 400#288000000000002A
(1713559123.573302) can0 541#0440E800007FFF52
(1713559123.574668) can0 12F#F82000200000003D
(1713559123.574913) can0 12D#0000000000000035
(1713559123.575158) can0 290#0010000200000036
(1713559123.575623) can0 140#0000030000000000
(1713559123.576819) can0 120#0000000007000025
(1713559123.577067) can0 121#0000000000000035
(1713559123.577310) can0 129#0000000100000031
(1713559123.580438) can0 410#2880008B9F6E8BAA
(1713559123.580896) can0 551#000000000004C000
(1713559123.581146) can0 5D1#9958000200000000
(1713559123.581725) can0 174#EC7F004F43790302
(1713559123.581958) can0 178#FA7F0631099303FC
(1713559123.582197) can0 17C#04800100216903B8
(1713559123.582445) can0 400#2880000000000040
(1713559123.584917) can0 12F#F81000200000004A
(1713559123.585149) can0 128#1388030000EC7896
(1713559123.585399) can0 12D#000000000000005F
(1713559123.585646) can0 12E#000000000000C090
(1713559123.585891) can0 290#0000000200000057
(1713559123.590449) can0 410#2880008B9F6E8BC0
(1713559123.590891) can0 541#0440E800007FFF67
(1713559123.591728) can0 174#F27F004F457904EC
(1713559123.591958) can0 178#FC7F07310A93049A
(1713559123.592200) can0 17C#04800100136904C0
(1713559123.592446) can0 400#2880000000000075
(1713559123.594651) can0 12F#F81000200000007F
(1713559123.594896) can0 12D#000000000000006A
(1713559123.595144) can0 290#0000000200000062
(1713559123.596151) can0 140#0000030000000000
(1713559123.596912) can0 120#000000000700004F
(1713559123.597161) can0 121#000000000000005F
(1713559123.597405) can0 129#000000010000005B
(1713559123.600386) can0 410#2880008B9F6E8B21
(1713559123.600842) can0 551#000000000004C000
(1713559123.601091) can0 5D1#9958000200000000
(1713559123.601685) can0 174#F87F004F4379059C
(1713559123.601967) can0 178#FC7F0831149305EA
(1713559123.602206) can0 17C#FC7F01000E690532
(1713559123.602452) can0 400#2880000000000094
(1713559123.604876) can0 12F#F81000200000009E
(1713559123.605108) can0 128#1388030000EC78A3
(1713559123.605354) can0 12D#000000000000008B
(1713559123.605598) can0 12E#000000000000C0A5
(1713559123.605850) can0 290#0000000200000083
(1713559123.609054) can0 550#48000C0001000023
(1713559123.610437) can0 410#2880008B9F6E8B4B
(1713559123.610918) can0 541#0440E800007FFF86
(1713559123.611169) can0 552#00FFFFFFFFFFFF71
(1713559123.611417) can0 450#005500001B004A00
(1713559123.611737) can0 174#FA7F004F3D790640
(1713559123.611971) can0 178#FA7F09301F930669
(1713559123.612211) can0 17C#F87F01001469066B
(1713559123.612457) can0 400#28800000000000A1
(1713559123.612704) can0 540#0000001040009E00
(1713559123.612946) can0 5B0#6342000000000028
(1713559123.614754) can0 12F#F8200020000000B6
(1713559123.614985) can0 12A#1428701C6058004C
(1713559123.615233) can0 12D#00000000000000BE
(1713559123.615480) can0 290#00000002000000B6
(1713559123.616674) can0 140#0000030000000000
(1713559123.617018) can0 120#000000000700007A
(1713559123.617270) can0 121#000000000000006A
(1713559123.617518) can0 129#000000010000006E
(1713559123.620134) can0 4EA#0000000000000000
(1713559123.620379) can0 5B2#0800000000000000
(1713559123.620625) can0 310#FFFFFFFF7D7D0000
(1713559123.620866) can0 410#2880008B9F6E8B7E
(1713559123.621111) can0 551#000000000004C000
(1713559123.621359) can0 5D1#9958000200000000
(1713559123.621694) can0 174#F87F004F377907E8
(1713559123.621927) can0 178#FA7F0A3823930774
(1713559123.622217) can0 17C#FA7F010019690749
(1713559123.622463) can0 400#28800000000000CB
(1713559123.624899) can0 12F#F8100020000000C1
(1713559123.625133) can0 128#1388030000EC78C9
(1713559123.625378) can0 12D#00000000000000D4
(1713559123.625622) can0 12E#000000000000C0CF
(1713559123.625870) can0 290#00000002000000DC
(1713559123.630411) can0 410#2880008B9F6E8B9F
(1713559123.630901) can0 541#0440E800007FFFB3
(1713559123.631744) can0 174#F27F004F2D79082C
(1713559123.631981) can0 178#FA7F00001F9308BD
(1713559123.632217) can0 17C#FE7F010017690892
(1713559123.632465) can0 400#288000000000002A
(1713559123.634695) can0 12F#F810012000000027
(1713559123.634891) can0 12D#0000000000000035
(1713559123.635140) can0 290#000000020000003D
(1713559123.637100) can0 120#000000000700009B
(1713559123.637344) can0 121#000000000000008B
(1713559123.637586) can0 129#000000010000008F
(1713559123.637836) can0 140#0000030000000000
(1713559123.640330) can0 410#2880008B9F6E8BAA
(1713559123.640839) can0 551#000000000004C000
(1713559123.641089) can0 5D1#9958000200000000
(1713559123.641696) can0 174#EE7F004F2A7909B9
(1713559123.641930) can0 178#F87F013015930910
(1713559123.642169) can0 17C#008001000C6909B6
(1713559123.642467) can0 400#2880000000000040
(1713559123.644877) can0 12F#F81000200000004A
(1713559123.645113) can0 128#1388030000EC7828
(1713559123.645363) can0 12D#000000000000005F
(1713559123.645607) can0 12E#000000000000C02E
(1713559123.645853) can0 290#0000000200000057
(1713559123.650359) can0 410#2880008B9F6E8BC0
(1713559123.650897) can0 541#0440E800007FFFD9
(1713559123.651763) can0 174#EC7F004F32790A30
(1713559123.651996) can0 178#F27F00000C930AC1
(1713559123.652234) can0 17C#F87F010008690AE5
(1713559123.652480) can0 400#2880000000000075
(1713559123.654696) can0 12F#F820002000000062
(1713559123.654892) can0 12D#000000000000006A
(1713559123.655140) can0 290#0000000200000062
(1713559123.657185) can0 120#00000000070000AE
(1713559123.657430) can0 121#00000000000000BE
(1713559123.657672) can0 129#00000001000000BA
(1713559123.657922) can0 140#0000030000000000
(1713559123.659018) can0 550#48000C0001000049
(1713559123.660273) can0 410#2880008B9F6E8B21
(1713559123.660867) can0 551#000000000004C000
(1713559123.661124) can0 552#00FFFFFFFFFFFF90
(1713559123.661369) can0 5D1#9958000200000000
(1713559123.661611) can0 5D2#7444540000000000
(1713559123.661839) can0 174#EE7F004F3B790B14
(1713559123.662071) can0 178#F07F015306930B08
(1713559123.662307) can0 17C#F67F010017690B67
(1713559123.662553) can0 400#2880000000000094
(1713559123.662844) can0 450#005500001B004A00
(1713559123.664938) can0 12F#F81000200000009E
(1713559123.665170) can0 128#1388030000EC7842
(1713559123.665402) can0 12A#1428701C60580079
(1713559123.665647) can0 12D#000000000000008B
(1713559123.665892) can0 12E#000000000000C044
(1713559123.666144) can0 290#0000000200000083
(1713559123.666383) can0 5A0#0000006244928076
(1713559123.666970) can0 6B9#0020400000000000
(1713559123.667214) can0 5A2#1410140000000000
(1713559123.667670) can0 5D0#9958010200000000
(1713559123.667905) can0 5B1#008A9A6800000077
(1713559123.668143) can0 5CF#7444540000000000
(1713559123.670299) can0 410#2880008B9F6E8B4B
(1713559123.670893) can0 541#0440E800007FFF38
(1713559123.671770) can0 174#F07F004F3F790CF9
(1713559123.671997) can0 178#F07F024307930C4F
(1713559123.672234) can0 17C#F87F010032690C8C
(1713559123.672479) can0 400#28800000000000A1
(1713559123.674712) can0 12F#F8100020000000AB
(1713559123.674960) can0 12D#00000000000000BE
(1713559123.675206) can0 290#00000002000000B6
(1713559123.677281) can0 120#00000000070000C4
(1713559123.677524) can0 121#00000000000000D4
(1713559123.677766) can0 129#00000001000000D0
(1713559123.678248) can0 140#0000030000000000
(1713559123.680225) can0 410#2880008B9F6E8B7E
(1713559123.680844) can0 551#000000000004C000
(1713559123.681094) can0 5D1#9958000200000000
(1713559123.681722) can0 174#F07F004F42790D29
(1713559123.681955) can0 178#F67F03320D930D82
(1713559123.682191) can0 17C#FA7F010048690D6C
(1713559123.682437) can0 400#28800000000000CB
(1713559123.684879) can0 12F#F8100020000000C1
(1713559123.685111) can0 128#1388030000EC7877
(1713559123.685356) can0 12D#00000000000000D4
(1713559123.685603) can0 12E#000000000000C071
(1713559123.685851) can0 290#00000002000000DC
(1713559123.689947) can0 410#2880008B9F6E8B9F
(1713559123.690884) can0 541#0440E800007FFF52
(1713559123.691766) can0 174#F27F004F46790EB2
(1713559123.692000) can0 178#0080043012930E64
(1713559123.692231) can0 17C#F67F010045690E75
(1713559123.692478) can0 400#288000000000002A
(1713559123.694701) can0 12F#F82000200000003D
(1713559123.694947) can0 12D#0000000000000035
(1713559123.695195) can0 290#000000020000003D
(1713559123.697385) can0 120#0000000007000025
(1713559123.697633) can0 121#0000000000000035
(1713559123.697877) can0 129#0000000100000031
(1713559123.698775) can0 140#0000030000000000
(1713559123.699862) can0 410#2880008B9F6E8BAA
(1713559123.700837) can0 551#000000000004C000
(1713559123.701089) can0 5D1#9958000200000000
(1713559123.701724) can0 174#F27F004F46790FAF
(1713559123.701962) can0 178#0680053012930FC0
(1713559123.702201) can0 17C#F27F010032690FC3
(1713559123.702448) can0 400#2880000000000040
(1713559123.704041) can0 6AB#A5CD1C2E77A3E100
(1713559123.704878) can0 12F#F81000200000004A
(1713559123.705111) can0 128#1388030000EC7896
(1713559123.705361) can0 12D#000000000000005F
(1713559123.705607) can0 12E#000000000000C090
(1713559123.705852) can0 290#0000000200000057
(1713559123.709058) can0 550#48000C000100007C
(1713559123.709889) can0 410#2880008B9F6E8BC0
(1713559123.710913) can0 541#0440E800007FFF67
(1713559123.711167) can0 552#00FFFFFFFFFFFFA5
(1713559123.711415) can0 450#005500001B004A00
(1713559123.711779) can0 174#F07F004F3F790065
(1713559123.712013) can0 178#06800632149300E7
(1713559123.712257) can0 17C#F27F0100216900EC
(1713559123.712498) can0 400#2880000000000075
(1713559123.713046) can0 540#0000001040009E00
(1713559123.713288) can0 5B0#6342000000000042
(1713559123.714810) can0 12F#F810012000000078
(1713559123.715044) can0 12A#1428701C60580098
(1713559123.715290) can0 12D#000000000000006A
(1713559123.715539) can0 290#0000000200000062
(1713559123.717481) can0 120#000000000700004F
(1713559123.717729) can0 121#000000000000005F
(1713559123.717973) can0 129#000000010000005B
(1713559123.719303) can0 140#0000030000000000
(1713559123.719809) can0 410#2880008B9F6E8B21
(1713559123.720059) can0 4EA#0000000000000000
(1713559123.720304) can0 5B2#0800000000000000
(1713559123.720550) can0 310#FFFFFFFF7D7D0000
(1713559123.720854) can0 551#000000000004C000
(1713559123.721102) can0 5D1#9958000200000000
(1713559123.721726) can0 174#EE7F004F3A790149
(1713559123.721958) can0 178#02800737119301A3
(1713559123.722194) can0 17C#F67F010022690114
(1713559123.722447) can0 400#2880000000000094
(1713559123.724888) can0 12F#F81000200000009E
(1713559123.725123) can0 128#1388030000EC78A3
(1713559123.725367) can0 12D#000000000000008B
(1713559123.725612) can0 12E#000000000000C0A5
(1713559123.725864) can0 290#0000000200000083
(1713559123.729834) can0 410#2880008B9F6E8B4B
(1713559123.730886) can0 541#0440E800007FFF86
(1713559123.731775) can0 174#EE7F004F3B7902E1
(1713559123.732010) can0 178#0080085F0D930212
(1713559123.732250) can0 17C#F87F01002C69023B
(1713559123.732522) can0 400#28800000000000A1
(1713559123.734702) can0 12F#F8200020000000B6
(1713559123.734948) can0 12D#00000000000000BE
(1713559123.735195) can0 290#00000002000000B6
(1713559123.737565) can0 120#000000000700007A
(1713559123.737817) can0 121#000000000000006A
(1713559123.738065) can0 129#000000010000006E
(1713559123.739760) can0 410#2880008B9F6E8B7E
(1713559123.740009) can0 140#0000030000000000
(1713559123.740835) can0 551#000000000004C000
(1713559123.741085) can0 5D1#9958000200000000
(1713559123.741733) can0 174#F07F004F3F790342
(1713559123.741971) can0 178#028009300F93036A
(1713559123.742211) can0 17C#FC7F01002F6903C3
(1713559123.742512) can0 400#28800000000000CB
(1713559123.744881) can0 12F#F8100020000000C1
(1713559123.745111) can0 128#1388030000EC78C9
(1713559123.745357) can0 12D#00000000000000D4
(1713559123.745599) can0 12E#000000000000C0CF
(1713559123.745847) can0 290#00000002000000DC
(1713559123.749785) can0 410#2880008B9F6E8B9F
(1713559123.750889) can0 541#0440E800007FFFB3
(1713559123.751783) can0 174#F07F004F3879049B
(1713559123.752015) can0 178#02800A37149304EB
(1713559123.752253) can0 17C#FE7F01002A6904A3
(1713559123.752621) can0 400#288000000000002A
(1713559123.754701) can0 12F#F810002000000020
(1713559123.754946) can0 12D#0000000000000035
(1713559123.755194) can0 290#000000020000003D
(1713559123.757660) can0 120#000000000700009B
(1713559123.757904) can0 121#000000000000008B
(1713559123.758146) can0 129#000000010000008F
(1713559123.759010) can0 550#48000C000100009D
(1713559123.759703) can0 410#2880008B9F6E8BAA
(1713559123.760358) can0 140#0000030000000000
(1713559123.760864) can0 551#000000000004C000
(1713559123.761118) can0 552#00FFFFFFFFFFFFCF
(1713559123.761366) can0 5D1#9958000200000000
(1713559123.761610) can0 5D2#7444540000000000
(1713559123.761841) can0 174#EE7F004F2D7905AF
(1713559123.762073) can0 178#02800B3117930579
(1713559123.762315) can0 17C#FE7F01001F69051F
(1713559123.762555) can0 450#005500001B004A00
(1713559123.762804) can0 400#2880000000000040
(1713559123.764976) can0 12F#F81000200000004A
(1713559123.765212) can0 128#1388030000EC7828
(1713559123.765447) can0 12A#1428701C605800AD
(1713559123.765696) can0 12D#000000000000005F
(1713559123.765940) can0 12E#000000000000C02E
(1713559123.766186) can0 290#0000000200000057
(1713559123.766422) can0 5A0#0000006244928097
(1713559123.767136) can0 6B9#0020400000000000
(1713559123.767404) can0 5A2#1410140000000000
(1713559123.767658) can0 5D0#9958010200000000
(1713559123.767894) can0 5B1#008A9A6800000096
(1713559123.768133) can0 5CF#7444540000000000
(1713559123.769729) can0 410#2880008B9F6E8BC0
(1713559123.770883) can0 541#0440E800007FFFD9
(1713559123.771787) can0 174#EC7F004F2C7906BD
(1713559123.772022) can0 178#0280000015930666
(1713559123.772263) can0 17C#FE7F010013690632
(1713559123.772717) can0 400#2880000000000075
(1713559123.774723) can0 12F#F820002000000062
(1713559123.774967) can0 12D#000000000000006A
(1713559123.775215) can0 290#0000000200000062
(1713559123.777758) can0 120#00000000070000AE
(1713559123.778003) can0 121#00000000000000BE
(1713559123.778246) can0 129#00000001000000BA
(1713559123.779649) can0 410#2880008B9F6E8B21
(1713559123.780840) can0 551#000000000004C000
(1713559123.781090) can0 140#0000030000000000
(1713559123.781330) can0 5D1#9958000200000000
(1713559123.781738) can0 174#EE7F004F3479070E
(1713559123.781972) can0 178#FC7F01371193072D
(1713559123.782212) can0 17C#FC7F010013690795
(1713559123.782707) can0 400#2880000000000094
(1713559123.784875) can0 12F#F81000200000009E
(1713559123.785105) can0 128#1388030000EC7842
(1713559123.785351) can0 12D#000000000000008B
(1713559123.785597) can0 12E#000000000000C044
(1713559123.785848) can0 290#0000000200000083
(1713559123.789676) can0 410#2880008B9F6E8B4B
(1713559123.790882) can0 541#0440E800007FFF38
(1713559123.791797) can0 174#F07F004F40790843
(1713559123.792025) can0 178#F87F022E129308E9
(1713559123.792264) can0 17C#FC7F01001C6908A8
(1713559123.792814) can0 400#28800000000000A1
(1713559123.794701) can0 12F#F8100120000000AC
(1713559123.794943) can0 12D#00000000000000BE
(1713559123.795189) can0 290#00000002000000B6
(1713559123.797908) can0 120#00000000070000C4
(1713559123.798152) can0 121#00000000000000D4
(1713559123.798341) can0 129#00000001000000D0
(1713559123.799611) can0 410#2880008B9F6E8B7E
(1713559123.800837) can0 551#000000000004C000
(1713559123.801087) can0 5D1#9958000200000000
(1713559123.801411) can0 140#0000030000000000
(1713559123.801747) can0 174#F27F004F487909E8
(1713559123.801981) can0 178#F87F03311793095A
(1713559123.802217) can0 17C#FC7F010021690918
(1713559123.802806) can0 400#28800000000000CB
(1713559123.804898) can0 12F#F8100020000000C1
(1713559123.805129) can0 128#1388030000EC7877
(1713559123.805372) can0 12D#00000000000000D4
(1713559123.805622) can0 12E#000000000000C071
(1713559123.805871) can0 290#00000002000000DC
(1713559123.809057) can0 550#48000C00010000A8
(1713559123.809649) can0 410#2880008B9F6E8B9F
(1713559123.810906) can0 541#0440E800007FFF52
(1713559123.811163) can0 552#00FFFFFFFFFFFF2E
(1713559123.811411) can0 450#005500001B004A00
(1713559123.811801) can0 174#F47F004F40790A10
(1713559123.812037) can0 178#FC7F043020930A20
(1713559123.812272) can0 17C#FE7F010021690A85
(1713559123.812915) can0 400#288000000000002A
(1713559123.813499) can0 540#0000001040009E00
(1713559123.813737) can0 5B0#6342000000000077
(1713559123.814800) can0 12F#F82000200000003D
(1713559123.815035) can0 12A#1428701C605800C7
(1713559123.815282) can0 12D#0000000000000035
(1713559123.815532) can0 290#000000020000003D
(1713559123.817953) can0 120#0000000007000025
(1713559123.818200) can0 121#0000000000000035
(1713559123.818444) can0 129#0000000100000031
(1713559123.819568) can0 410#2880008B9F6E8BAA
(1713559123.819816) can0 4EA#0000000000000000
(1713559123.820062) can0 5B2#0800000000000000
(1713559123.820307) can0 310#FFFFFFFF7D7D0000
(1713559123.820836) can0 551#000000000004C000
(1713559123.821083) can0 5D1#9958000200000000
(1713559123.821748) can0 174#F47F004F2A790B52
(1713559123.821998) can0 140#0000030000000000
(1713559123.822238) can0 178#0080000023930B70
(1713559123.822476) can0 17C#0480010027690B55
(1713559123.822903) can0 400#2880000000000040
(1713559123.824884) can0 12F#F81000200000004A
(1713559123.825117) can0 128#1388030000EC7896
(1713559123.825366) can0 12D#000000000000005F
(1713559123.825613) can0 12E#000000000000C090
(1713559123.825860) can0 290#0000000200000057
(1713559123.829598) can0 410#2880008B9F6E8BC0
(1713559123.830887) can0 541#0440E800007FFF67
(1713559123.831803) can0 174#F27F004F19790C76
(1713559123.832035) can0 178#0280013820930C8C
(1713559123.832273) can0 17C#048001002D690C09
(1713559123.833007) can0 400#2880000000000075
(1713559123.834699) can0 12F#F81000200000007F
(1713559123.834943) can0 12D#000000000000006A
(1713559123.835192) can0 290#0000000200000062
(1713559123.838048) can0 120#000000000700004F
(1713559123.838296) can0 121#000000000000005F
(1713559123.838540) can0 129#000000010000005B
(1713559123.839515) can0 410#2880008B9F6E8B21
(1713559123.840830) can0 551#000000000004C000
(1713559123.841080) can0 5D1#9958000200000000
(1713559123.841756) can0 174#F27F004F1C790DE2
(1713559123.841990) can0 178#F87F023215930DFD
(1713559123.842228) can0 17C#0080010034690DE6
(1713559123.842479) can0 140#0000030000000000
(1713559123.842997) can0 400#2880000000000094
(1713559123.844917) can0 12F#F81000200000009E
(1713559123.845149) can0 128#1388030000EC78A3
(1713559123.845395) can0 12D#000000000000008B
(1713559123.845639) can0 12E#000000000000C0A5
(1713559123.845892) can0 290#0000000200000083
(1713559123.849542) can0 410#2880008B9F6E8B4B
(1713559123.850886) can0 541#0440E800007FFF86
(1713559123.851811) can0 174#F07F004F27790ED7
(1713559123.852042) can0 178#F27F033209930ECA
(1713559123.852280) can0 17C#FA7F010038690E03
(1713559123.853090) can0 400#28800000000000A1
(1713559123.854701) can0 12F#F8200020000000B6
(1713559123.854946) can0 12D#00000000000000BE
(1713559123.855192) can0 290#00000002000000B6
(1713559123.858146) can0 120#000000000700007A
(1713559123.858398) can0 121#000000000000006A
(1713559123.858646) can0 129#000000010000006E
(1713559123.859009) can0 550#48000C00010000C2
(1713559123.859473) can0 410#2880008B9F6E8B7E
(1713559123.861277) can0 551#000000000004C000
(1713559123.861531) can0 552#00FFFFFFFFFFFF44
(1713559123.861765) can0 174#EE7F004F34790FE6
(1713559123.861995) can0 178#F67F043501930F4D
(1713559123.862233) can0 17C#F67F010032690FAA
(1713559123.862473) can0 5D1#9958000200000000
(1713559123.862795) can0 5D2#7444540000000000
(1713559123.863045) can0 140#0000030000000000
(1713559123.863292) can0 400#28800000000000CB
(1713559123.863532) can0 450#005500001B004A00
(1713559123.864936) can0 12F#F8100020000000C1
(1713559123.865172) can0 128#1388030000EC78C9
(1713559123.865406) can0 12A#1428701C60580026
(1713559123.865650) can0 12D#00000000000000D4
(1713559123.865894) can0 12E#000000000000C0CF
(1713559123.866144) can0 290#00000002000000DC
(1713559123.866381) can0 5A0#00000062449280A2
(1713559123.867348) can0 6B9#0020400000000000
(1713559123.867569) can0 5A2#1410140000000000
(1713559123.867805) can0 5B1#008A9A68000000A3
(1713559123.868047) can0 5D0#9958010200000000
(1713559123.868285) can0 5CF#7444540000000000
(1713559123.869488) can0 410#2880008B9F6E8B9F
(1713559123.870880) can0 541#0440E800007FFFB3
(1713559123.871820) can0 174#EA7F004F3B7900B2
(1713559123.872057) can0 178#FE7F000007930028
(1713559123.872302) can0 17C#F87F01002469000D
(1713559123.873188) can0 400#288000000000002A
(1713559123.874719) can0 12F#F810012000000027
(1713559123.874958) can0 12D#0000000000000035
(1713559123.875204) can0 290#000000020000003D
(1713559123.878293) can0 120#000000000700009B
(1713559123.878534) can0 121#000000000000008B
(1713559123.878729) can0 129#000000010000008F
(1713559123.879454) can0 410#2880008B9F6E8BAA
(1713559123.880837) can0 551#000000000004C000
(1713559123.881087) can0 5D1#9958000200000000
(1713559123.881773) can0 174#E87F004F3D790110
(1713559123.882007) can0 178#04800132159301C4
(1713559123.882247) can0 17C#FE7F010017690167
(1713559123.883185) can0 400#2880000000000040
(1713559123.883522) can0 140#0000030000000000
(1713559123.884824) can0 12F#F81000200000004A
(1713559123.885062) can0 128#1388030000EC7828
(1713559123.885312) can0 12D#000000000000005F
(1713559123.885556) can0 12E#000000000000C02E
(1713559123.885802) can0 290#0000000200000057
(1713559123.889454) can0 410#2880008B9F6E8BC0
(1713559123.890874) can0 541#0440E800007FFFD9
(1713559123.891825) can0 174#EA7F004F3B790288
(1713559123.892060) can0 178#068002301F9302CF
(1713559123.892298) can0 17C#FE7F01000E6902DB
(1713559123.893283) can0 400#2880000000000075
(1713559123.894697) can0 12F#F820002000000062
(1713559123.894951) can0 12D#000000000000006A
(1713559123.895193) can0 290#0000000200000062
(1713559123.898396) can0 120#00000000070000AE
(1713559123.898640) can0 121#00000000000000BE
(1713559123.898882) can0 129#00000001000000BA
(1713559123.899504) can0 410#2880008B9F6E8B21
(1713559123.900880) can0 551#000000000004C000
(1713559123.901096) can0 5D1#9958000200000000
(1713559123.901779) can0 174#EE7F004F38790370
(1713559123.902012) can0 178#0280033220930358
(1713559123.902254) can0 17C#FC7F01000B6903F5
(1713559123.903282) can0 400#2880000000000094
(1713559123.904051) can0 140#0000030000000000
(1713559123.904819) can0 12F#F81000200000009E
(1713559123.905053) can0 128#1388030000EC7842
(1713559123.905299) can0 12D#000000000000008B
(1713559123.905543) can0 12E#000000000000C044
(1713559123.905795) can0 290#0000000200000083
(1713559123.909055) can0 550#48000C0001000023
(1713559123.909452) can0 410#2880008B9F6E8B4B
(1713559123.910903) can0 541#0440E800007FFF38
(1713559123.911157) can0 552#00FFFFFFFFFFFF71
(1713559123.911405) can0 450#005500001B004A00
(1713559123.911837) can0 174#F27F004F3079042D
(1713559123.912069) can0 178#FE7F04331C9304A4
(1713559123.912310) can0 17C#FA7F0100106904ED
(1713559123.913383) can0 400#28800000000000A1
(1713559123.913982) can0 540#0000001040009E00
(1713559123.914221) can0 5B0#6342000000000096
(1713559123.914787) can0 12F#F8100020000000AB
(1713559123.915019) can0 12A#1428701C6058004C
(1713559123.915275) can0 12D#00000000000000BE
(1713559123.915516) can0 290#00000002000000B6
(1713559123.918489) can0 120#00000000070000C4
(1713559123.918733) can0 121#00000000000000D4
(1713559123.918975) can0 129#00000001000000D0
(1713559123.919485) can0 410#2880008B9F6E8B7E
(1713559123.919733) can0 4EA#0000000000000000
(1713559123.919979) can0 5B2#0800000000000000
(1713559123.920224) can0 310#FFFFFFFF7D7D0000
(1713559123.920830) can0 551#000000000004C000
(1713559123.921080) can0 5D1#9958000200000000
(1713559123.921782) can0 174#F27F004F2D7905AD
(1713559123.922016) can0 178#FE7F0531149305F8
(1713559123.922255) can0 17C#F67F01001469054D
(1713559123.923379) can0 400#28800000000000CB
(1713559123.924580) can0 140#0000030000000000
(1713559123.924849) can0 12F#F8100020000000C1
(1713559123.925083) can0 128#1388030000EC7877
(1713559123.925329) can0 12D#00000000000000D4
(1713559123.925577) can0 12E#000000000000C071
(1713559123.925824) can0 290#00000002000000DC
(1713559123.929454) can0 410#2880008B9F6E8B9F
(1713559123.930876) can0 541#0440E800007FFF52
(1713559123.931843) can0 174#F07F004F327906AE
(1713559123.932079) can0 178#0080063012930658
(1713559123.932319) can0 17C#F87F01001C690667
(1713559123.933483) can0 400#288000000000002A
(1713559123.934695) can0 12F#F82000200000003D
(1713559123.934941) can0 12D#0000000000000035
(1713559123.935189) can0 290#000000020000003D
(1713559123.938595) can0 120#0000000007000025
(1713559123.938835) can0 121#0000000000000035
(1713559123.939078) can0 129#0000000100000031
(1713559123.939504) can0 410#2880008B9F6E8BAA
(1713559123.940878) can0 551#000000000004C000
(1713559123.941128) can0 5D1#9958000200000000
(1713559123.941848) can0 174#EC7F004F387907BE
(1713559123.942082) can0 178#028007311493070D
(1713559123.942324) can0 17C#FC7F010022690732
(1713559123.943479) can0 400#2880000000000040
(1713559123.944822) can0 12F#F81000200000004A
(1713559123.945056) can0 128#1388030000EC7896
(1713559123.945306) can0 12D#000000000000005F
(1713559123.945552) can0 12E#000000000000C090
(1713559123.945802) can0 140#0000030000000000
(1713559123.946049) can0 290#0000000200000057
(1713559123.949404) can0 410#2880008B9F6E8BC0
(1713559123.950833) can0 541#0440E800007FFF67
(1713559123.951845) can0 174#EC7F004F3F79088F
(1713559123.952077) can0 178#06800838149308A2
(1713559123.952316) can0 17C#008001001C6908B3
(1713559123.953580) can0 400#2880000000000075
(1713559123.954700) can0 12F#F810012000000078
(1713559123.954946) can0 12D#000000000000006A
(1713559123.955194) can0 290#0000000200000062
(1713559123.958680) can0 120#000000000700004F
(1713559123.958929) can0 121#000000000000005F
(1713559123.959172) can0 129#000000010000005B
(1713559123.959419) can0 550#48000C0001000049
(1713559123.959660) can0 410#2880008B9F6E8B21
(1713559123.960911) can0 551#000000000004C000
(1713559123.961165) can0 552#00FFFFFFFFFFFF90
(1713559123.961411) can0 5D1#9958000200000000
(1713559123.961659) can0 5D2#7444540000000000
(1713559123.961889) can0 174#F07F004F3D790993
(1713559123.962125) can0 178#0680000018930931
(1713559123.962365) can0 17C#FE7F01000E690914
(1713559123.962606) can0 450#005500001B004A00
(1713559123.963572) can0 400#2880000000000094
(1713559123.964884) can0 12F#F81000200000009E
(1713559123.965120) can0 128#1388030000EC78A3
(1713559123.965352) can0 12A#1428701C60580079
(1713559123.965598) can0 12D#000000000000008B
(1713559123.965842) can0 12E#000000000000C0A5
(1713559123.966092) can0 140#0000030000000000
(1713559123.966344) can0 290#0000000200000083
(1713559123.966580) can0 5A0#00000062449280C8
(1713559123.967461) can0 6B9#0020400000000000
(1713559123.967704) can0 5A2#1410140000000000
(1713559123.967941) can0 5B1#008A9A68000000C9
(1713559123.968182) can0 5D0#9958010200000000
(1713559123.968421) can0 5CF#7444540000000000
(1713559123.969401) can0 410#2880008B9F6E8B4B
(1713559123.970822) can0 541#0440E800007FFF86
(1713559123.971813) can0 174#F07F004F3A790A3E
(1713559123.972049) can0 178#068000001D930A9F
(1713559123.972331) can0 17C#FC7F010006690A85
(1713559123.973682) can0 400#28800000000000A1
(1713559123.974709) can0 12F#F8200020000000B6
(1713559123.974956) can0 12D#00000000000000BE
(1713559123.975202) can0 290#00000002000000B6
(1713559123.978779) can0 120#000000000700007A
(1713559123.979030) can0 121#000000000000006A
(1713559123.979279) can0 129#000000010000006E
(1713559123.979633) can0 410#2880008B9F6E8B7E
(1713559123.980879) can0 551#000000000004C000
(1713559123.981133) can0 5D1#9958000200000000
(1713559123.981857) can0 174#F27F004F38790B9A
(1713559123.982087) can0 178#0480015217930BCB
(1713559123.982325) can0 17C#FC7F010009690B1E
(1713559123.983722) can0 400#28800000000000CB
(1713559123.984846) can0 12F#F8100020000000C1
(1713559123.985058) can0 128#1388030000EC78C9
(1713559123.985301) can0 12D#00000000000000D4
(1713559123.985545) can0 12E#000000000000C0CF
(1713559123.985793) can0 290#00000002000000DC
(1713559123.986159) can0 140#0000030000000000
(1713559123.989403) can0 410#2880008B9F6E8B9F
(1713559123.990820) can0 541#0440E800007FFFB3
(1713559123.991821) can0 174#F27F004F3F790C43
(1713559123.992053) can0 178#0080026F0A930CF2
(1713559123.992292) can0 17C#FC7F010010690CD6
(1713559123.993777) can0 400#288000000000002A
(1713559123.994697) can0 12F#F810002000000020
(1713559123.994939) can0 12D#0000000000000035
(1713559123.995187) can0 290#000000020000003D
(1713559123.998876) can0 120#000000000700009B
(1713559123.999117) can0 121#000000000000008B
(1713559123.999386) can0 129#000000010000008F
(1713559123.999596) can0 410#2880008B9F6E8BAA
(1713559124.000876) can0 551#000000000004C000
(1713559124.001126) can0 5D1#9958000200000000
(1713559124.001862) can0 174#F07F004F45790DA3
(1713559124.002095) can0 178#FA7F036204930D0B
(1713559124.002332) can0 17C#FC7F010017690D41
(1713559124.003823) can0 400#2880000000000040
(1713559124.004873) can0 12F#F81000200000004A
(1713559124.005123) can0 128#1388030000EC7828
(1713559124.005360) can0 12D#000000000000005F
(1713559124.005606) can0 12E#000000000000C02E
(1713559124.005822) can0 290#0000000200000057
(1713559124.006691) can0 140#0000030000000000
(1713559124.009015) can0 550#48000C000100007C
(1713559124.009358) can0 410#2880008B9F6E8BC0
(1713559124.010848) can0 541#0440E800007FFFD9
(1713559124.011102) can0 552#00FFFFFFFFFFFFA5
(1713559124.011349) can0 450#005500001B004A00
(1713559124.011826) can0 174#EA7F004F48790ED0
(1713559124.012055) can0 178#F67F04650D930EEB
(1713559124.012291) can0 17C#FC7F01001E690EE5
(1713559124.013871) can0 400#2880000000000075
(1713559124.014499) can0 540#0000001040009E00
(1713559124.014741) can0 5B0#63420000000000A3
(1713559124.014977) can0 12A#1428701C60580098
(1713559124.015221) can0 12D#000000000000006A
(1713559124.015471) can0 12F#F820002000000062
(1713559124.015715) can0 290#0000000200000062
(1713559124.018970) can0 120#00000000070000AE
(1713559124.019216) can0 121#00000000000000BE
(1713559124.019458) can0 129#00000001000000BA
(1713559124.019694) can0 410#2880008B9F6E8B21
(1713559124.019943) can0 4EA#0000000000000000
(1713559124.020189) can0 5B2#0800000000000000
(1713559124.020435) can0 310#FFFFFFFF7D7D0000
(1713559124.020875) can0 551#000000000004C000
(1713559124.021123) can0 5D1#9958000200000000
(1713559124.021877) can0 174#EA7F004F4E790FC8
(1713559124.022105) can0 178#F27F05721D930F3C
(1713559124.022353) can0 17C#FC7F01001C690FFB
(1713559124.023918) can0 400#2880000000000094
(1713559124.024916) can0 12F#F81000200000009E
(1713559124.025150) can0 128#1388030000EC7842
(1713559124.025396) can0 12D#000000000000008B
(1713559124.025640) can0 12E#000000000000C044
(1713559124.025893) can0 290#0000000200000083
(1713559124.027213) can0 140#0000030000000000
(1713559124.029303) can0 410#2880008B9F6E8B4B
(1713559124.030825) can0 541#0440E800007FFF38
(1713559124.031839) can0 174#EE7F004F55790082
(1713559124.032075) can0 178#EE7F0674209300FF
(1713559124.032315) can0 17C#FA7F010017690013
(1713559124.033969) can0 400#28800000000000A1
(1713559124.034699) can0 12F#F8100120000000AC
(1713559124.034947) can0 12D#00000000000000BE
(1713559124.035195) can0 290#00000002000000B6
(1713559124.039068) can0 120#00000000070000C4
(1713559124.039312) can0 121#00000000000000D4
(1713559124.039554) can0 129#00000001000000D0
(1713559124.039794) can0 410#2880008B9F6E8B7E
(1713559124.040869) can0 551#000000000004C000
(1713559124.041118) can0 5D1#9958000200000000
(1713559124.041874) can0 174#EE7F004F51790199
(1713559124.042108) can0 178#EC7F07201793016F
(1713559124.042346) can0 17C#FE7F0100166901E8
(1713559124.044019) can0 400#28800000000000CB
(1713559124.044870) can0 12F#F8200020000000DC
(1713559124.045103) can0 128#1388030000EC7877
(1713559124.045347) can0 12D#00000000000000D4
(1713559124.045595) can0 12E#000000000000C071
(1713559124.045843) can0 290#00000002000000DC
(1713559124.047791) can0 140#0000030000000000
(1713559124.049250) can0 410#2880008B9F6E8B9F
(1713559124.051842) can0 174#EA7F004F46790245
(1713559124.052079) can0 178#F07F08420C930257
(1713559124.052321) can0 17C#00800100136902E7
(1713559124.053279) can0 541#0440E800007FFF52
(1713559124.054016) can0 400#288000000000002A
(1713559124.054647) can0 12F#F810002000000020
(1713559124.054892) can0 12D#0000000000000035
(1713559124.055140) can0 290#000000020000003D
(1713559124.055387) can0 6E2#0544000000000000
(1713559124.058950) can0 410#2880008B9F6E8BAA
(1713559124.059190) can0 550#48000C000100009D
(1713559124.059441) can0 120#0000000007000025
(1713559124.059686) can0 121#0000000000000035
(1713559124.059931) can0 129#0000000100000031
(1713559124.060901) can0 551#000000000004C000
(1713559124.061157) can0 552#00FFFFFFFFFFFFCF
(1713559124.061403) can0 5D1#9958000200000000
(1713559124.061648) can0 5D2#7444540000000000
(1713559124.061893) can0 450#005500001B004A00
(1713559124.062125) can0 174#EA7F004F3F790393
(1713559124.062355) can0 178#F67F096F0C9303F6
(1713559124.062596) can0 17C#008001000669036B
(1713559124.064110) can0 400#2880000000000040
(1713559124.064938) can0 12F#F81000200000004A
(1713559124.065170) can0 128#1388030000EC7896
(1713559124.065404) can0 12A#1428701C605800AD
(1713559124.065654) can0 12D#000000000000005F
(1713559124.065900) can0 12E#000000000000C090
(1713559124.066146) can0 290#0000000200000057
(1713559124.066385) can0 5A0#0000006244928029
(1713559124.067675) can0 6B9#0020400000000000
(1713559124.067917) can0 5A2#1410140000000000
(1713559124.068105) can0 5B1#008A9A6800000028
(1713559124.068355) can0 140#0000030000000000
(1713559124.068597) can0 5D0#9958010200000000
(1713559124.068835) can0 5CF#7444540000000000
(1713559124.069075) can0 410#2880008B9F6E8BC0
(1713559124.070821) can0 541#0440E800007FFF67
(1713559124.071834) can0 174#EC7F004F3A79049A
(1713559124.072063) can0 178#FA7F0A730D9304D8
