(1713559580.074445) can0 410#2880008B9F6E8B7E
(1713559580.078875) can0 120#00000000070000C4
(1713559580.079117) can0 121#00000000000000D4
(1713559580.079361) can0 129#00000001000000D0
(1713559580.080676) can0 551#000000000004C000
(1713559580.080910) can0 128#1388030000EC78A3
(1713559580.081156) can0 12D#000000000000008B
(1713559580.081400) can0 12E#000000000000C0A5
(1713559580.081641) can0 12F#F80003200000009C
(1713559580.081876) can0 174#F67F005B3D790690
(1713559580.082111) can0 178#F07F0D200D93068A
(1713559580.082350) can0 17C#06800100406906B4
(1713559580.082600) can0 290#0010000200000088
(1713559580.082850) can0 4EA#0000000000000000
(1713559580.083096) can0 5B2#0800000000000000
(1713559580.083373) can0 310#FFFFFFFF7D7D0000
(1713559580.083586) can0 5D1#9958000200000000
(1713559580.083836) can0 400#28800000000000CB
(1713559580.084088) can0 140#0000030000000000
(1713559580.084431) can0 410#2880008B9F6E8B9F
(1713559580.090578) can0 12F#F8100220000000A5
(1713559580.090816) can0 12D#00000000000000BE
(1713559580.091061) can0 290#00100002000000BD
(1713559580.091303) can0 541#0440E800007FFFB3
(1713559580.091559) can0 552#00FFFFFFFFFFFF2E
(1713559580.091791) can0 174#EE7F005B3F7907E5
(1713559580.092024) can0 178#EC7F0E4703930708
(1713559580.092263) can0 17C#048001003B6907DB
(1713559580.092502) can0 450#0055A0001B004A00
(1713559580.093870) can0 400#288000000000002A
(1713559580.094405) can0 410#2880008B9F6E8BAA
(1713559580.098960) can0 120#0000000007000025
(1713559580.099205) can0 121#0000000000000035
(1713559580.099451) can0 129#0000000100000031
(1713559580.100663) can0 551#000000000004C000
(1713559580.100899) can0 128#1388030000EC78C9
(1713559580.101143) can0 12D#00000000000000D4
(1713559580.101387) can0 12E#000000000000C0CF
(1713559580.101627) can0 12F#F8000320000000C3
(1713559580.101855) can0 174#E87F005B3D79088E
(1713559580.102085) can0 178#EC7F0F6DF892086C
(1713559580.102321) can0 17C#FC7F01003869089E
(1713559580.102569) can0 290#00000002000000DC
(1713559580.102809) can0 5D1#9958000200000000
(1713559580.103917) can0 400#2880000000000040
(1713559580.104403) can0 410#2880008B9F6E8BC0
(1713559580.104652) can0 140#0000030000000000
(1713559580.107832) can0 5D0#9958010200000000
(1713559580.108063) can0 5B1#008A9A6800000028
(1713559580.108302) can0 5CF#7444540000000000
(1713559580.109470) can0 550#48000C00010000A8
(1713559580.110606) can0 12F#F800032000000022
(1713559580.110842) can0 12A#1428701C605800C7
(1713559580.111088) can0 12D#0000000000000035
(1713559580.111352) can0 290#000000020000003D
(1713559580.111580) can0 541#0440E800007FFFD9
(1713559580.111806) can0 174#EA7F005B3B79092C
(1713559580.112036) can0 178#F27F0062F49209D7
(1713559580.112272) can0 17C#F67F0100386909EB
(1713559580.113985) can0 400#2880000000000075
(1713559580.114373) can0 410#2880008B9F6E8B21
(1713559580.114624) can0 540#0000001040009F00
(1713559580.114866) can0 5B0#6342000000000042
(1713559580.118416) can0 6B9#0020400000000000
(1713559580.118658) can0 5A2#1410140000000000
(1713559580.119052) can0 120#000000000700004F
(1713559580.119300) can0 121#000000000000005F
(1713559580.119545) can0 129#000000010000005B
(1713559580.120657) can0 551#000000000004C000
(1713559580.120895) can0 128#1388030000EC7828
(1713559580.121145) can0 12D#000000000000005F
(1713559580.121389) can0 12E#000000000000C02E
(1713559580.121631) can0 12F#F810022000000044
(1713559580.121859) can0 174#EE7F005B34790AE4
(1713559580.122093) can0 178#FA7F0148FC920AB5
(1713559580.122327) can0 17C#F67F01003A690ACF
(1713559580.122573) can0 290#0000000200000057
(1713559580.122814) can0 5D1#9958000200000000
(1713559580.124009) can0 400#2880000000000094
(1713559580.124310) can0 410#2880008B9F6E8B4B
(1713559580.125084) can0 140#0000030000000000
(1713559580.130595) can0 12F#F80003200000007D
(1713559580.130836) can0 12D#000000000000006A
(1713559580.131084) can0 290#0000000200000062
(1713559580.131347) can0 541#0440E800007FFF38
(1713559580.131694) can0 174#F47F005B2A790B39
(1713559580.131929) can0 178#048000000A930BAA
(1713559580.132167) can0 17C#FC7F010038690BB9
(1713559580.134091) can0 400#28800000000000A1
(1713559580.134333) can0 410#2880008B9F6E8B7E
(1713559580.139202) can0 120#000000000700007A
(1713559580.139454) can0 121#000000000000006A
(1713559580.139700) can0 129#000000010000006E
(1713559580.140679) can0 551#000000000004C000
(1713559580.140924) can0 12D#000000000000008B
(1713559580.141159) can0 128#1388030000EC7842
(1713559580.141402) can0 12E#000000000000C044
(1713559580.141642) can0 12F#F80003200000009C
(1713559580.141874) can0 174#F87F005B29790C5D
(1713559580.142110) can0 178#0A80000017930C65
(1713559580.142348) can0 17C#0480010032690C97
(1713559580.142600) can0 290#0000000200000083
(1713559580.142845) can0 552#00FFFFFFFFFFFF44
(1713559580.143097) can0 5D1#9958000200000000
(1713559580.143351) can0 5D2#7444540000000000
(1713559580.143587) can0 450#0055A0001B004A00
(1713559580.144105) can0 400#28800000000000CB
(1713559580.144346) can0 410#2880008B9F6E8B9F
(1713559580.145657) can0 140#0000030000000000
(1713559580.150706) can0 12F#F8100220000000A5
(1713559580.150950) can0 12D#00000000000000BE
(1713559580.151198) can0 290#00000002000000B6
(1713559580.151440) can0 541#0440E800007FFF52
(1713559580.151694) can0 174#F67F005B2F790D44
(1713559580.151928) can0 178#0880000D1A930D08
(1713559580.152164) can0 17C#0A8001002D690D15
(1713559580.154190) can0 400#288000000000002A
(1713559580.154428) can0 410#2880008B9F6E8BAA
(1713559580.159249) can0 120#000000000700009B
(1713559580.159494) can0 121#000000000000008B
(1713559580.159735) can0 129#000000010000008F
(1713559580.159977) can0 550#48000C00010000C2
(1713559580.160661) can0 551#000000000004C000
(1713559580.160901) can0 12F#F8000320000000C3
(1713559580.161135) can0 128#1388030000EC7877
(1713559580.161369) can0 12A#1428701C60580026
(1713559580.161614) can0 12D#00000000000000D4
(1713559580.161862) can0 12E#000000000000C071
(1713559580.162094) can0 174#F07F005B34790E28
(1713559580.162332) can0 178#0080000018930EB1
(1713559580.162570) can0 17C#068001002A690E03
(1713559580.162818) can0 290#00000002000000DC
(1713559580.163056) can0 5A0#0000006244928043
(1713559580.163297) can0 5D1#9958000200000000
(1713559580.164205) can0 400#2880000000000040
(1713559580.164445) can0 410#2880008B9F6E8BC0
(1713559580.166183) can0 140#0000030000000000
(1713559580.170698) can0 12F#F810032000000029
(1713559580.170942) can0 12D#0000000000000035
(1713559580.171190) can0 290#000000020000003D
(1713559580.171436) can0 541#0440E800007FFF67
(1713559580.171696) can0 174#EC7F005B2C790F23
(1713559580.171926) can0 178#FE7F01361A930F62
(1713559580.172166) can0 17C#0080010027690F48
(1713559580.174267) can0 410#2880008B9F6E8B21
(1713559580.174514) can0 400#2880000000000075
(1713559580.179346) can0 120#00000000070000AE
(1713559580.179590) can0 121#00000000000000BE
(1713559580.179833) can0 129#00000001000000BA
(1713559580.180657) can0 551#000000000004C000
(1713559580.180901) can0 12F#F80002200000004F
(1713559580.181135) can0 128#1388030000EC7896
(1713559580.181385) can0 12D#000000000000005F
(1713559580.181631) can0 12E#000000000000C090
(1713559580.181863) can0 174#E67F005B1F790054
(1713559580.182101) can0 178#0080023015930029
(1713559580.182339) can0 17C#FE7F01002C6900D2
(1713559580.182585) can0 290#0000000200000057
(1713559580.182835) can0 4EA#0000000000000000
(1713559580.183082) can0 5B2#0800000000000000
(1713559580.183328) can0 310#FFFFFFFF7D7D0000
(1713559580.183567) can0 5D1#9958000200000000
(1713559580.184275) can0 410#2880008B9F6E8B4B
(1713559580.184521) can0 400#2880000000000094
(1713559580.186707) can0 140#0000030000000000
(1713559580.190678) can0 12F#F80003200000007D
(1713559580.190919) can0 12D#000000000000006A
(1713559580.191168) can0 290#0000000200000062
(1713559580.191411) can0 541#0440E800007FFF86
(1713559580.191662) can0 552#00FFFFFFFFFFFF71
(1713559580.191895) can0 174#E47F005B1F7901F3
(1713559580.192131) can0 178#068003310D930104
(1713559580.192374) can0 17C#00800100316901F3
(1713559580.192612) can0 450#0055A0001B004A00
(1713559580.194270) can0 410#2880008B9F6E8B7E
(1713559580.194526) can0 400#28800000000000A1
(1713559580.199441) can0 120#00000000070000C4
(1713559580.199684) can0 121#00000000000000D4
(1713559580.199927) can0 129#00000001000000D0
(1713559580.200657) can0 551#000000000004C000
(1713559580.200899) can0 12F#F810032000000097
(1713559580.201135) can0 128#1388030000EC78A3
(1713559580.201381) can0 12D#000000000000008B
(1713559580.201625) can0 12E#000000000000C0A5
(1713559580.201855) can0 174#E67F005B2F790246
(1713559580.202094) can0 178#088004380D930228
(1713559580.202332) can0 17C#048001002D6902AF
(1713559580.202584) can0 290#0000000200000083
(1713559580.202824) can0 5D1#9958000200000000
(1713559580.204223) can0 410#2880008B9F6E8B9F
(1713559580.204468) can0 400#28800000000000CB
(1713559580.207238) can0 140#0000030000000000
(1713559580.207860) can0 5D0#9958010200000000
(1713559580.208095) can0 5B1#008A9A6800000042
(1713559580.208333) can0 5CF#7444540000000000
(1713559580.209487) can0 550#48000C0001000023
(1713559580.210701) can0 541#0440E800007FFFB3
(1713559580.210933) can0 12A#1428701C6058004C
(1713559580.211182) can0 12D#00000000000000BE
(1713559580.211426) can0 12F#F8000220000000AE
(1713559580.211670) can0 290#00000002000000B6
(1713559580.211900) can0 174#E87F005B3B790344
(1713559580.212132) can0 178#08800531149303C5
(1713559580.212373) can0 17C#04800100276903BD
(1713559580.214267) can0 410#2880008B9F6E8BAA
(1713559580.214521) can0 400#288000000000002A
(1713559580.215095) can0 540#0000001040009F00
(1713559580.215357) can0 5B0#6342000000000077
(1713559580.218632) can0 6B9#0020400000000000
(1713559580.218875) can0 5A2#1410140000000000
(1713559580.219545) can0 120#0000000007000025
(1713559580.219792) can0 121#0000000000000035
(1713559580.220036) can0 129#0000000100000031
(1713559580.220654) can0 551#000000000004C000
(1713559580.220902) can0 12F#F8000320000000C3
(1713559580.221138) can0 128#1388030000EC78C9
(1713559580.221382) can0 12D#00000000000000D4
(1713559580.221627) can0 12E#000000000000C0CF
(1713559580.221858) can0 174#EA7F005B3F7904AB
(1713559580.222090) can0 178#04800632159304A6
(1713559580.222328) can0 17C#0280010021690438
(1713559580.222577) can0 290#00000002000000DC
(1713559580.222817) can0 5D1#9958000200000000
(1713559580.224223) can0 410#2880008B9F6E8BC0
(1713559580.224495) can0 400#2880000000000040
(1713559580.227711) can0 140#0000030000000000
(1713559580.230674) can0 12F#F81002200000002E
(1713559580.230918) can0 12D#0000000000000035
(1713559580.231165) can0 290#000000020000003D
(1713559580.231410) can0 541#0440E800007FFFD9
(1713559580.231716) can0 174#EA7F005B3F7905B6
(1713559580.231950) can0 178#028007390D930530
(1713559580.232188) can0 17C#FC7F01001C690529
(1713559580.234266) can0 410#2880008B9F6E8B21
(1713559580.234576) can0 400#2880000000000075
(1713559580.239692) can0 120#000000000700004F
(1713559580.239932) can0 121#000000000000005F
(1713559580.240175) can0 129#000000010000005B
(1713559580.240723) can0 551#000000000004C000
(1713559580.240963) can0 128#1388030000EC7828
(1713559580.241211) can0 12D#000000000000005F
(1713559580.241455) can0 12E#000000000000C02E
(1713559580.241697) can0 12F#F800032000000048
(1713559580.241929) can0 174#E87F005B407906E5
(1713559580.242167) can0 178#0280082D04930683
(1713559580.242407) can0 17C#F87F0100136906E1
(1713559580.242654) can0 290#0000000200000057
(1713559580.242900) can0 552#00FFFFFFFFFFFF90
(1713559580.243149) can0 5D1#9958000200000000
(1713559580.243397) can0 5D2#7444540000000000
(1713559580.243589) can0 450#0055A0001B004A00
(1713559580.244274) can0 410#2880008B9F6E8B4B
(1713559580.244590) can0 400#2880000000000094
(1713559580.248231) can0 140#0000030000000000
(1713559580.250653) can0 541#0440E800007FFF38
(1713559580.250900) can0 12D#000000000000006A
(1713559580.251142) can0 12F#F810032000000076
(1713559580.251391) can0 290#0000000200000062
(1713559580.251668) can0 174#E67F005B3D790734
(1713559580.251906) can0 178#FE7F093006930786
(1713559580.252198) can0 17C#F87F010008690764
(1713559580.254270) can0 410#2880008B9F6E8B7E
(1713559580.254672) can0 400#28800000000000A1
(1713559580.259498) can0 550#48000C0001000049
(1713559580.259783) can0 120#000000000700007A
(1713559580.260034) can0 121#000000000000006A
(1713559580.260282) can0 129#000000010000006E
(1713559580.260705) can0 551#000000000004C000
(1713559580.260940) can0 128#1388030000EC7842
(1713559580.261170) can0 12A#1428701C60580079
(1713559580.261417) can0 12D#000000000000008B
(1713559580.261663) can0 12E#000000000000C044
(1713559580.261901) can0 12F#F80002200000009B
(1713559580.262129) can0 174#EC7F005B3879086E
(1713559580.262363) can0 178#FA7F0A320F93084E
(1713559580.262601) can0 17C#FC7F010003690836
(1713559580.262853) can0 290#0000000200000083
(1713559580.263091) can0 5A0#0000006244928076
(1713559580.263357) can0 5D1#9958000200000000
(1713559580.264271) can0 410#2880008B9F6E8B9F
(1713559580.264688) can0 400#28800000000000CB
(1713559580.268757) can0 140#0000030000000000
(1713559580.270596) can0 12F#F8100320000000A2
(1713559580.270845) can0 12D#00000000000000BE
(1713559580.271091) can0 290#00000002000000B6
(1713559580.271343) can0 541#0440E800007FFF52
(1713559580.271681) can0 174#F07F005B3D7909F8
(1713559580.271912) can0 178#FA7F0B3615930960
(1713559580.272149) can0 17C#028001000569098F
(1713559580.274249) can0 410#2880008B9F6E8BAA
(1713559580.274773) can0 400#288000000000002A
(1713559580.279879) can0 120#000000000700009B
(1713559580.280119) can0 121#000000000000008B
(1713559580.280362) can0 129#000000010000008F
(1713559580.280617) can0 4EA#0000000000000000
(1713559580.280852) can0 128#1388030000EC7877
(1713559580.281103) can0 12D#00000000000000D4
(1713559580.281346) can0 12E#000000000000C071
(1713559580.281584) can0 12F#F8000320000000C3
(1713559580.281814) can0 174#EE7F005B46790AAF
(1713559580.282046) can0 178#F87F0C3017930A9C
(1713559580.282282) can0 17C#0480010011690A65
(1713559580.282531) can0 290#00000002000000DC
(1713559580.282779) can0 551#000000000004C000
(1713559580.283022) can0 5B2#0800000000000000
(1713559580.283268) can0 310#FFFFFFFF7D7D0000
(1713559580.283510) can0 5D1#9958000200000000
(1713559580.284225) can0 410#2880008B9F6E8BC0
(1713559580.284821) can0 400#2880000000000040
(1713559580.289281) can0 140#0000030000000000
(1713559580.290669) can0 541#0440E800007FFF67
(1713559580.290918) can0 12D#0000000000000035
(1713559580.291158) can0 12F#F81002200000002E
(1713559580.291407) can0 290#000000020000003D
(1713559580.291650) can0 552#00FFFFFFFFFFFFA5
(1713559580.291884) can0 174#EC7F005B53790B99
(1713559580.292114) can0 178#FC7F000017930B45
(1713559580.292348) can0 17C#0480010024690BD9
(1713559580.292588) can0 450#0055A0001B004A00
(1713559580.294198) can0 410#2880008B9F6E8B21
(1713559580.294870) can0 400#2880000000000075
(1713559580.299976) can0 120#00000000070000AE
(1713559580.300220) can0 121#00000000000000BE
(1713559580.300461) can0 129#00000001000000BA
(1713559580.300707) can0 551#000000000004C000
(1713559580.300941) can0 128#1388030000EC7896
(1713559580.301191) can0 12D#000000000000005F
(1713559580.301444) can0 12E#000000000000C090
(1713559580.301681) can0 12F#F800032000000048
(1713559580.301911) can0 174#EE7F005B59790C7F
(1713559580.302143) can0 178#0280013018930C34
(1713559580.302379) can0 17C#0880010034690C29
(1713559580.302626) can0 290#001000020000005C
(1713559580.302866) can0 5D1#9958000200000000
(1713559580.304172) can0 410#2880008B9F6E8B4B
(1713559580.304920) can0 400#2880000000000094
(1713559580.307823) can0 5D0#9958010200000000
(1713559580.308058) can0 5B1#008A9A6800000077
(1713559580.308296) can0 5CF#7444540000000000
(1713559580.309436) can0 550#48000C000100007C
(1713559580.309807) can0 140#0000030000000000
(1713559580.310656) can0 541#0440E800007FFF86
(1713559580.310885) can0 12A#1428701C60580098
(1713559580.311131) can0 12D#000000000000006A
(1713559580.311374) can0 12F#F810022000000071
(1713559580.311618) can0 290#0010000200000069
(1713559580.311847) can0 174#F47F005B53790DBC
(1713559580.312083) can0 178#0680023218930DD9
(1713559580.312319) can0 17C#0880010040690D7A
(1713559580.314146) can0 410#2880008B9F6E8B7E
(1713559580.314971) can0 400#28800000000000A1
(1713559580.315622) can0 540#0000001040009F00
(1713559580.315858) can0 5B0#6342000000000096
(1713559580.318852) can0 6B9#0020400000000000
(1713559580.319096) can0 5A2#1410140000000000
(1713559580.320069) can0 120#00000000070000C4
(1713559580.320315) can0 121#00000000000000D4
(1713559580.320557) can0 129#00000001000000D0
(1713559580.320793) can0 128#1388030000EC78A3
(1713559580.321039) can0 12D#000000000000008B
(1713559580.321283) can0 12E#000000000000C0A5
(1713559580.321532) can0 12F#F80003200000009C
(1713559580.321778) can0 290#0000000200000083
(1713559580.322008) can0 174#F87F005B43790E38
(1713559580.322238) can0 178#0A80033612930E6E
(1713559580.322476) can0 17C#0880010042690E5E
(1713559580.322722) can0 551#000000000004C000
(1713559580.322974) can0 5D1#9958000200000000
(1713559580.324121) can0 410#2880008B9F6E8B9F
(1713559580.325014) can0 400#28800000000000CB
(1713559580.330333) can0 140#0000030000000000
(1713559580.330673) can0 541#0440E800007FFFB3
(1713559580.330921) can0 12D#00000000000000BE
(1713559580.331161) can0 12F#F8100320000000A2
(1713559580.331408) can0 290#00000002000000B6
(1713559580.331698) can0 174#F87F005B37790F6B
(1713559580.331930) can0 178#0C8004350D930F8F
(1713559580.332169) can0 17C#0A80010037690F38
(1713559580.333766) can0 410#2880008B9F6E8BAA
(1713559580.335077) can0 400#288000000000002A
(1713559580.340175) can0 120#0000000007000025
(1713559580.340419) can0 121#0000000000000035
(1713559580.340663) can0 129#0000000100000031
(1713559580.340901) can0 128#1388030000EC78C9
(1713559580.341143) can0 12D#00000000000000D4
(1713559580.341386) can0 12E#000000000000C0CF
(1713559580.341626) can0 12F#F8000220000000C4
(1713559580.341867) can0 174#F47F005B35790068
(1713559580.342098) can0 178#0C8005300D93008D
(1713559580.342335) can0 17C#0A8001002D690094
(1713559580.342583) can0 290#00000002000000DC
(1713559580.342829) can0 551#000000000004C000
(1713559580.343085) can0 552#00FFFFFFFFFFFFCF
(1713559580.343365) can0 5D1#9958000200000000
(1713559580.343616) can0 5D2#7444540000000000
(1713559580.343855) can0 410#2880008B9F6E8BC0
(1713559580.344093) can0 450#0055A0001B004A00
(1713559580.345120) can0 400#2880000000000040
(1713559580.350647) can0 541#0440E800007FFFD9
(1713559580.350892) can0 12D#0000000000000035
(1713559580.351134) can0 12F#F810032000000029
(1713559580.351384) can0 140#0000030000000000
(1713559580.351632) can0 290#000000020000003D
(1713559580.351868) can0 174#F07F005B3779011F
(1713559580.352101) can0 178#068006310C930154
(1713559580.352342) can0 17C#0A80010032690117
(1713559580.353712) can0 410#2880008B9F6E8B21
(1713559580.355174) can0 400#2880000000000075
(1713559580.359522) can0 550#48000C000100009D
(1713559580.360286) can0 120#000000000700004F
(1713559580.360527) can0 121#000000000000005F
(1713559580.360763) can0 128#1388030000EC7828
(1713559580.361010) can0 129#000000010000005B
(1713559580.361240) can0 12A#1428701C605800AD
(1713559580.361493) can0 12D#000000000000005F
(1713559580.361739) can0 12E#000000000000C02E
(1713559580.362004) can0 12F#F800032000000048
(1713559580.362211) can0 174#EE7F005B3B79028A
(1713559580.362439) can0 178#FE7F07310A93026E
(1713559580.362684) can0 17C#088001003F69020F
(1713559580.362930) can0 290#0000000200000057
(1713559580.363175) can0 551#000000000004C000
(1713559580.363451) can0 5A0#0000006244928097
(1713559580.363656) can0 5D1#9958000200000000
(1713559580.363894) can0 410#2880008B9F6E8B4B
(1713559580.365236) can0 400#2880000000000094
(1713559580.370675) can0 541#0440E800007FFF38
(1713559580.370890) can0 12D#000000000000006A
(1713559580.371131) can0 12F#F810022000000071
(1713559580.371381) can0 290#0000000200000062
(1713559580.371632) can0 140#0000030000000000
(1713559580.371864) can0 174#EC7F005B3F79032B
(1713559580.372095) can0 178#F67F083109930351
(1713559580.372332) can0 17C#02800100406903B4
(1713559580.373662) can0 410#2880008B9F6E8B7E
(1713559580.375269) can0 400#28800000000000A1
(1713559580.380368) can0 120#000000000700007A
(1713559580.380616) can0 121#000000000000006A
(1713559580.380850) can0 128#1388030000EC7842
(1713559580.381098) can0 129#000000010000006E
(1713559580.381344) can0 12D#000000000000008B
(1713559580.381588) can0 12E#000000000000C044
(1713559580.381828) can0 12F#F80003200000009C
(1713559580.382063) can0 174#E87F005B3F790411
(1713559580.382302) can0 178#F27F09300993049C
(1713559580.382534) can0 17C#FE7F0100346904B2
(1713559580.382786) can0 290#0000000200000083
(1713559580.383037) can0 4EA#0000000000000000
(1713559580.383280) can0 551#000000000004C000
(1713559580.383525) can0 5B2#0800000000000000
(1713559580.383768) can0 310#FFFFFFFF7D7D0000
(1713559580.384008) can0 410#2880008B9F6E8B9F
(1713559580.384248) can0 5D1#9958000200000000
(1713559580.385311) can0 400#28800000000000CB
(1713559580.390671) can0 541#0440E800007FFF52
(1713559580.390913) can0 12D#00000000000000BE
(1713559580.391153) can0 12F#F8100220000000A5
(1713559580.391399) can0 290#00000002000000B6
(1713559580.391645) can0 552#00FFFFFFFFFFFF2E
(1713559580.391875) can0 174#E87F005B3A790585
(1713559580.392125) can0 140#0000030000000000
(1713559580.392356) can0 178#F47F0A3809930570
(1713559580.392596) can0 17C#FC7F01001F6905A5
(1713559580.392834) can0 450#0055A0001B004A00
(1713559580.393557) can0 410#2880008B9F6E8BAA
(1713559580.395399) can0 400#288000000000002A
(1713559580.400463) can0 120#000000000700009B
(1713559580.400702) can0 121#000000000000008B
(1713559580.400936) can0 128#1388030000EC7877
(1713559580.401178) can0 129#000000010000008F
(1713559580.401423) can0 12D#00000000000000D4
(1713559580.401671) can0 12E#000000000000C071
(1713559580.401911) can0 12F#F8000320000000C3
(1713559580.402143) can0 174#E87F005B2F790633
(1713559580.402383) can0 178#FC7F0000079306DC
(1713559580.402632) can0 17C#FE7F0100106906BE
(1713559580.402874) can0 290#00100002000000D7
(1713559580.403118) can0 551#000000000004C000
(1713559580.403394) can0 5D1#9958000200000000
(1713559580.403611) can0 410#2880008B9F6E8BC0
(1713559580.405413) can0 400#2880000000000040
(1713559580.407828) can0 5D0#9958010200000000
(1713559580.408062) can0 5B1#008A9A6800000096
(1713559580.408301) can0 5CF#7444540000000000
(1713559580.409433) can0 550#48000C00010000A8
(1713559580.410647) can0 541#0440E800007FFF67
(1713559580.410883) can0 12A#1428701C605800C7
(1713559580.411129) can0 12D#0000000000000035
(1713559580.411372) can0 12F#F810032000000029
(1713559580.411615) can0 290#0010000200000036
(1713559580.411851) can0 174#E87F005B1F790706
(1713559580.412088) can0 178#008001300A93075A
(1713559580.412330) can0 17C#0280010013690734
(1713559580.412580) can0 140#0000030000000000
(1713559580.413505) can0 410#2880008B9F6E8B21
(1713559580.415467) can0 400#2880000000000075
(1713559580.416090) can0 540#0000001040009F00
(1713559580.416332) can0 5B0#63420000000000A3
(1713559580.419033) can0 6B9#0020400000000000
(1713559580.419276) can0 5A2#1410140000000000
(1713559580.420556) can0 120#00000000070000AE
(1713559580.420801) can0 121#00000000000000BE
(1713559580.421034) can0 128#1388030000EC7896
(1713559580.421276) can0 129#00000001000000BA
(1713559580.421527) can0 12D#000000000000005F
(1713559580.421773) can0 12E#000000000000C090
(1713559580.422017) can0 12F#F80002200000004F
(1713559580.422249) can0 174#E87F005B1F7908BD
(1713559580.422487) can0 178#00800000129308F0
(1713559580.422731) can0 17C#06800100276908C8
(1713559580.422972) can0 290#001000020000005C
(1713559580.423225) can0 551#000000000004C000
(1713559580.423472) can0 5D1#9958000200000000
(1713559580.423708) can0 410#2880008B9F6E8B4B
(1713559580.425505) can0 400#2880000000000094
(1713559580.430651) can0 541#0440E800007FFF86
(1713559580.430895) can0 12D#000000000000006A
(1713559580.431139) can0 12F#F810032000000076
(1713559580.431383) can0 290#0010000200000069
(1713559580.431731) can0 174#E87F005B2C790904
(1713559580.431963) can0 178#0680015318930950
(1713559580.432199) can0 17C#068001003A690948
(1713559580.432956) can0 140#0000030000000000
(1713559580.433460) can0 410#2880008B9F6E8B7E
(1713559580.435569) can0 400#28800000000000A1
(1713559580.440594) can0 12F#F80003200000009C
(1713559580.440836) can0 120#00000000070000C4
(1713559580.441082) can0 121#00000000000000D4
(1713559580.441316) can0 128#1388030000EC78A3
(1713559580.441558) can0 129#00000001000000D0
(1713559580.441804) can0 12D#000000000000008B
(1713559580.442048) can0 12E#000000000000C0A5
(1713559580.442276) can0 174#E87F005B34790A37
(1713559580.442508) can0 178#0A8002431C930A51
(1713559580.442748) can0 17C#0080010038690ABF
(1713559580.443001) can0 290#0000000200000083
(1713559580.443248) can0 551#000000000004C000
(1713559580.443487) can0 410#2880008B9F6E8B9F
(1713559580.443731) can0 552#00FFFFFFFFFFFF44
(1713559580.443978) can0 5D1#9958000200000000
(1713559580.444221) can0 5D2#7444540000000000
(1713559580.444465) can0 450#0055A0001B004A00
(1713559580.445604) can0 400#28800000000000CB
(1713559580.450701) can0 541#0440E800007FFFB3
(1713559580.450947) can0 12D#00000000000000BE
(1713559580.451188) can0 12F#F8100220000000A5
(1713559580.451435) can0 290#00000002000000B6
(1713559580.451750) can0 174#EA7F005B37790B1C
(1713559580.451984) can0 178#088003321C930BFA
(1713559580.452222) can0 17C#FC7F01002A690BA2
(1713559580.453421) can0 410#2880008B9F6E8BAA
(1713559580.453671) can0 140#0000030000000000
(1713559580.455661) can0 400#288000000000002A
(1713559580.459483) can0 550#48000C00010000C2
(1713559580.460614) can0 12F#F8000320000000C3
(1713559580.460861) can0 120#0000000007000025
(1713559580.461108) can0 121#0000000000000035
(1713559580.461345) can0 128#1388030000EC78C9
(1713559580.461589) can0 129#0000000100000031
(1713559580.461826) can0 12A#1428701C60580026
(1713559580.462068) can0 12D#00000000000000D4
(1713559580.462311) can0 12E#000000000000C0CF
(1713559580.462541) can0 174#EE7F005B3A790CA3
(1713559580.462778) can0 178#0680043017930C04
(1713559580.463014) can0 17C#F67F010022690C95
(1713559580.463262) can0 290#00000002000000DC
(1713559580.463504) can0 410#2880008B9F6E8BC0
(1713559580.463756) can0 551#000000000004C000
(1713559580.463989) can0 5A0#00000062449280A2
(1713559580.464227) can0 5D1#9958000200000000
(1713559580.465693) can0 400#2880000000000040
(1713559580.470637) can0 541#0440E800007FFFD9
(1713559580.470883) can0 12D#0000000000000035
(1713559580.471125) can0 12F#F81002200000002E
(1713559580.471374) can0 290#000000020000003D
(1713559580.471754) can0 174#F27F005B3A790DBC
(1713559580.471985) can0 178#068005300D930D64
(1713559580.472221) can0 17C#F47F010026690D34
(1713559580.473369) can0 410#2880008B9F6E8B21
(1713559580.474010) can0 140#0000030000000000
(1713559580.475750) can0 400#2880000000000075
(1713559580.480183) can0 4EA#0000000000000000
(1713559580.480424) can0 5B2#0800000000000000
(1713559580.480674) can0 12D#000000000000005F
(1713559580.480920) can0 120#000000000700004F
(1713559580.481168) can0 121#000000000000005F
(1713559580.481406) can0 128#1388030000EC7828
(1713559580.481651) can0 129#000000010000005B
(1713559580.481894) can0 12E#000000000000C02E
(1713559580.482137) can0 12F#F800032000000048
(1713559580.482371) can0 174#F07F005B38790E22
(1713559580.482609) can0 178#0080063207930E06
(1713559580.482841) can0 17C#F67F010027690E26
(1713559580.483087) can0 290#0000000200000057
(1713559580.483347) can0 310#FFFFFFFF7D7D0000
(1713559580.483572) can0 410#2880008B9F6E8B4B
(1713559580.483818) can0 551#000000000004C000
(1713559580.484069) can0 5D1#9958000200000000
(1713559580.485789) can0 400#2880000000000094
(1713559580.490662) can0 541#0440E800007FFF38
(1713559580.490908) can0 12D#000000000000006A
(1713559580.491152) can0 12F#F810032000000076
(1713559580.491401) can0 290#0000000200000062
(1713559580.491644) can0 552#00FFFFFFFFFFFF71
(1713559580.491874) can0 174#EE7F005B3B790F0B
(1713559580.492106) can0 178#F47F073706930FE4
(1713559580.492344) can0 17C#FE7F010026690F66
(1713559580.492583) can0 450#0055A0001B004A00
(1713559580.493319) can0 410#2880008B9F6E8B7E
(1713559580.494539) can0 140#0000030000000000
(1713559580.495797) can0 400#28800000000000A1
(1713559580.500644) can0 12F#F80002200000009B
(1713559580.500873) can0 128#1388030000EC7842
(1713559580.501121) can0 120#000000000700007A
(1713559580.501373) can0 121#000000000000006A
(1713559580.501622) can0 129#000000010000006E
(1713559580.501868) can0 12D#000000000000008B
(1713559580.502112) can0 12E#000000000000C044
(1713559580.502342) can0 174#EA7F005B45790098
(1713559580.502576) can0 178#EE7F085F09930036
(1713559580.502819) can0 17C#0680010027690020
(1713559580.503071) can0 290#0000000200000083
(1713559580.503316) can0 551#000000000004C000
(1713559580.503559) can0 410#2880008B9F6E8B9F
(1713559580.503796) can0 5D1#9958000200000000
(1713559580.505898) can0 400#28800000000000CB
(1713559580.507888) can0 5D0#9958010200000000
(1713559580.508116) can0 5B1#008A9A68000000A3
(1713559580.508354) can0 5CF#7444540000000000
(1713559580.509480) can0 550#48000C0001000023
(1713559580.510749) can0 12F#F8100320000000A2
(1713559580.510980) can0 12A#1428701C6058004C
(1713559580.511228) can0 12D#00000000000000BE
(1713559580.511475) can0 290#00000002000000B6
(1713559580.511768) can0 174#E67F005B487901BB
(1713559580.512000) can0 178#F07F09301193015B
(1713559580.512239) can0 17C#088001002A6901B9
(1713559580.513197) can0 541#0440E800007FFF52
(1713559580.513433) can0 410#2880008B9F6E8BAA
(1713559580.515066) can0 140#0000030000000000
(1713559580.515897) can0 400#288000000000002A
(1713559580.516488) can0 540#0000001040009F00
(1713559580.516728) can0 5B0#63420000000000C9
(1713559580.519205) can0 6B9#0020400000000000
(1713559580.519451) can0 5A2#1410140000000000
(1713559580.520642) can0 12F#F8000320000000C3
(1713559580.520876) can0 128#1388030000EC7877
(1713559580.521122) can0 120#000000000700009B
(1713559580.521366) can0 121#000000000000008B
(1713559580.521609) can0 129#000000010000008F
(1713559580.521853) can0 12D#00000000000000D4
(1713559580.522101) can0 12E#000000000000C071
(1713559580.522337) can0 174#E87F005B3F79025F
(1713559580.522569) can0 178#F47F0A371793025A
(1713559580.522807) can0 17C#0680010029690213
(1713559580.523058) can0 290#00000002000000DC
(1713559580.523301) can0 551#000000000004C000
(1713559580.523545) can0 410#2880008B9F6E8BC0
(1713559580.523782) can0 5D1#9958000200000000
(1713559580.525984) can0 400#2880000000000040
(1713559580.530647) can0 541#0440E800007FFF67
(1713559580.530892) can0 12D#0000000000000035
(1713559580.531134) can0 12F#F81002200000002E
(1713559580.531383) can0 290#000000020000003D
(1713559580.531775) can0 174#EC7F005B35790324
(1713559580.532007) can0 178#F87F0B3112930376
(1713559580.532249) can0 17C#FE7F0100246903F9
(1713559580.533197) can0 410#2880008B9F6E8B21
(1713559580.535594) can0 140#0000030000000000
(1713559580.535989) can0 400#2880000000000075
(1713559580.540638) can0 12F#F800032000000048
(1713559580.540870) can0 128#1388030000EC7896
(1713559580.541118) can0 12D#000000000000005F
(1713559580.541364) can0 120#00000000070000AE
(1713559580.541610) can0 121#00000000000000BE
(1713559580.541852) can0 129#00000001000000BA
(1713559580.542098) can0 12E#000000000000C090
(1713559580.542332) can0 174#F07F005B347904FA
(1713559580.542570) can0 178#F67F00000793048E
(1713559580.542810) can0 17C#FA7F01002169044A
(1713559580.543056) can0 290#0000000200000057
(1713559580.543302) can0 551#000000000004C000
(1713559580.543543) can0 410#2880008B9F6E8B4B
(1713559580.543787) can0 552#00FFFFFFFFFFFF90
(1713559580.544035) can0 55A#0017160000000000
(1713559580.544281) can0 5D1#9958000200000000
(1713559580.544525) can0 5D2#7444540000000000
(1713559580.544771) can0 450#0055A0001B004A00
(1713559580.546090) can0 400#2880000000000094
(1713559580.550690) can0 541#0440E800007FFF86
(1713559580.550931) can0 12D#000000000000006A
(1713559580.551173) can0 12F#F810022000000071
(1713559580.551423) can0 290#0000000200000062
(1713559580.551793) can0 174#F07F005B3779056B
(1713559580.552014) can0 178#F27F013704930587
(1713559580.552256) can0 17C#008001002169059F
(1713559580.553200) can0 410#2880008B9F6E8B7E
(1713559580.556088) can0 400#28800000000000A1
(1713559580.556337) can0 140#0000030000000000
(1713559580.559486) can0 550#48000C0001000049
(1713559580.560607) can0 12F#F80003200000009C
(1713559580.560842) can0 128#1388030000EC78A3
(1713559580.561074) can0 12A#1428701C60580079
(1713559580.561323) can0 120#00000000070000C4
(1713559580.561565) can0 121#00000000000000D4
(1713559580.561807) can0 129#00000001000000D0
(1713559580.562053) can0 12D#000000000000008B
(1713559580.562297) can0 12E#000000000000C0A5
(1713559580.562531) can0 174#EC7F005B3D790641
(1713559580.562763) can0 178#EE7F022E0C930634
(1713559580.563001) can0 17C#088001002169066A
(1713559580.563253) can0 290#0000000200000083
(1713559580.563496) can0 410#2880008B9F6E8B9F
(1713559580.563740) can0 551#000000000004C000
(1713559580.563976) can0 5A0#00000062449280C8
(1713559580.564217) can0 5D1#9958000200000000
(1713559580.566177) can0 400#28800000000000CB
(1713559580.570633) can0 541#0440E800007FFFB3
(1713559580.570880) can0 12D#00000000000000BE
(1713559580.571121) can0 12F#F8100320000000A2
(1713559580.571367) can0 290#00000002000000B6
(1713559580.571781) can0 174#E87F005B427907FB
(1713559580.572013) can0 178#EC7F03311593072F
(1713559580.572253) can0 17C#0C80010024690797
(1713559580.573197) can0 410#2880008B9F6E8BAA
(1713559580.576186) can0 400#288000000000002A
(1713559580.576646) can0 140#0000030000000000
(1713559580.579979) can0 4EA#0000000000000000
(1713559580.580221) can0 5B2#0800000000000000
(1713559580.580466) can0 310#FFFFFFFF7D7D0000
(1713559580.580702) can0 128#1388030000EC78C9
(1713559580.580946) can0 12D#00000000000000D4
(1713559580.581190) can0 12E#000000000000C0CF
(1713559580.581438) can0 120#0000000007000025
(1713559580.581687) can0 121#0000000000000035
(1713559580.581932) can0 129#0000000100000031
(1713559580.582170) can0 12F#F8000220000000C4
(1713559580.582402) can0 174#EA7F005B45790870
(1713559580.582635) can0 178#F07F043017930803
(1713559580.582873) can0 17C#088001002C690849
(1713559580.583119) can0 290#00000002000000DC
(1713559580.583394) can0 410#2880008B9F6E8BC0
(1713559580.583618) can0 551#000000000004C000
(1713559580.583864) can0 5D1#9958000200000000
(1713559580.586291) can0 400#2880000000000040
(1713559580.590657) can0 541#0440E800007FFFD9
(1713559580.590902) can0 12D#0000000000000035
(1713559580.591144) can0 12F#F810032000000029
(1713559580.591393) can0 290#000000020000003D
(1713559580.591636) can0 552#00FFFFFFFFFFFFA5
(1713559580.591866) can0 174#F27F005B4A790980
(1713559580.592103) can0 178#F67F00000C93098F
(1713559580.592340) can0 17C#008001003B690914
(1713559580.592578) can0 450#0055A0001B004A00
(1713559580.593250) can0 410#2880008B9F6E8B21
(1713559580.596275) can0 400#2880000000000075
(1713559580.597174) can0 140#0000030000000000
(1713559580.600640) can0 12F#F800032000000048
(1713559580.600873) can0 128#1388030000EC7828
(1713559580.601123) can0 12D#000000000000005F
(1713559580.601367) can0 12E#000000000000C02E
(1713559580.601613) can0 120#000000000700004F
(1713559580.601861) can0 121#000000000000005F
(1713559580.602106) can0 129#000000010000005B
(1713559580.602335) can0 174#FA7F005B53790AEE
(1713559580.602568) can0 178#F67F01380C930A31
(1713559580.602804) can0 17C#FC7F01004D690A65
(1713559580.603052) can0 290#0000000200000057
(1713559580.603296) can0 551#000000000004C000
(1713559580.603535) can0 410#2880008B9F6E8B4B
(1713559580.603774) can0 5D1#9958000200000000
(1713559580.606381) can0 400#2880000000000094
(1713559580.607914) can0 5D0#9958010200000000
(1713559580.608146) can0 5B1#008A9A68000000C9
(1713559580.608383) can0 5CF#7444540000000000
(1713559580.609481) can0 550#48000C000100007C
(1713559580.610642) can0 541#0440E800007FFF38
(1713559580.610875) can0 12A#1428701C60580098
(1713559580.611121) can0 12D#000000000000006A
(1713559580.611364) can0 12F#F810022000000071
(1713559580.611612) can0 290#0000000200000062
(1713559580.611841) can0 174#FE7F005B51790B99
(1713559580.612070) can0 178#F27F02321C930B58
(1713559580.612305) can0 17C#FA7F01004A690B21
(1713559580.613200) can0 410#2880008B9F6E8B7E
(1713559580.616371) can0 400#28800000000000A1
(1713559580.616969) can0 540#0000001040009F00
(1713559580.617210) can0 5B0#6342000000000028
(1713559580.617698) can0 140#0000030000000000
(1713559580.619417) can0 6B9#0020400000000000
(1713559580.619658) can0 5A2#1410140000000000
(1713559580.620639) can0 12F#F80003200000009C
(1713559580.620873) can0 128#1388030000EC7842
(1713559580.621119) can0 12D#000000000000008B
(1713559580.621364) can0 12E#000000000000C044
(1713559580.621612) can0 120#000000000700007A
(1713559580.621864) can0 121#000000000000006A
(1713559580.622112) can0 129#000000010000006E
(1713559580.622342) can0 174#FC7F005B32790CAC
(1713559580.622573) can0 178#F47F033228930C9C
(1713559580.622806) can0 17C#FA7F010031690CBA
(1713559580.623059) can0 290#0000000200000083
(1713559580.623305) can0 551#000000000004C000
(1713559580.623548) can0 410#2880008B9F6E8B9F
(1713559580.623785) can0 5D1#9958000200000000
(1713559580.626478) can0 400#28800000000000CB
(1713559580.630642) can0 541#0440E800007FFF52
(1713559580.630889) can0 12D#00000000000000BE
(1713559580.631129) can0 12F#F8100220000000A5
(1713559580.631377) can0 290#00000002000000B6
(1713559580.631796) can0 174#F47F005B19790DD3
(1713559580.632028) can0 178#FC7F043525930D29
(1713559580.632266) can0 17C#FA7F010014690D1E
(1713559580.633196) can0 410#2880008B9F6E8BAA
(1713559580.636472) can0 400#288000000000002A
(1713559580.638275) can0 140#0000030000000000
(1713559580.640681) can0 12F#F8000320000000C3
(1713559580.640911) can0 128#1388030000EC7877
(1713559580.641150) can0 12D#00000000000000D4
(1713559580.641399) can0 12E#000000000000C071
(1713559580.641647) can0 290#00000002000000DC
(1713559580.641908) can0 120#000000000700009B
(1713559580.642137) can0 121#000000000000008B
(1713559580.642380) can0 129#000000010000008F
(1713559580.642623) can0 174#EC7F005B30790E2C
(1713559580.642854) can0 178#0680000017930EE4
(1713559580.643092) can0 17C#FA7F0100FE680EEA
(1713559580.643354) can0 410#2880008B9F6E8BC0
(1713559580.643580) can0 551#000000000004C000
(1713559580.643834) can0 552#00FFFFFFFFFFFFCF
(1713559580.644080) can0 5D1#9958000200000000
(1713559580.644326) can0 5D2#7444540000000000
(1713559580.644592) can0 450#0055A0001B004A00
(1713559580.646579) can0 400#2880000000000040
(1713559580.650635) can0 541#0440E800007FFF67
(1713559580.650876) can0 12F#F810032000000029
(1713559580.651122) can0 12D#0000000000000035
(1713559580.651371) can0 290#000000020000003D
(1713559580.651805) can0 174#EA7F005B66790F9F
(1713559580.652043) can0 178#1280013204930F9F
(1713559580.652283) can0 17C#FC7F0100F8680F21
(1713559580.653165) can0 410#2880008B9F6E8B21
(1713559580.656567) can0 400#2880000000000075
(1713559580.658797) can0 140#0000030000000000
(1713559580.659489) can0 550#48000C000100009D
(1713559580.660686) can0 551#000000000004C000
(1713559580.660920) can0 128#1388030000EC7896
(1713559580.661156) can0 12A#1428701C605800AD
(1713559580.661404) can0 12D#000000000000005F
(1713559580.661650) can0 12E#000000000000C090
(1713559580.661896) can0 120#00000000070000AE
(1713559580.662142) can0 121#00000000000000BE
(1713559580.662384) can0 129#00000001000000BA
(1713559580.662628) can0 12F#F80002200000004F
(1713559580.662862) can0 174#F47F005B79790002
(1713559580.663099) can0 178#14800230F1920023
(1713559580.663349) can0 17C#02800100FD6800B2
(1713559580.663589) can0 290#0000000200000057
(1713559580.663825) can0 410#2880008B9F6E8B4B
(1713559580.664064) can0 5A0#0000006244928029
(1713559580.664304) can0 5D1#9958000200000000
(1713559580.666675) can0 400#2880000000000094
(1713559580.670634) can0 541#0440E800007FFF86
(1713559580.670877) can0 12F#F810032000000076
(1713559580.671122) can0 12D#000000000000006A
(1713559580.671371) can0 290#0000000200000062
(1713559580.671814) can0 174#0280005B4A7901C8
(1713559580.672046) can0 178#06800332E592016E
(1713559580.672286) can0 17C#0C8001000C6901E5
(1713559580.673115) can0 410#2880008B9F6E8B7E
(1713559580.676662) can0 400#28800000000000A1
(1713559580.679345) can0 140#0000030000000000
(1713559580.679773) can0 4EA#0000000000000000
(1713559580.680016) can0 5B2#0800000000000000
(1713559580.680262) can0 310#FFFFFFFF7D7D0000
(1713559580.680684) can0 551#000000000004C000
(1713559580.680920) can0 128#1388030000EC78A3
(1713559580.681166) can0 12D#000000000000008B
(1713559580.681410) can0 12E#000000000000C0A5
(1713559580.681653) can0 12F#F80003200000009C
(1713559580.681896) can0 120#00000000070000C4
(1713559580.682140) can0 121#00000000000000D4
(1713559580.682382) can0 129#00000001000000D0
(1713559580.682620) can0 174#0280005B0379020C
(1713559580.682850) can0 178#F67F0433DE9202D7
(1713559580.683091) can0 17C#1080010029690279
(1713559580.683349) can0 290#0000000200000083
(1713559580.683584) can0 410#2880008B9F6E8B9F
(1713559580.683823) can0 5D1#9958000200000000
(1713559580.686773) can0 400#28800000000000CB
(1713559580.690651) can0 541#0440E800007FFFB3
(1713559580.690898) can0 12D#00000000000000BE
(1713559580.691138) can0 12F#F8100220000000A5
(1713559580.691385) can0 290#00000002000000B6
(1713559580.691630) can0 552#00FFFFFFFFFFFF2E
(1713559580.691865) can0 174#F27F005BE5780368
(1713559580.692094) can0 178#EE7F0531E29203CE
(1713559580.692332) can0 17C#0A80010042690365
(1713559580.692571) can0 450#0055A0001B004A00
(1713559580.693071) can0 410#2880008B9F6E8BAA
(1713559580.696762) can0 400#288000000000002A
(1713559580.699848) can0 140#0000030000000000
(1713559580.700683) can0 551#000000000004C000
(1713559580.700919) can0 128#1388030000EC78C9
(1713559580.701164) can0 12D#00000000000000D4
(1713559580.701408) can0 12E#000000000000C0CF
(1713559580.701648) can0 12F#F8000320000000C3
(1713559580.701896) can0 290#00000002000000DC
(1713559580.702145) can0 120#0000000007000025
(1713559580.702392) can0 121#0000000000000035
(1713559580.702637) can0 129#0000000100000031
(1713559580.702873) can0 174#E27F005B0579045E
(1713559580.703101) can0 178#F47F0630F6920471
(1713559580.703363) can0 17C#FE7F01004E6904F5
(1713559580.703579) can0 410#2880008B9F6E8BC0
(1713559580.703817) can0 5D1#9958000200000000
(1713559580.706874) can0 400#2880000000000040
(1713559580.707930) can0 5D0#9958010200000000
(1713559580.708164) can0 5B1#008A9A6800000028
(1713559580.708402) can0 5CF#7444540000000000
(1713559580.709483) can0 550#48000C00010000A8
(1713559580.710680) can0 541#0440E800007FFFD9
(1713559580.710875) can0 12F#F81002200000002E
(1713559580.711111) can0 12A#1428701C605800C7
(1713559580.711358) can0 12D#0000000000000035
(1713559580.711605) can0 290#000000020000003D
(1713559580.711841) can0 174#DE7F005B38790583
(1713559580.712076) can0 178#048007311593056B
(1713559580.712316) can0 17C#F87F01005069052A
(1713559580.712700) can0 410#2880008B9F6E8B21
(1713559580.716857) can0 400#2880000000000075
(1713559580.717451) can0 540#0000001040009F00
(1713559580.717692) can0 5B0#6342000000000042
(1713559580.719600) can0 6B9#0020400000000000
(1713559580.719842) can0 5A2#1410140000000000
(1713559580.720382) can0 140#0000030000000000
(1713559580.720697) can0 551#000000000004C000
(1713559580.720931) can0 128#1388030000EC7828
(1713559580.721181) can0 12D#000000000000005F
(1713559580.721425) can0 12E#000000000000C02E
(1713559580.721667) can0 12F#F800032000000048
(1713559580.721899) can0 174#E67F005B4B790664
(1713559580.722145) can0 120#000000000700004F
(1713559580.722396) can0 121#000000000000005F
(1713559580.722637) can0 129#000000010000005B
(1713559580.722876) can0 178#128008382D93067F
(1713559580.723113) can0 17C#FA7F01004A6906A0
(1713559580.723386) can0 290#0000000200000057
(1713559580.723599) can0 410#2880008B9F6E8B4B
(1713559580.723838) can0 5D1#9958000200000000
(1713559580.726967) can0 400#2880000000000094
(1713559580.730688) can0 541#0440E800007FFF38
(1713559580.730880) can0 12F#F810022000000071
(1713559580.731127) can0 12D#000000000000006A
(1713559580.731376) can0 290#0000000200000062
(1713559580.731833) can0 174#EC7F005B35790750
(1713559580.732073) can0 178#1C8000003093077A
(1713559580.732315) can0 17C#02800100406907C0
(1713559580.732649) can0 410#2880008B9F6E8B7E
(1713559580.736954) can0 400#28800000000000A1
(1713559580.740684) can0 12F#F80003200000009C
(1713559580.740915) can0 128#1388030000EC7842
(1713559580.741162) can0 12D#000000000000008B
(1713559580.741406) can0 12E#000000000000C044
(1713559580.741656) can0 140#0000030000000000
(1713559580.741908) can0 290#0000000200000083
(1713559580.742138) can0 174#E67F005B1C790830
(1713559580.742386) can0 120#000000000700007A
(1713559580.742638) can0 121#000000000000006A
(1713559580.742887) can0 129#000000010000006E
(1713559580.743123) can0 178#1E800000239308EF
(1713559580.743385) can0 17C#088001003D6908DE
(1713559580.743602) can0 410#2880008B9F6E8B9F
(1713559580.743848) can0 551#000000000004C000
(1713559580.744101) can0 552#00FFFFFFFFFFFF44
(1713559580.744350) can0 5D1#9958000200000000
(1713559580.744591) can0 5D2#7444540000000000
(1713559580.744835) can0 450#0055A0001B004A00
(1713559580.747063) can0 400#28800000000000CB
(1713559580.750680) can0 541#0440E800007FFF52
(1713559580.750902) can0 12F#F8100220000000A5
(1713559580.751118) can0 12D#00000000000000BE
(1713559580.751365) can0 290#00000002000000B6
(1713559580.751834) can0 174#DC7F005B1A790996
(1713559580.752064) can0 178#1A8001521593094A
(1713559580.752302) can0 17C#068001003D6909C2
(1713559580.752592) can0 410#2880008B9F6E8BAA
(1713559580.757052) can0 400#288000000000002A
(1713559580.759486) can0 550#48000C00010000C2
(1713559580.760647) can0 12F#F8000320000000C3
(1713559580.760878) can0 128#1388030000EC7877
(1713559580.761115) can0 12A#1428701C60580026
(1713559580.761356) can0 12D#00000000000000D4
(1713559580.761604) can0 12E#000000000000C071
(1713559580.761855) can0 140#0000030000000000
(1713559580.762086) can0 174#D67F005B2D790A7B
(1713559580.762331) can0 120#000000000700009B
(1713559580.762575) can0 121#000000000000008B
(1713559580.762818) can0 129#000000010000008F
(1713559580.763048) can0 178#1480026F0C930A69
(1713559580.763286) can0 17C#FE7F010035690A9B
(1713559580.763534) can0 290#00100002000000D7
(1713559580.763773) can0 410#2880008B9F6E8BC0
(1713559580.764019) can0 551#000000000004C000
(1713559580.764256) can0 5A0#0000006244928043
(1713559580.764497) can0 5D1#9958000200000000
(1713559580.767162) can0 400#2880000000000040
(1713559580.770681) can0 541#0440E800007FFF67
(1713559580.770917) can0 12F#F81002200000002E
(1713559580.771115) can0 12D#0000000000000035
(1713559580.771360) can0 290#0010000200000036
(1713559580.771845) can0 174#D67F005B3F790B7D
(1713559580.772079) can0 178#0E8003620D930B0F
(1713559580.772319) can0 17C#F87F010024690BC2
(1713559580.772555) can0 410#2880008B9F6E8B21
(1713559580.777147) can0 400#2880000000000075
(1713559580.779575) can0 4EA#0000000000000000
(1713559580.779817) can0 5B2#0800000000000000
(1713559580.780075) can0 310#FFFFFFFF7D7D0000
(1713559580.780683) can0 551#000000000004C000
(1713559580.780915) can0 128#1388030000EC7896
(1713559580.781164) can0 12D#000000000000005F
(1713559580.781411) can0 12E#000000000000C090
(1713559580.781657) can0 12F#F810032000000043
(1713559580.781900) can0 290#0000000200000057
(1713559580.782150) can0 140#0000030000000000
(1713559580.782396) can0 120#00000000070000AE
(1713559580.782643) can0 121#00000000000000BE
(1713559580.782886) can0 129#00000001000000BA
(1713559580.783113) can0 174#DA7F005B3D790C96
(1713559580.783348) can0 178#0E80046517930CB4
(1713559580.783585) can0 17C#FC7F01000C690CC4
(1713559580.783821) can0 410#2880008B9F6E8B4B
(1713559580.784061) can0 5D1#9958000200000000
(1713559580.787258) can0 400#2880000000000094
(1713559580.790698) can0 541#0440E800007FFF86
(1713559580.790941) can0 12D#000000000000006A
(1713559580.791136) can0 12F#F80002200000007A
(1713559580.791386) can0 290#0000000200000062
(1713559580.791630) can0 552#00FFFFFFFFFFFF71
(1713559580.791865) can0 174#DC7F005B30790DDD
(1713559580.792097) can0 178#128005721F930D1C
(1713559580.792339) can0 17C#0480010001690D2E
(1713559580.792579) can0 410#2880008B9F6E8B7E
(1713559580.792817) can0 450#0055A0001B004A00
(1713559580.797245) can0 400#28800000000000A1
(1713559580.800772) can0 12F#F810032000000097
(1713559580.801006) can0 128#1388030000EC78A3
(1713559580.801252) can0 12D#000000000000008B
(1713559580.801496) can0 12E#000000000000C0A5
(1713559580.801749) can0 290#0000000200000083
(1713559580.801982) can0 174#E07F005B34790E91
(1713559580.802218) can0 178#148006741F930E3F
(1713559580.802465) can0 120#00000000070000C4
(1713559580.802709) can0 121#00000000000000D4
(1713559580.802953) can0 129#00000001000000D0
(1713559580.803201) can0 140#0000030000000000
(1713559580.803440) can0 17C#0A8001000C690E8D
(1713559580.803677) can0 410#2880008B9F6E8B9F
(1713559580.803924) can0 551#000000000004C000
(1713559580.804173) can0 5D1#9958000200000000
(1713559580.807386) can0 400#28800000000000CB
(1713559580.807924) can0 5D0#9958010200000000
(1713559580.808157) can0 5B1#008A9A6800000042
(1713559580.808396) can0 5CF#7444540000000000
(1713559580.809484) can0 550#48000C0001000023
(1713559580.810688) can0 541#0440E800007FFFB3
(1713559580.810918) can0 12F#F8100220000000A5
(1713559580.811149) can0 12A#1428701C6058004C
(1713559580.811355) can0 12D#00000000000000BE
(1713559580.811595) can0 290#00000002000000B6
(1713559580.811857) can0 174#E67F005B4B790F91
(1713559580.812092) can0 178#0E80072018930FEC
(1713559580.812335) can0 17C#0E8001001C690FE1
(1713559580.812571) can0 410#2880008B9F6E8BAA
(1713559580.817344) can0 400#288000000000002A
(1713559580.817968) can0 540#0000001040009F00
(1713559580.818207) can0 5B0#6342000000000077
(1713559580.819771) can0 6B9#0020400000000000
(1713559580.820016) can0 5A2#1410140000000000
(1713559580.820676) can0 551#000000000004C000
(1713559580.820910) can0 128#1388030000EC78C9
(1713559580.821154) can0 12D#00000000000000D4
(1713559580.821398) can0 12E#000000000000C0CF
(1713559580.821638) can0 12F#F8000320000000C3
(1713559580.821886) can0 290#00000002000000DC
(1713559580.822116) can0 174#EC7F005B69790071
(1713559580.822352) can0 178#00800842129300DC
(1713559580.822598) can0 120#0000000007000025
(1713559580.822847) can0 121#0000000000000035
(1713559580.823091) can0 129#0000000100000031
(1713559580.823352) can0 140#0000030000000000
(1713559580.823585) can0 17C#0A8001001F6900BF
(1713559580.823823) can0 410#2880008B9F6E8BC0
(1713559580.824063) can0 5D1#9958000200000000
(1713559580.827456) can0 400#2880000000000040
(1713559580.830682) can0 541#0440E800007FFFD9
(1713559580.830922) can0 12F#F81002200000002E
(1713559580.831168) can0 12D#0000000000000035
(1713559580.831369) can0 290#000000020000003D
(1713559580.831866) can0 174#F07F005B727901F6
(1713559580.832096) can0 178#F27F096F11930138
(1713559580.832338) can0 17C#028001001E6901FF
(1713559580.832575) can0 410#2880008B9F6E8B21
(1713559580.837438) can0 400#2880000000000075
(1713559580.840689) can0 12F#F810032000000043
(1713559580.840925) can0 128#1388030000EC7828
(1713559580.841175) can0 12D#000000000000005F
(1713559580.841420) can0 12E#000000000000C02E
(1713559580.841665) can0 290#001000020000005C
(1713559580.841911) can0 551#000000000004C000
(1713559580.842143) can0 174#F47F005B667902A6
(1713559580.842371) can0 178#EC7F0A73179302EB
(1713559580.842612) can0 17C#FE7F01001B69024A
(1713559580.842858) can0 120#000000000700004F
(1713559580.843106) can0 121#000000000000005F
(1713559580.843369) can0 129#000000010000005B
(1713559580.843602) can0 140#0000030000000000
(1713559580.843839) can0 410#2880008B9F6E8B4B
(1713559580.844087) can0 552#00FFFFFFFFFFFF90
(1713559580.844333) can0 5D1#9958000200000000
(1713559580.844584) can0 5D2#7444540000000000
(1713559580.844829) can0 450#0055A0001B004A00
(1713559580.847550) can0 400#2880000000000094
(1713559580.850677) can0 541#0440E800007FFF38
(1713559580.850917) can0 12F#F810022000000071
(1713559580.851163) can0 12D#000000000000006A
(1713559580.851388) can0 290#0010000200000069
(1713559580.851874) can0 174#F87F005B58790321
(1713559580.852102) can0 178#EC7F0B6323930397
(1713559580.852342) can0 17C#0480010022690334
(1713559580.852582) can0 410#2880008B9F6E8B7E
(1713559580.857539) can0 400#28800000000000A1
(1713559580.859487) can0 550#48000C0001000049
(1713559580.860680) can0 551#000000000004C000
(1713559580.860915) can0 128#1388030000EC7842
(1713559580.861144) can0 12A#1428701C60580079
(1713559580.861391) can0 12D#000000000000008B
(1713559580.861635) can0 12E#000000000000C044
(1713559580.861875) can0 12F#F80003200000009C
(1713559580.862113) can0 174#FC7F005B50790417
(1713559580.862345) can0 178#EC7F0C683293047E
(1713559580.862584) can0 17C#0E8001003769049E
(1713559580.862832) can0 120#000000000700007A
(1713559580.863084) can0 121#000000000000006A
(1713559580.863346) can0 129#000000010000006E
(1713559580.863586) can0 290#0000000200000083
(1713559580.863824) can0 410#2880008B9F6E8B9F
(1713559580.864074) can0 140#0000030000000000
(1713559580.864313) can0 5A0#0000006244928076
(1713559580.864553) can0 5D1#9958000200000000
(1713559580.867649) can0 400#28800000000000CB
(1713559580.870671) can0 541#0440E800007FFF52
(1713559580.870909) can0 12F#F8100220000000A5
(1713559580.871158) can0 12D#00000000000000BE
(1713559580.871405) can0 290#00000002000000B6
(1713559580.871898) can0 174#FE7F005B507905B0
(1713559580.872129) can0 178#E87F0D2040930523
(1713559580.872365) can0 17C#1080010043690575
(1713559580.872601) can0 410#2880008B9F6E8BAA
(1713559580.877635) can0 400#288000000000002A
(1713559580.879345) can0 4EA#0000000000000000
(1713559580.879569) can0 5B2#0800000000000000
(1713559580.879812) can0 310#FFFFFFFF7D7D0000
(1713559580.880678) can0 551#000000000004C000
(1713559580.880910) can0 128#1388030000EC7877
(1713559580.881154) can0 12D#00000000000000D4
(1713559580.881405) can0 12E#000000000000C071
(1713559580.881642) can0 12F#F8100320000000C8
(1713559580.881890) can0 290#00000002000000DC
(1713559580.882124) can0 174#0280005B4E79069D
(1713559580.882352) can0 178#E67F0E474393061D
(1713559580.882595) can0 17C#0A8001003F6906C1
(1713559580.882835) can0 410#2880008B9F6E8BC0
(1713559580.883081) can0 120#000000000700009B
(1713559580.883344) can0 121#000000000000008B
(1713559580.883569) can0 129#000000010000008F
(1713559580.883808) can0 5D1#9958000200000000
(1713559580.884578) can0 140#0000030000000000
(1713559580.887747) can0 400#2880000000000040
(1713559580.890694) can0 541#0440E800007FFF67
(1713559580.890938) can0 12D#0000000000000035
(1713559580.891181) can0 12F#F81002200000002E
(1713559580.891433) can0 290#000000020000003D
(1713559580.891625) can0 552#00FFFFFFFFFFFFA5
(1713559580.891869) can0 450#0055A0001B004A00
(1713559580.892103) can0 174#0680005B4379076C
(1713559580.892331) can0 178#E67F0F6D3693075A
(1713559580.892571) can0 17C#0080010034690734
(1713559580.892807) can0 410#2880008B9F6E8B21
(1713559580.897729) can0 400#2880000000000075
(1713559580.900656) can0 12F#F800032000000048
(1713559580.900888) can0 128#1388030000EC7896
(1713559580.901138) can0 12D#000000000000005F
(1713559580.901384) can0 12E#000000000000C090
(1713559580.901630) can0 290#0000000200000057
(1713559580.901876) can0 551#000000000004C000
(1713559580.902109) can0 174#0C80005B38790877
(1713559580.902343) can0 178#E67F0062209308E8
(1713559580.902581) can0 17C#F67F010031690875
(1713559580.902817) can0 410#2880008B9F6E8B4B
(1713559580.903063) can0 120#00000000070000AE
(1713559580.903309) can0 121#00000000000000BE
(1713559580.903555) can0 129#00000001000000BA
(1713559580.903791) can0 5D1#9958000200000000
(1713559580.905101) can0 140#0000030000000000
(1713559580.907841) can0 400#2880000000000094
(1713559580.908070) can0 5B1#008A9A6800000077
(1713559580.908310) can0 5D0#9958010200000000
(1713559580.908548) can0 5CF#7444540000000000
(1713559580.909459) can0 6AB#ACC2A57596A3C162
(1713559580.909703) can0 550#48000C000100007C
(1713559580.910673) can0 541#0440E800007FFF86
(1713559580.910907) can0 12A#1428701C60580098
(1713559580.911153) can0 12D#000000000000006A
(1713559580.911400) can0 12F#F810032000000076
(1713559580.911645) can0 290#0000000200000062
(1713559580.911892) can0 174#0E80005B347909DA
(1713559580.912121) can0 178#E87F01480A930950
(1713559580.912358) can0 17C#F47F0100356909D4
(1713559580.912598) can0 410#2880008B9F6E8B7E
(1713559580.917827) can0 400#28800000000000A1
(1713559580.918423) can0 540#0000001040009F00
(1713559580.918664) can0 5B0#6342000000000096
(1713559580.919973) can0 6B9#0020400000000000
(1713559580.920204) can0 5A2#1410140000000000
(1713559580.920658) can0 12F#F810022000000090
(1713559580.920890) can0 128#1388030000EC78A3
(1713559580.921140) can0 12D#000000000000008B
(1713559580.921381) can0 12E#000000000000C0A5
(1713559580.921631) can0 290#0000000200000083
(1713559580.921880) can0 551#000000000004C000
(1713559580.922109) can0 174#0C80005B34790A47
(1713559580.922347) can0 178#EE7F0000FC920A07
(1713559580.922589) can0 17C#FA7F01003F690AFD
(1713559580.922830) can0 410#2880008B9F6E8B9F
(1713559580.923076) can0 120#00000000070000C4
(1713559580.923362) can0 121#00000000000000D4
(1713559580.923564) can0 129#00000001000000D0
(1713559580.923802) can0 5D1#9958000200000000
(1713559580.925626) can0 140#0000030000000000
(1713559580.927940) can0 400#28800000000000CB
(1713559580.930679) can0 541#0440E800007FFFB3
(1713559580.930923) can0 12D#00000000000000BE
(1713559580.931163) can0 12F#F8000320000000A9
(1713559580.931412) can0 290#00000002000000B6
(1713559580.931901) can0 174#0480005B30790B8E
(1713559580.932141) can0 178#F27F0000FC920B18
(1713559580.932377) can0 17C#028001003F690B92
(1713559580.932613) can0 410#2880008B9F6E8BAA
(1713559580.937925) can0 400#288000000000002A
(1713559580.940606) can0 12F#F8100320000000C8
(1713559580.940839) can0 128#1388030000EC78C9
(1713559580.941082) can0 12D#00000000000000D4
(1713559580.941326) can0 12E#000000000000C0CF
(1713559580.941574) can0 290#00000002000000DC
(1713559580.941821) can0 551#000000000004C000
(1713559580.942051) can0 174#FC7F005B2C790CBD
(1713559580.942287) can0 178#F27F000D06930CCF
(1713559580.942523) can0 17C#0680010035690CA7
(1713559580.942763) can0 410#2880008B9F6E8BC0
(1713559580.943009) can0 552#00FFFFFFFFFFFFCF
(1713559580.943257) can0 120#0000000007000025
(1713559580.943510) can0 121#0000000000000035
(1713559580.943750) can0 129#0000000100000031
(1713559580.943990) can0 5D1#9958000200000000
(1713559580.944234) can0 5D2#7444540000000000
(1713559580.944478) can0 450#0055A0001B004A00
(1713559580.946150) can0 140#0000030000000000
(1713559580.948031) can0 400#2880000000000040
(1713559580.950671) can0 541#0440E800007FFFD9
(1713559580.950915) can0 12D#0000000000000035
(1713559580.951156) can0 12F#F81002200000002E
(1713559580.951407) can0 290#000000020000003D
(1713559580.951905) can0 174#F47F005B21790DF7
(1713559580.952139) can0 178#F67F00000D930D74
(1713559580.952379) can0 17C#008001002A690DF7
(1713559580.952615) can0 410#2880008B9F6E8B21
(1713559580.958021) can0 400#2880000000000075
(1713559580.959434) can0 550#48000C000100009D
(1713559580.960631) can0 12F#F800032000000048
(1713559580.960870) can0 128#1388030000EC7828
(1713559580.961103) can0 12A#1428701C605800AD
(1713559580.961352) can0 12D#000000000000005F
(1713559580.961597) can0 12E#000000000000C02E
(1713559580.961843) can0 290#0000000200000057
(1713559580.962072) can0 174#F07F005B13790E92
(1713559580.962305) can0 178#F87F013611930E2C
(1713559580.962543) can0 17C#FA7F01002D690E92
(1713559580.962780) can0 410#2880008B9F6E8B4B
(1713559580.963027) can0 551#000000000004C000
(1713559580.963273) can0 120#000000000700004F
(1713559580.963523) can0 121#000000000000005F
(1713559580.963765) can0 129#000000010000005B
(1713559580.964002) can0 5A0#0000006244928097
(1713559580.964244) can0 5D1#9958000200000000
(1713559580.966676) can0 140#0000030000000000
(1713559580.968127) can0 400#2880000000000094
(1713559580.970669) can0 541#0440E800007FFF38
(1713559580.970912) can0 12D#000000000000006A
(1713559580.971155) can0 12F#F810022000000071
(1713559580.971405) can0 290#0000000200000062
(1713559580.971950) can0 174#EC7F005B0C790F13
(1713559580.972138) can0 178#FA7F023015930F5A
(1713559580.972375) can0 17C#F87F01003B690F28
(1713559580.972615) can0 410#2880008B9F6E8B7E
(1713559580.978121) can0 400#28800000000000A1
(1713559580.979070) can0 4EA#0000000000000000
(1713559580.979315) can0 5B2#0800000000000000
(1713559580.979575) can0 310#FFFFFFFF7D7D0000
(1713559580.980603) can0 12F#F80003200000009C
(1713559580.980838) can0 128#1388030000EC7842
(1713559580.981084) can0 12D#000000000000008B
(1713559580.981326) can0 12E#000000000000C044
(1713559580.981578) can0 290#0000000200000083
(1713559580.981825) can0 551#000000000004C000
(1713559580.982056) can0 174#E87F005B1379005F
(1713559580.982293) can0 178#008003311893005B
(1713559580.982533) can0 17C#F87F01004A690054
(1713559580.982773) can0 410#2880008B9F6E8B9F
(1713559580.983013) can0 5D1#9958000200000000
(1713559580.983293) can0 120#000000000700007A
(1713559580.983547) can0 121#000000000000006A
(1713559580.983794) can0 129#000000010000006E
(1713559580.987198) can0 140#0000030000000000
(1713559580.988223) can0 400#28800000000000CB
(1713559580.990803) can0 12F#F8100320000000A2
(1713559580.991051) can0 12D#00000000000000BE
(1713559580.991295) can0 290#00000002000000B6
(1713559580.991968) can0 174#E47F005B217901D2
(1713559580.992155) can0 178#0C800438189301F7
(1713559580.992394) can0 17C#F87F01004E69014F
(1713559580.992629) can0 410#2880008B9F6E8BAA
(1713559580.993163) can0 541#0440E800007FFF52
(1713559580.993419) can0 552#00FFFFFFFFFFFF2E
(1713559580.993663) can0 450#0055A0001B004A00
(1713559580.998223) can0 400#288000000000002A
(1713559581.000652) can0 12F#F8000220000000C4
(1713559581.000882) can0 128#1388030000EC7877
(1713559581.001127) can0 12D#00000000000000D4
(1713559581.001374) can0 12E#000000000000C071
(1713559581.001622) can0 290#00000002000000DC
(1713559581.001868) can0 551#000000000004C000
(1713559581.002103) can0 174#E47F005B2F7902FC
(1713559581.002335) can0 178#108005311793023F
(1713559581.002573) can0 17C#008001004E69021A
(1713559581.002813) can0 410#2880008B9F6E8BC0
(1713559581.003053) can0 5D1#9958000200000000
(1713559581.003384) can0 120#000000000700009B
(1713559581.003623) can0 121#000000000000008B
(1713559581.003866) can0 129#000000010000008F
(1713559581.007723) can0 140#0000030000000000
(1713559581.007962) can0 5D0#9958010200000000
(1713559581.008199) can0 5B1#008A9A6800000096
(1713559581.008454) can0 400#2880000000000040
(1713559581.008687) can0 5CF#7444540000000000
(1713559581.009489) can0 550#48000C00010000A8
(1713559581.010670) can0 541#0440E800007FFF67
(1713559581.010905) can0 12A#1428701C605800C7
(1713559581.011154) can0 12D#0000000000000035
(1713559581.011397) can0 12F#F810032000000029
(1713559581.011642) can0 290#000000020000003D
(1713559581.011970) can0 174#E67F005B387903C9
(1713559581.012204) can0 178#0C800632129303AD
(1713559581.012394) can0 17C#0C800100466903B0
(1713559581.012631) can0 410#2880008B9F6E8B21
(1713559581.018317) can0 400#2880000000000075
(1713559581.018913) can0 540#0000001040009F00
(1713559581.019155) can0 5B0#63420000000000A3
(1713559581.020096) can0 6B9#0020400000000000
(1713559581.020339) can0 5A2#1410140000000000
(1713559581.020655) can0 12F#F800032000000048
(1713559581.020889) can0 128#1388030000EC7896
(1713559581.021139) can0 12D#000000000000005F
(1713559581.021385) can0 12E#000000000000C090
(1713559581.021634) can0 290#0000000200000057
(1713559581.021878) can0 551#000000000004C000
(1713559581.022109) can0 174#E67F005B3B790416
(1713559581.022343) can0 178#068007390A9304CE
(1713559581.022582) can0 17C#128001003B690496
(1713559581.022819) can0 410#2880008B9F6E8B4B
(1713559581.023059) can0 5D1#9958000200000000
(1713559581.023480) can0 120#00000000070000AE
(1713559581.023724) can0 121#00000000000000BE
(1713559581.023966) can0 129#00000001000000BA
(1713559581.028245) can0 140#0000030000000000
(1713559581.028489) can0 400#2880000000000094
(1713559581.030679) can0 541#0440E800007FFF86
(1713559581.030918) can0 12D#000000000000006A
(1713559581.031160) can0 12F#F810022000000071
(1713559581.031410) can0 290#0000000200000062
(1713559581.031980) can0 174#E47F005B34790537
(1713559581.032214) can0 178#0680082D049305CD
(1713559581.032457) can0 17C#1280010038690507
(1713559581.032698) can0 410#2880008B9F6E8B7E
(1713559581.038415) can0 400#28800000000000A1
(1713559581.040556) can0 12F#F80003200000009C
(1713559581.040792) can0 128#1388030000EC78A3
(1713559581.041039) can0 12D#000000000000008B
(1713559581.041282) can0 12E#000000000000C0A5
(1713559581.041535) can0 290#0000000200000083
(1713559581.041781) can0 551#000000000004C000
(1713559581.042011) can0 174#DE7F005B25790639
(1713559581.042297) can0 178#0C80093004930682
(1713559581.042537) can0 17C#088001003B69067D
(1713559581.042777) can0 410#2880008B9F6E8B9F
(1713559581.043021) can0 552#00FFFFFFFFFFFF44
(1713559581.043273) can0 5D1#9958000200000000
(1713559581.043517) can0 5D2#7444540000000000
(1713559581.043763) can0 120#00000000070000C4
(1713559581.044006) can0 121#00000000000000D4
(1713559581.044248) can0 129#00000001000000D0
(1713559581.044486) can0 450#0055A0001B004A00
(1713559581.048505) can0 400#28800000000000CB
(1713559581.048772) can0 140#0000030000000000
(1713559581.050663) can0 541#0440E800007FFFB3
(1713559581.050909) can0 12F#F8100220000000A5
(1713559581.051152) can0 12D#00000000000000BE
(1713559581.051399) can0 290#00000002000000B6
(1713559581.051987) can0 174#DA7F005B247907C2
(1713559581.052223) can0 178#12800A32069307BD
(1713559581.052461) can0 17C#FE7F01003B690713
(1713559581.052697) can0 410#2880008B9F6E8BAA
(1713559581.055642) can0 6E2#0544000000000000
(1713559581.058512) can0 400#288000000000002A
(1713559581.059433) can0 550#48000C00010000C2
(1713559581.060570) can0 12F#F8100320000000C8
(1713559581.060806) can0 128#1388030000EC78C9
(1713559581.061041) can0 12A#1428701C60580026
(1713559581.061285) can0 12D#00000000000000D4
(1713559581.061528) can0 12E#000000000000C0CF
(1713559581.061776) can0 290#00000002000000DC
(1713559581.062006) can0 174#DA7F005B357908EE
(1713559581.062242) can0 178#0E800B360C93082F
(1713559581.062502) can0 17C#F87F0100326908F8
(1713559581.062773) can0 410#2880008B9F6E8BC0
(1713559581.063019) can0 551#000000000004C000
(1713559581.063257) can0 5A0#00000062449280A2
(1713559581.063499) can0 5D1#9958000200000000
(1713559581.063748) can0 120#0000000007000025
(1713559581.063994) can0 121#0000000000000035
(1713559581.064237) can0 129#0000000100000031
(1713559581.068605) can0 400#2880000000000040
(1713559581.069290) can0 140#0000030000000000
(1713559581.070660) can0 541#0440E800007FFFD9
(1713559581.070904) can0 12F#F800032000000022
(1713559581.071158) can0 12D#0000000000000035
(1713559581.071403) can0 290#000000020000003D
(1713559581.071988) can0 174#DC7F005B4D790964
(1713559581.072224) can0 178#08800C3012930992
(1713559581.072465) can0 17C#FA7F010026690941
(1713559581.072700) can0 410#2880008B9F6E8B21
(1713559581.078608) can0 400#2880000000000075
(1713559581.078864) can0 4EA#0000000000000000
(1713559581.079110) can0 5B2#0800000000000000
(1713559581.079357) can0 310#FFFFFFFF7D7D0000
(1713559581.080618) can0 551#000000000004C000
(1713559581.080856) can0 128#1388030000EC7828
(1713559581.081106) can0 12D#000000000000005F
(1713559581.081350) can0 12E#000000000000C02E
(1713559581.081592) can0 12F#F810022000000044
(1713559581.081838) can0 290#0000000200000057
(1713559581.082066) can0 174#DE7F005B56790A61
(1713559581.082308) can0 178#0480000017930A2A
(1713559581.082559) can0 17C#FE7F01001E690A2B
(1713559581.082832) can0 410#2880008B9F6E8B4B
(1713559581.083072) can0 5D1#9958000200000000
(1713559581.083771) can0 120#000000000700004F
(1713559581.084018) can0 121#000000000000005F
(1713559581.084261) can0 129#000000010000005B
(1713559581.088707) can0 400#2880000000000094
(1713559581.089816) can0 140#0000030000000000
(1713559581.090688) can0 541#0440E800007FFF38
(1713559581.090932) can0 12F#F810032000000076
(1713559581.091178) can0 12D#000000000000006A
(1713559581.091430) can0 290#0000000200000062
(1713559581.091670) can0 552#00FFFFFFFFFFFF71
(1713559581.091910) can0 410#2880008B9F6E8B7E
(1713559581.092139) can0 174#DE7F005B59790BFA
(1713559581.092375) can0 178#0280013017930BE1
(1713559581.092612) can0 17C#FE7F010019690BBC
(1713559581.092850) can0 450#0055A0001B004A00
(1713559581.098709) can0 400#28800000000000A1
(1713559581.100618) can0 551#000000000004C000
(1713559581.100851) can0 128#1388030000EC7842
(1713559581.101097) can0 12D#000000000000008B
(1713559581.101342) can0 12E#000000000000C044
(1713559581.101583) can0 12F#F80003200000009C
(1713559581.101834) can0 290#0000000200000083
(1713559581.102062) can0 174#E27F005B5C790C4D
(1713559581.102294) can0 178#FE7F023212930CB9
(1713559581.102536) can0 17C#FA7F010010690C05
(1713559581.102778) can0 410#2880008B9F6E8B9F
(1713559581.103064) can0 5D1#9958000200000000
(1713559581.103863) can0 120#000000000700007A
(1713559581.104112) can0 121#000000000000006A
(1713559581.104363) can0 129#000000010000006E
(1713559581.107966) can0 5D0#9958010200000000
(1713559581.108200) can0 5B1#008A9A68000000A3
(1713559581.108438) can0 5CF#7444540000000000
(1713559581.108796) can0 400#28800000000000CB
(1713559581.109480) can0 550#48000C0001000023
(1713559581.110336) can0 140#0000030000000000
(1713559581.110680) can0 541#0440E800007FFF52
(1713559581.110918) can0 12F#F8100220000000A5
(1713559581.111150) can0 12A#1428701C6058004C
(1713559581.111400) can0 12D#00000000000000BE
(1713559581.111652) can0 290#00000002000000B6
(1713559581.111883) can0 410#2880008B9F6E8BAA
(1713559581.112111) can0 174#E67F005B60790D1B
(1713559581.112349) can0 178#008003360F930DBC
(1713559581.112589) can0 17C#F87F010009690D39
(1713559581.118804) can0 400#288000000000002A
(1713559581.119396) can0 540#0000001040009F00
(1713559581.119636) can0 5B0#63420000000000C9
(1713559581.120272) can0 6B9#0020400000000000
(1713559581.120516) can0 5A2#1410140000000000
(1713559581.120760) can0 12D#00000000000000D4
(1713559581.120994) can0 128#1388030000EC7877
(1713559581.121243) can0 12E#000000000000C071
(1713559581.121482) can0 12F#F8100320000000C8
(1713559581.121731) can0 290#00000002000000DC
(1713559581.121971) can0 410#2880008B9F6E8BC0
(1713559581.122200) can0 174#EC7F005B60790E54
(1713559581.122433) can0 178#0480043514930EDB
(1713559581.122668) can0 17C#FC7F010009690E77
(1713559581.122915) can0 551#000000000004C000
(1713559581.123171) can0 5D1#9958000200000000
(1713559581.123966) can0 120#000000000700009B
(1713559581.124207) can0 121#000000000000008B
(1713559581.124450) can0 129#000000010000008F
(1713559581.128897) can0 400#2880000000000040
(1713559581.130671) can0 541#0440E800007FFF67
(1713559581.130914) can0 12F#F81002200000002E
(1713559581.131160) can0 12D#0000000000000035
(1713559581.131415) can0 140#0000030000000000
(1713559581.131658) can0 290#000000020000003D
(1713559581.131902) can0 410#2880008B9F6E8B21
(1713559581.132128) can0 174#F07F005B5B790FE3
(1713559581.132363) can0 178#0A80053015930FF1
(1713559581.132600) can0 17C#008001000B690F72
(1713559581.138899) can0 400#2880000000000075
(1713559581.140638) can0 551#000000000004C000
(1713559581.140871) can0 128#1388030000EC7896
(1713559581.141121) can0 12D#000000000000005F
(1713559581.141367) can0 12E#000000000000C090
(1713559581.141609) can0 12F#F800032000000048
(1713559581.141856) can0 290#0000000200000057
(1713559581.142094) can0 174#F47F005B5179003E
(1713559581.142326) can0 178#068006310C930049
(1713559581.142568) can0 17C#008001000E690040
(1713559581.142807) can0 410#2880008B9F6E8B4B
(1713559581.143052) can0 552#00FFFFFFFFFFFF90
(1713559581.143316) can0 5D1#9958000200000000
(1713559581.143595) can0 5D2#7444540000000000
(1713559581.143838) can0 450#0055A0001B004A00
(1713559581.144091) can0 120#00000000070000AE
(1713559581.144337) can0 121#00000000000000BE
(1713559581.144579) can0 129#00000001000000BA
(1713559581.148991) can0 400#2880000000000094
(1713559581.150660) can0 541#0440E800007FFF86
(1713559581.150917) can0 12F#F810032000000076
(1713559581.151163) can0 12D#000000000000006A
(1713559581.151416) can0 140#0000030000000000
(1713559581.151662) can0 290#0000000200000062
(1713559581.151902) can0 410#2880008B9F6E8B7E
(1713559581.152138) can0 174#F87F005B4B79018F
(1713559581.152373) can0 178#F87F073109930116
(1713559581.152610) can0 17C#0080010016690149
(1713559581.158995) can0 400#28800000000000A1
(1713559581.159435) can0 550#48000C0001000049
(1713559581.160617) can0 551#000000000004C000
(1713559581.160853) can0 128#1388030000EC78A3
(1713559581.161085) can0 12A#1428701C60580079
(1713559581.161331) can0 12D#000000000000008B
(1713559581.161575) can0 12E#000000000000C0A5
(1713559581.161815) can0 12F#F810022000000090
(1713559581.162050) can0 174#F87F005B48790224
(1713559581.162282) can0 178#E87F0831119302E0
(1713559581.162520) can0 17C#0680010024690296
(1713559581.162772) can0 290#0000000200000083
(1713559581.163012) can0 410#2880008B9F6E8B9F
(1713559581.163248) can0 5A0#00000062449280C8
(1713559581.163494) can0 5D1#9958000200000000
(1713559581.164154) can0 120#00000000070000C4
(1713559581.164399) can0 121#00000000000000D4
(1713559581.164641) can0 129#00000001000000D0
(1713559581.169093) can0 400#28800000000000CB
(1713559581.170658) can0 541#0440E800007FFFB3
(1713559581.170897) can0 12F#F8100320000000A2
(1713559581.171145) can0 12D#00000000000000BE
(1713559581.171395) can0 290#00000002000000B6
(1713559581.171628) can0 410#2880008B9F6E8BAA
(1713559581.171917) can0 140#0000030000000000
(1713559581.172160) can0 174#FA7F005B43790303
(1713559581.172386) can0 178#E07F093012930354
(1713559581.172624) can0 17C#0A8001002F6903B0
(1713559581.178661) can0 4EA#0000000000000000
(1713559581.178905) can0 5B2#0800000000000000
(1713559581.179151) can0 310#FFFFFFFF7D7D0000
(1713559581.179399) can0 400#288000000000002A
(1713559581.180617) can0 551#000000000004C000
(1713559581.180853) can0 128#1388030000EC78C9
(1713559581.181097) can0 12D#00000000000000D4
(1713559581.181341) can0 12E#000000000000C0CF
(1713559581.181581) can0 12F#F8000220000000C4
(1713559581.181829) can0 290#00000002000000DC
(1713559581.182063) can0 174#FE7F005B3B79047D
(1713559581.182296) can0 178#E47F0A380A930458
(1713559581.182535) can0 17C#0A8001003269047E
(1713559581.182775) can0 410#2880008B9F6E8BC0
(1713559581.183016) can0 5D1#9958000200000000
(1713559581.184256) can0 120#0000000007000025
(1713559581.184502) can0 121#0000000000000035
(1713559581.184746) can0 129#0000000100000031
(1713559581.189191) can0 400#2880000000000040
(1713559581.190682) can0 541#0440E800007FFFD9
(1713559581.190928) can0 12D#0000000000000035
(1713559581.191170) can0 12F#F810032000000029
(1713559581.191421) can0 290#000000020000003D
(1713559581.191655) can0 410#2880008B9F6E8B21
(1713559581.191900) can0 552#00FFFFFFFFFFFFA5
(1713559581.192137) can0 174#0280005B347905FD
(1713559581.192380) can0 178#EC7F000001930547
(1713559581.192626) can0 140#0000030000000000
(1713559581.192862) can0 17C#068001002F690545
(1713559581.193100) can0 450#0055A0001B004A00
(1713559581.199189) can0 400#2880000000000075
(1713559581.200595) can0 12F#F810022000000044
(1713559581.200832) can0 128#1388030000EC7828
(1713559581.201083) can0 12D#000000000000005F
(1713559581.201327) can0 12E#000000000000C02E
(1713559581.201572) can0 290#0000000200000057
(1713559581.201810) can0 410#2880008B9F6E8B4B
(1713559581.202049) can0 174#0280005B327906DF
(1713559581.202285) can0 178#F07F0130FB9206AC
(1713559581.202524) can0 17C#028001003169061A
(1713559581.202769) can0 551#000000000004C000
(1713559581.203021) can0 5D1#9958000200000000
(1713559581.204346) can0 120#000000000700004F
(1713559581.204592) can0 121#000000000000005F
(1713559581.204836) can0 129#000000010000005B
(1713559581.207968) can0 5D0#9958010200000000
(1713559581.208200) can0 5B1#008A9A68000000C9
(1713559581.208439) can0 5CF#7444540000000000
(1713559581.209281) can0 400#2880000000000094
(1713559581.209525) can0 550#48000C000100007C
(1713559581.210663) can0 541#0440E800007FFF38
(1713559581.210907) can0 12D#000000000000006A
(1713559581.211141) can0 12A#1428701C60580098
(1713559581.211389) can0 12F#F810032000000076
(1713559581.211634) can0 290#0000000200000062
(1713559581.211873) can0 410#2880008B9F6E8B7E
(1713559581.212111) can0 174#0080005B32790778
(1713559581.212352) can0 178#EE7F0000F3920700
(1713559581.212603) can0 17C#008001003869073E
(1713559581.212962) can0 140#0000030000000000
(1713559581.219287) can0 400#28800000000000A1
(1713559581.219923) can0 540#0000001040009F00
(1713559581.220165) can0 5B0#6342000000000028
(1713559581.220557) can0 6B9#0020400000000000
(1713559581.220791) can0 128#1388030000EC7842
(1713559581.221037) can0 12D#000000000000008B
(1713559581.221282) can0 12E#000000000000C044
(1713559581.221521) can0 12F#F80002200000009B
(1713559581.221773) can0 290#0000000200000083
(1713559581.222013) can0 410#2880008B9F6E8B9F
(1713559581.222249) can0 174#FC7F005B307908DB
(1713559581.222487) can0 178#EC7F0153F3920860
(1713559581.222722) can0 17C#068001004569089B
(1713559581.222969) can0 551#000000000004C000
(1713559581.223212) can0 5A2#1410140000000000
(1713559581.223453) can0 5D1#9958000200000000
(1713559581.224443) can0 120#000000000700007A
(1713559581.224695) can0 121#000000000000006A
(1713559581.224943) can0 129#000000010000006E
(1713559581.229379) can0 400#28800000000000CB
(1713559581.230663) can0 541#0440E800007FFF52
(1713559581.230911) can0 12D#00000000000000BE
(1713559581.231153) can0 12F#F8100320000000A2
(1713559581.231399) can0 290#00000002000000B6
(1713559581.231633) can0 410#2880008B9F6E8BAA
(1713559581.232050) can0 174#F87F005B2A7909B8
(1713559581.232282) can0 178#EE7F0243F69209D5
(1713559581.232516) can0 17C#0A800100486909B8
(1713559581.233492) can0 140#0000030000000000
(1713559581.239386) can0 400#288000000000002A
(1713559581.240556) can0 12F#F8100220000000CF
(1713559581.240790) can0 128#1388030000EC7877
(1713559581.241034) can0 12D#00000000000000D4
(1713559581.241283) can0 12E#000000000000C071
(1713559581.241530) can0 290#00000002000000DC
(1713559581.241771) can0 410#2880008B9F6E8BC0
(1713559581.242017) can0 551#000000000004C000
(1713559581.242245) can0 174#F67F005B25790A18
(1713559581.242478) can0 178#F47F0332F8920A26
(1713559581.242713) can0 17C#0E80010043690A76
(1713559581.242959) can0 552#00FFFFFFFFFFFFCF
(1713559581.243209) can0 5D1#9958000200000000
(1713559581.243455) can0 5D2#7444540000000000
(1713559581.243698) can0 450#0055A0001B004A00
(1713559581.244490) can0 120#000000000700009B
(1713559581.244734) can0 121#000000000000008B
(1713559581.245024) can0 129#000000010000008F
(1713559581.249478) can0 400#2880000000000040
(1713559581.250656) can0 541#0440E800007FFF67
(1713559581.250902) can0 12D#0000000000000035
(1713559581.251147) can0 12F#F800032000000022
(1713559581.251396) can0 290#000000020000003D
(1713559581.251630) can0 410#2880008B9F6E8B21
(1713559581.252048) can0 174#F27F005B27790B6F
(1713559581.252282) can0 178#F27F0430FC920BC2
(1713559581.252516) can0 17C#0E80010048690BEB
(1713559581.254012) can0 140#0000030000000000
(1713559581.259434) can0 550#48000C000100009D
(1713559581.259678) can0 400#2880000000000075
(1713559581.260580) can0 12F#F810022000000044
(1713559581.260814) can0 128#1388030000EC7896
(1713559581.261048) can0 12A#1428701C605800AD
(1713559581.261298) can0 12D#000000000000005F
(1713559581.261544) can0 12E#000000000000C090
(1713559581.261790) can0 290#0000000200000057
(1713559581.262029) can0 410#2880008B9F6E8B4B
(1713559581.262257) can0 174#F27F005B2A790CB9
(1713559581.262493) can0 178#EC7F053001930C02
(1713559581.262729) can0 17C#1080010056690C11
(1713559581.262975) can0 551#000000000004C000
(1713559581.263214) can0 5A0#0000006244928029
(1713559581.263454) can0 5D1#9958000200000000
(1713559581.264588) can0 120#00000000070000AE
(1713559581.264834) can0 121#00000000000000BE
(1713559581.265077) can0 129#00000001000000BA
(1713559581.269577) can0 400#2880000000000094
(1713559581.270653) can0 541#0440E800007FFF86
(1713559581.270898) can0 12D#000000000000006A
(1713559581.271142) can0 12F#F80003200000007D
(1713559581.271394) can0 290#0000000200000062
(1713559581.271630) can0 410#2880008B9F6E8B7E
(1713559581.272057) can0 174#EE7F005B2D790D2C
(1713559581.272289) can0 178#EE7F06320A930DBC
(1713559581.272525) can0 17C#148001005B690DE0
(1713559581.274531) can0 140#0000030000000000
(1713559581.278514) can0 4EA#0000000000000000
(1713559581.278753) can0 5B2#0800000000000000
(1713559581.278994) can0 310#FFFFFFFF7D7D0000
(1713559581.279621) can0 400#28800000000000A1
(1713559581.280695) can0 12F#F810022000000090
(1713559581.280930) can0 128#1388030000EC78A3
(1713559581.281177) can0 12D#000000000000008B
(1713559581.281421) can0 12E#000000000000C0A5
(1713559581.281673) can0 290#0000000200000083
(1713559581.281913) can0 410#2880008B9F6E8B9F
(1713559581.282143) can0 174#EE7F005B2F790E08
(1713559581.282371) can0 178#F67F073712930E5D
(1713559581.282560) can0 17C#1280010055690E1D
(1713559581.282806) can0 551#000000000004C000
(1713559581.283055) can0 5D1#9958000200000000
(1713559581.284683) can0 120#00000000070000C4
(1713559581.284926) can0 121#00000000000000D4
(1713559581.285169) can0 129#00000001000000D0
(1713559581.289620) can0 400#28800000000000CB
(1713559581.290626) can0 541#0440E800007FFFB3
(1713559581.290912) can0 12F#F8100320000000A2
(1713559581.291161) can0 12D#00000000000000BE
(1713559581.291444) can0 290#00000002000000B6
(1713559581.291654) can0 410#2880008B9F6E8BAA
(1713559581.291889) can0 552#00FFFFFFFFFFFF2E
(1713559581.292121) can0 174#EE7F005B2A790F9C
(1713559581.292355) can0 178#FA7F085F12930FC5
(1713559581.292587) can0 17C#0A80010045690F73
(1713559581.292828) can0 450#0055A0001B004A00
(1713559581.295060) can0 140#0000030000000000
(1713559581.299739) can0 400#288000000000002A
(1713559581.300661) can0 551#000000000004C000
(1713559581.300895) can0 128#1388030000EC78C9
(1713559581.301141) can0 12D#00000000000000D4
(1713559581.301383) can0 12E#000000000000C0CF
(1713559581.301623) can0 12F#F8000320000000C3
(1713559581.301871) can0 290#00000002000000DC
(1713559581.302105) can0 174#F07F005B24790096
(1713559581.302338) can0 178#FC7F093012930071
(1713559581.302579) can0 17C#088001003169003C
(1713559581.302819) can0 410#2880008B9F6E8BC0
(1713559581.303059) can0 5D1#9958000200000000
(1713559581.304788) can0 120#0000000007000025
(1713559581.305036) can0 121#0000000000000035
(1713559581.305280) can0 129#0000000100000031
(1713559581.307919) can0 5D0#9958010200000000
(1713559581.308156) can0 5B1#008A9A6800000028
(1713559581.308394) can0 5CF#7444540000000000
(1713559581.309435) can0 550#48000C00010000A8
(1713559581.309724) can0 400#2880000000000040
(1713559581.310609) can0 541#0440E800007FFFD9
(1713559581.310897) can0 12F#F81002200000002E
(1713559581.311132) can0 12A#1428701C605800C7
(1713559581.311429) can0 12D#0000000000000035
(1713559581.311674) can0 290#000000020000003D
(1713559581.311910) can0 410#2880008B9F6E8B21
(1713559581.312142) can0 174#EE7F005B24790133
(1713559581.312375) can0 178#F87F0A371493014A
(1713559581.312616) can0 17C#0C8001001F690171
(1713559581.315584) can0 140#0000030000000000
(1713559581.319828) can0 400#2880000000000075
(1713559581.320416) can0 540#0000001040009F00
(1713559581.320660) can0 551#000000000004C000
(1713559581.320901) can0 128#1388030000EC7828
(1713559581.321150) can0 12D#000000000000005F
(1713559581.321397) can0 12E#000000000000C02E
(1713559581.321638) can0 12F#F810032000000043
(1713559581.321884) can0 290#0000000200000057
(1713559581.322114) can0 174#EE7F005B2F790294
(1713559581.322344) can0 178#F07F0B31149302BC
(1713559581.322582) can0 17C#0C800100146902D6
(1713559581.322820) can0 410#2880008B9F6E8B4B
(1713559581.323062) can0 5B0#6342000000000042
(1713559581.323302) can0 5D1#9958000200000000
(1713559581.323553) can0 6B9#0020400000000000
(1713559581.323746) can0 5A2#1410140000000000
(1713559581.324883) can0 120#000000000700004F
(1713559581.325131) can0 121#000000000000005F
(1713559581.325375) can0 129#000000010000005B
(1713559581.329821) can0 400#2880000000000094
(1713559581.330615) can0 541#0440E800007FFF38
(1713559581.330871) can0 12F#F80003200000007D
(1713559581.331120) can0 12D#000000000000006A
(1713559581.331417) can0 290#0000000200000062
(1713559581.331653) can0 410#2880008B9F6E8B7E
(1713559581.332078) can0 174#F27F005B3A79031A
(1713559581.332314) can0 178#EE7F000012930327
(1713559581.332554) can0 17C#088001001169032B
(1713559581.336109) can0 140#0000030000000000
(1713559581.339911) can0 400#28800000000000A1
(1713559581.340679) can0 551#000000000004C000
(1713559581.340911) can0 128#1388030000EC7842
(1713559581.341157) can0 12D#000000000000008B
(1713559581.341401) can0 12E#000000000000C044
(1713559581.341641) can0 12F#F810022000000090
(1713559581.341893) can0 290#0000000200000083
(1713559581.342127) can0 174#F47F005B3B790415
(1713559581.342361) can0 178#F07F01370D9304A3
(1713559581.342597) can0 17C#048001001B6904CC
(1713559581.342838) can0 410#2880008B9F6E8B9F
(1713559581.343081) can0 552#00FFFFFFFFFFFF44
(1713559581.343352) can0 5D1#9958000200000000
(1713559581.343585) can0 5D2#7444540000000000
(1713559581.343827) can0 450#0055A0001B004A00
(1713559581.344983) can0 120#000000000700007A
(1713559581.345234) can0 121#000000000000006A
(1713559581.345482) can0 129#000000010000006E
(1713559581.349917) can0 400#28800000000000CB
(1713559581.350605) can0 541#0440E800007FFF52
(1713559581.350890) can0 12F#F8000320000000A9
(1713559581.351139) can0 12D#00000000000000BE
(1713559581.351435) can0 290#00000002000000B6
(1713559581.351669) can0 410#2880008B9F6E8BAA
(1713559581.352087) can0 174#F47F005B38790584
(1713559581.352321) can0 178#F87F022E04930575
(1713559581.352561) can0 17C#028001002C6905A0
(1713559581.356630) can0 140#0000030000000000
(1713559581.359482) can0 550#48000C00010000C2
(1713559581.360008) can0 400#288000000000002A
(1713559581.360664) can0 551#000000000004C000
(1713559581.360891) can0 128#1388030000EC7877
(1713559581.361124) can0 12A#1428701C60580026
(1713559581.361368) can0 12D#00000000000000D4
(1713559581.361616) can0 12E#000000000000C071
(1713559581.361858) can0 12F#F8100220000000CF
(1713559581.362104) can0 290#00100002000000D7
(1713559581.362339) can0 174#F07F005B387906CA
(1713559581.362577) can0 178#02800331FF9206F9
(1713559581.362816) can0 17C#028001003A69069A
(1713559581.363058) can0 410#2880008B9F6E8BC0
(1713559581.363293) can0 5A0#0000006244928043
(1713559581.363535) can0 5D1#9958000200000000
(1713559581.365120) can0 120#000000000700009B
(1713559581.365364) can0 121#000000000000008B
(1713559581.365606) can0 129#000000010000008F
(1713559581.370017) can0 400#2880000000000040
(1713559581.370602) can0 541#0440E800007FFF67
(1713559581.370847) can0 12F#F810032000000029
(1713559581.371092) can0 12D#0000000000000035
(1713559581.371344) can0 290#0010000200000036
(1713559581.371573) can0 410#2880008B9F6E8B21
(1713559581.372060) can0 174#EE7F005B377907E9
(1713559581.372327) can0 178#0A800430FF9207A0
(1713559581.372567) can0 17C#0080010042690779
(1713559581.377152) can0 140#0000030000000000
(1713559581.378301) can0 4EA#0000000000000000
(1713559581.378544) can0 5B2#0800000000000000
(1713559581.378790) can0 310#FFFFFFFF7D7D0000
(1713559581.380105) can0 400#2880000000000075
(1713559581.380657) can0 551#000000000004C000
(1713559581.380892) can0 128#1388030000EC7896
(1713559581.381141) can0 12D#000000000000005F
(1713559581.381387) can0 12E#000000000000C090
(1713559581.381629) can0 12F#F800032000000048
(1713559581.381875) can0 290#0000000200000057
(1713559581.382113) can0 410#2880008B9F6E8B4B
(1713559581.382342) can0 174#EE7F005B347908DE
(1713559581.382579) can0 178#0C80000004930856
(1713559581.382816) can0 17C#0280010048690877
(1713559581.383056) can0 5D1#9958000200000000
(1713559581.385161) can0 120#00000000070000AE
(1713559581.385407) can0 121#00000000000000BE
(1713559581.385649) can0 129#00000001000000BA
(1713559581.390113) can0 400#2880000000000094
(1713559581.390621) can0 541#0440E800007FFF86
(1713559581.390864) can0 12F#F810022000000071
(1713559581.391110) can0 12D#000000000000006A
(1713559581.391358) can0 290#0000000200000062
(1713559581.391597) can0 410#2880008B9F6E8B7E
(1713559581.391841) can0 552#00FFFFFFFFFFFF71
(1713559581.392073) can0 174#EE7F005B307909C5
(1713559581.392324) can0 178#088001380A9309B2
(1713559581.392588) can0 17C#088001004D69098B
(1713559581.392826) can0 450#0055A0001B004A00
(1713559581.397673) can0 140#0000030000000000
(1713559581.400203) can0 400#28800000000000A1
(1713559581.400652) can0 551#000000000004C000
(1713559581.400891) can0 128#1388030000EC78A3
(1713559581.401142) can0 12D#000000000000008B
(1713559581.401381) can0 12E#000000000000C0A5
(1713559581.401621) can0 12F#F810032000000097
(1713559581.401873) can0 290#0000000200000083
(1713559581.402113) can0 410#2880008B9F6E8B9F
(1713559581.402344) can0 174#EA7F005B35790A02
(1713559581.402575) can0 178#0280023211930A60
(1713559581.402809) can0 17C#0C80010045690AC9
(1713559581.403049) can0 5D1#9958000200000000
(1713559581.405258) can0 120#00000000070000C4
(1713559581.405502) can0 121#00000000000000D4
(1713559581.405744) can0 129#00000001000000D0
(1713559581.407937) can0 5D0#9958010200000000
(1713559581.408172) can0 5B1#008A9A6800000042
(1713559581.408411) can0 5CF#7444540000000000
(1713559581.409434) can0 550#48000C0001000023
(1713559581.410209) can0 400#28800000000000CB
(1713559581.410603) can0 541#0440E800007FFFB3
(1713559581.410845) can0 12F#F8000320000000A9
(1713559581.411077) can0 12A#1428701C6058004C
(1713559581.411334) can0 12D#00000000000000BE
(1713559581.411572) can0 290#00000002000000B6
(1713559581.411808) can0 410#2880008B9F6E8BAA
(1713559581.412052) can0 174#EA7F005B3D790B13
(1713559581.412284) can0 178#0080033217930BA8
(1713559581.412540) can0 17C#0A80010032690BC5
(1713559581.418195) can0 140#0000030000000000
(1713559581.420301) can0 400#288000000000002A
(1713559581.420663) can0 551#000000000004C000
(1713559581.420899) can0 128#1388030000EC78C9
(1713559581.421143) can0 12D#00000000000000D4
(1713559581.421397) can0 12E#000000000000C0CF
(1713559581.421631) can0 12F#F8100220000000CF
(1713559581.421877) can0 290#00000002000000DC
(1713559581.422117) can0 410#2880008B9F6E8BC0
(1713559581.422349) can0 174#EA7F005B3F790C43
(1713559581.422579) can0 178#0280043518930C38
(1713559581.422818) can0 17C#0480010027690C06
(1713559581.423064) can0 540#0000001040009F00
(1713559581.423304) can0 5B0#6342000000000077
(1713559581.423548) can0 5D1#9958000200000000
(1713559581.423793) can0 6B9#0020400000000000
(1713559581.424037) can0 5A2#1410140000000000
(1713559581.425359) can0 120#0000000007000025
(1713559581.425606) can0 121#0000000000000035
(1713559581.425849) can0 129#0000000100000031
(1713559581.430306) can0 400#2880000000000040
(1713559581.430627) can0 541#0440E800007FFFD9
(1713559581.430876) can0 12F#F800032000000022
(1713559581.431122) can0 12D#0000000000000035
(1713559581.431372) can0 290#000000020000003D
(1713559581.431607) can0 410#2880008B9F6E8B21
(1713559581.432070) can0 174#F07F005B32790D0A
(1713559581.432310) can0 178#0680000017930DC3
(1713559581.432548) can0 17C#0080010034690DE6
(1713559581.438715) can0 140#00000B0000000000
(1713559581.440397) can0 400#2880000000000075
(1713559581.440691) can0 551#000000000004C000
(1713559581.440929) can0 128#1388030000EC7828
(1713559581.441179) can0 12D#000000000000005F
(1713559581.441423) can0 12E#000000000000C02E
(1713559581.441672) can0 12F#F810022000000044
(1713559581.441913) can0 290#0000000200000057
(1713559581.442152) can0 410#2880008B9F6E8B4B
(1713559581.442377) can0 174#F67F005B27790E6F
(1713559581.442613) can0 178#0480013215930E7F
(1713559581.442854) can0 17C#008001004A690E80
(1713559581.443100) can0 552#00FFFFFFFFFFFF90
(1713559581.443363) can0 5D1#9958000200000000
(1713559581.443595) can0 5D2#7444540000000000
(1713559581.443838) can0 450#0055A0001B004A00
(1713559581.445499) can0 120#000000000700004F
(1713559581.445701) can0 121#000000000000005F
(1713559581.445944) can0 129#000000010000005B
(1713559581.450402) can0 400#2880000000000094
(1713559581.450645) can0 541#0440E800007FFF38
(1713559581.450889) can0 12F#F810032000000076
(1713559581.451135) can0 12D#000000000000006A
(1713559581.451384) can0 290#0000000200000062
(1713559581.451624) can0 410#2880008B9F6E8B7E
(1713559581.452076) can0 174#F87F005B21790F76
(1713559581.452307) can0 178#FE7F023011930F35
(1713559581.452543) can0 17C#0680010050690F59
(1713559581.459232) can0 140#00000B0000000000
(1713559581.459490) can0 550#48000C0001000049
(1713559581.460491) can0 400#28800000000000A1
(1713559581.460731) can0 12F#F80003200000009C
(1713559581.460965) can0 128#1388030000EC7842
(1713559581.461196) can0 12A#1428701C60580079
(1713559581.461442) can0 12D#000000000000008B
(1713559581.461687) can0 12E#000000000000C044
(1713559581.461946) can0 290#0000000200000083
(1713559581.462179) can0 174#F87F005B1C790060
(1713559581.462413) can0 178#FA7F03320F9300BB
(1713559581.462649) can0 17C#0A80010046690044
(1713559581.462891) can0 410#2880008B9F6E8B9F
(1713559581.463135) can0 551#000000000004C000
(1713559581.463397) can0 5A0#0000006244928076
(1713559581.463614) can0 5D1#9958000200000000
(1713559581.465604) can0 120#000000000700007A
(1713559581.465816) can0 121#000000000000006A
(1713559581.466057) can0 129#000000010000006E
(1713559581.470499) can0 400#28800000000000CB
(1713559581.470734) can0 410#2880008B9F6E8BAA
(1713559581.470982) can0 12D#00000000000000BE
(1713559581.471223) can0 12F#F8100220000000A5
(1713559581.471469) can0 290#00000002000000B6
(1713559581.472095) can0 174#F87F005B2279015C
(1713559581.472326) can0 178#F67F043312930116
(1713559581.472565) can0 17C#0880010037690124
(1713559581.473131) can0 541#0440E800007FFF52
(1713559581.478102) can0 4EA#0000000000000000
(1713559581.478341) can0 5B2#0800000000000000
(1713559581.478587) can0 310#FFFFFFFF7D7D0000
(1713559581.479757) can0 140#00000B0000000000
(1713559581.480589) can0 400#288000000000002A
(1713559581.480822) can0 128#1388030000EC7877
(1713559581.481067) can0 12D#00000000000000D4
(1713559581.481315) can0 12E#000000000000C071
(1713559581.481555) can0 12F#F8100320000000C8
(1713559581.481803) can0 290#00000002000000DC
(1713559581.482043) can0 410#2880008B9F6E8BC0
(1713559581.482287) can0 174#F87F005B377902EA
(1713559581.482515) can0 178#F27F05311593029F
(1713559581.482754) can0 17C#04800100216902A5
(1713559581.483000) can0 551#000000000004C000
(1713559581.483252) can0 5D1#9958000200000000
(1713559581.485701) can0 120#000000000700009B
(1713559581.485940) can0 121#000000000000008B
(1713559581.486140) can0 129#000000010000008F
(1713559581.490598) can0 400#2880000000000040
(1713559581.490841) can0 12F#F800032000000022
(1713559581.491087) can0 12D#0000000000000035
(1713559581.491343) can0 290#000000020000003D
(1713559581.491572) can0 410#2880008B9F6E8B21
(1713559581.491815) can0 541#0440E800007FFF67
(1713559581.492067) can0 552#00FFFFFFFFFFFFA5
(1713559581.492298) can0 174#F67F005B4B7903B4
(1713559581.492532) can0 178#EE7F0630179303A0
(1713559581.492774) can0 17C#00800100116903F9
(1713559581.493012) can0 450#0055A0001B004A00
(1713559581.500281) can0 140#00000B0000000000
(1713559581.500635) can0 410#2880008B9F6E8B4B
(1713559581.500871) can0 128#1388030000EC7896
(1713559581.501118) can0 12D#000000000000005F
(1713559581.501365) can0 12E#000000000000C090
(1713559581.501609) can0 12F#F810032000000043
(1713559581.501855) can0 290#0000000200000057
(1713559581.502101) can0 400#2880000000000075
(1713559581.502333) can0 174#F67F005B557904F6
(1713559581.502576) can0 178#F07F073112930435
(1713559581.502813) can0 17C#00800100136904A9
(1713559581.503058) can0 551#000000000004C000
(1713559581.503308) can0 5D1#9958000200000000
(1713559581.505793) can0 120#00000000070000AE
(1713559581.506037) can0 121#00000000000000BE
(1713559581.506278) can0 129#00000001000000BA
(1713559581.507948) can0 5D0#9958010200000000
(1713559581.508183) can0 5B1#008A9A6800000077
(1713559581.508422) can0 5CF#7444540000000000
(1713559581.509435) can0 550#48000C000100007C
(1713559581.510561) can0 410#2880008B9F6E8B7E
(1713559581.510807) can0 400#2880000000000094
(1713559581.511041) can0 12A#1428701C60580098
(1713559581.511288) can0 12D#000000000000006A
(1713559581.511532) can0 12F#F80002200000007A
(1713559581.511780) can0 290#0000000200000062
(1713559581.512022) can0 541#0440E800007FFF86
(1713559581.512254) can0 174#FA7F005B4E7905C8
(1713559581.512486) can0 178#F67F083807930517
(1713559581.512729) can0 17C#FC7F0100196905A0
(1713559581.520588) can0 410#2880008B9F6E8B9F
(1713559581.520819) can0 128#1388030000EC78A3
(1713559581.521064) can0 12D#000000000000008B
(1713559581.521309) can0 12E#000000000000C0A5
(1713559581.521554) can0 12F#F810032000000097
(1713559581.521802) can0 140#00000B0000000000
(1713559581.522053) can0 290#0000000200000083
(1713559581.522286) can0 174#FC7F005B42790636
(1713559581.522524) can0 178#FC7F0000F892069E
(1713559581.522771) can0 17C#FE7F01001C6906B4
(1713559581.523011) can0 400#28800000000000A1
(1713559581.523256) can0 540#0000001040009F00
(1713559581.523505) can0 551#000000000004C000
(1713559581.523744) can0 5B0#6342000000000096
(1713559581.523985) can0 5D1#9958000200000000
(1713559581.524233) can0 6B9#0020400000000000
(1713559581.524477) can0 5A2#1410140000000000
(1713559581.525887) can0 120#00000000070000C4
(1713559581.526131) can0 121#00000000000000D4
(1713559581.526373) can0 129#00000001000000D0
(1713559581.530508) can0 410#2880008B9F6E8BAA
(1713559581.530748) can0 541#0440E800007FFFB3
(1713559581.530996) can0 12D#00000000000000BE
(1713559581.531236) can0 12F#F8100320000000A2
(1713559581.531483) can0 290#00000002000000B6
(1713559581.531728) can0 400#28800000000000CB
(1713559581.532102) can0 174#FC7F005B3879076C
(1713559581.532344) can0 178#F87F0000F09207E6
(1713559581.532588) can0 17C#06800100266907FC
(1713559581.540484) can0 410#2880008B9F6E8BC0
(1713559581.540727) can0 12D#00000000000000D4
(1713559581.540962) can0 128#1388030000EC78C9
(1713559581.541207) can0 12E#000000000000C0CF
(1713559581.541447) can0 12F#F8000320000000C3
(1713559581.541697) can0 140#00000B0000000000
(1713559581.541993) can0 290#00000002000000DC
(1713559581.542226) can0 174#FC7F005B2D790846
(1713559581.542455) can0 178#F27F0152F89208C5
(1713559581.542692) can0 17C#0A8001003A6908EE
(1713559581.542940) can0 400#288000000000002A
(1713559581.543186) can0 551#000000000004C000
(1713559581.543446) can0 552#00FFFFFFFFFFFFCF
(1713559581.543690) can0 55A#0017160000000000
(1713559581.543936) can0 5D1#9958000200000000
(1713559581.544180) can0 5D2#7444540000000000
(1713559581.544424) can0 450#0055A0001B004A00
(1713559581.545986) can0 120#0000000007000025
(1713559581.546234) can0 121#0000000000000035
(1713559581.546478) can0 129#0000000100000031
(1713559581.550506) can0 410#2880008B9F6E8B21
(1713559581.550743) can0 541#0440E800007FFFD9
(1713559581.550983) can0 12F#F81002200000002E
(1713559581.551232) can0 12D#0000000000000035
(1713559581.551480) can0 290#000000020000003D
(1713559581.551725) can0 400#2880000000000040
(1713559581.552151) can0 174#F87F005B247909B1
(1713559581.552381) can0 178#F27F026F0A930981
(1713559581.552617) can0 17C#0C8001004869096B
(1713559581.559437) can0 550#48000C000100009D
(1713559581.560426) can0 410#2880008B9F6E8B4B
(1713559581.560673) can0 551#000000000004C000
(1713559581.560911) can0 128#1388030000EC7828
(1713559581.561144) can0 12A#1428701C605800AD
(1713559581.561394) can0 12D#000000000000005F
(1713559581.561638) can0 12E#000000000000C02E
(1713559581.561882) can0 12F#F810032000000043
(1713559581.562181) can0 140#00000B0000000000
(1713559581.562408) can0 174#EE7F005B1A790ADD
(1713559581.562645) can0 178#F87F036217930A76
(1713559581.562879) can0 17C#0C8001004D690AC5
(1713559581.563125) can0 290#0000000200000057
(1713559581.563399) can0 400#2880000000000075
(1713559581.563609) can0 5A0#0000006244928097
(1713559581.563847) can0 5D1#9958000200000000
(1713559581.566081) can0 120#000000000700004F
(1713559581.566329) can0 121#000000000000005F
(1713559581.566574) can0 129#000000010000005B
(1713559581.570463) can0 410#2880008B9F6E8B7E
(1713559581.570704) can0 541#0440E800007FFF38
(1713559581.570956) can0 12F#F80002200000007A
(1713559581.571196) can0 12D#000000000000006A
(1713559581.571446) can0 290#0000000200000062
