(1713559609.560736) can0 128#1388030000EC7877
(1713559609.560968) can0 12A#1028103C44580037
(1713559609.561204) can0 120#0000000802000078
(1713559609.561456) can0 121#000000000000006A
(1713559609.561707) can0 129#000000010000006E
(1713559609.561950) can0 12D#00000000000000D4
(1713559609.562197) can0 12E#000000000000C071
(1713559609.562429) can0 174#F87F005B2F790931
(1713559609.562660) can0 178#F27F0336179309C6
(1713559609.562893) can0 17C#FC7F010051690950
(1713559609.563142) can0 290#00000002000000DC
(1713559609.563395) can0 5A0#0000006244928043
(1713559609.565267) can0 410#2880008B9F6E8B4B
(1713559609.566058) can0 400#28800000000000CB
(1713559609.569400) can0 541#04404800007FFF62
(1713559609.570693) can0 12F#F800022000000025
(1713559609.570939) can0 12D#0000000000000035
(1713559609.571187) can0 290#000000020000003D
(1713559609.571439) can0 174#F47F005B30790A33
(1713559609.571667) can0 178#F47F04351A930A06
(1713559609.571906) can0 17C#0680010042690A2B
(1713559609.574712) can0 140#0000030000000000
(1713559609.575227) can0 410#2880008B9F6E8B7E
(1713559609.576093) can0 400#288000000000002A
(1713559609.576340) can0 6B9#0020400000000000
(1713559609.576583) can0 5A2#1410140000000000
(1713559609.579390) can0 551#000000000004C000
(1713559609.579639) can0 5D1#9958000200000000
(1713559609.580433) can0 12F#F800032000000048
(1713559609.580667) can0 128#1388030000EC7896
(1713559609.580918) can0 12D#000000000000005F
(1713559609.581163) can0 12E#000000000000C090
(1713559609.581408) can0 120#0000000802000099
(1713559609.581652) can0 121#000000000000008B
(1713559609.581895) can0 129#000000010000008F
(1713559609.582131) can0 174#EE7F005B30790BFF
(1713559609.582362) can0 178#F67F053018930B1B
(1713559609.582598) can0 17C#0E8001002D690B32
(1713559609.582845) can0 290#0000000200000057
(1713559609.585232) can0 410#2880008B9F6E8B9F
(1713559609.586176) can0 400#2880000000000040
(1713559609.589440) can0 541#04404800007FFF83
(1713559609.589692) can0 552#00FFFFFFFFFFFF71
(1713559609.589936) can0 450#0055A00013004A00
(1713559609.590700) can0 12F#F80002200000007A
(1713559609.590946) can0 12D#000000000000006A
(1713559609.591194) can0 290#0000000200000062
(1713559609.591450) can0 174#E87F005B2F790CE1
(1713559609.591681) can0 178#FA7F063112930CDF
(1713559609.591917) can0 17C#1680010026690C8A
(1713559609.595172) can0 410#2880008B9F6E8BAA
(1713559609.595423) can0 140#0000030000000000
(1713559609.596186) can0 400#2880000000000075
(1713559609.599740) can0 551#000000000004C000
(1713559609.599992) can0 5D1#9958000200000000
(1713559609.600476) can0 12F#F80003200000009C
(1713559609.600713) can0 128#1388030000EC78A3
(1713559609.600958) can0 12D#000000000000008B
(1713559609.601202) can0 12E#000000000000C0A5
(1713559609.601446) can0 120#00000008020000AC
(1713559609.601692) can0 121#00000000000000BE
(1713559609.601935) can0 129#00000001000000BA
(1713559609.602165) can0 174#E47F005B2C790DCB
(1713559609.602399) can0 178#FA7F07310F930D35
(1713559609.602635) can0 17C#1680010032690D89
(1713559609.602887) can0 290#0000000200000083
(1713559609.605198) can0 410#2880008B9F6E8BC0
(1713559609.606288) can0 400#2880000000000094
(1713559609.609441) can0 541#04404800007FFFB6
(1713559609.609681) can0 550#48000C0001000023
(1713559609.610499) can0 5D0#9958000200000000
(1713559609.610735) can0 5B1#008A9A6800000042
(1713559609.610971) can0 12A#1028103C4458005D
(1713559609.611217) can0 12D#00000000000000BE
(1713559609.611461) can0 12F#F8000220000000AE
(1713559609.611687) can0 174#E47F005B2A790EE9
(1713559609.611917) can0 178#FE7F083112930E9A
(1713559609.612166) can0 17C#0C8001003D690EF9
(1713559609.612406) can0 290#00000002000000B6
(1713559609.612642) can0 5CF#7444540000000000
(1713559609.615172) can0 410#2880008B9F6E8B21
(1713559609.615802) can0 140#0000030000000000
(1713559609.616338) can0 400#28800000000000A1
(1713559609.619388) can0 551#000000000004C000
(1713559609.619636) can0 5D1#9958000200000000
(1713559609.620181) can0 4EA#0000000000000000
(1713559609.620426) can0 5B2#0800000000000000
(1713559609.620662) can0 128#1388030000EC78C9
(1713559609.620907) can0 12D#00000000000000D4
(1713559609.621151) can0 12E#000000000000C0CF
(1713559609.621391) can0 12F#F8000320000000C3
(1713559609.621637) can0 120#00000008020000C6
(1713559609.621881) can0 121#00000000000000D4
(1713559609.622124) can0 129#00000001000000D0
(1713559609.622356) can0 174#E67F005B30790F59
(1713559609.622592) can0 178#0080093012930FD1
(1713559609.622836) can0 17C#0080010037690F50
(1713559609.623084) can0 290#00000002000000DC
(1713559609.623340) can0 310#FFFFFFFF7D7D0000
(1713559609.625171) can0 410#2880008B9F6E8B4B
(1713559609.626393) can0 400#28800000000000CB
(1713559609.629443) can0 541#04404800007FFFDC
(1713559609.630711) can0 12F#F800022000000025
(1713559609.630957) can0 12D#0000000000000035
(1713559609.631207) can0 290#000000020000003D
(1713559609.631485) can0 174#EA7F005B3B7900D9
(1713559609.631718) can0 178#00800A380A93005C
(1713559609.631960) can0 17C#FA7F01002169003E
(1713559609.635152) can0 410#2880008B9F6E8B7E
(1713559609.636324) can0 140#0000030000000000
(1713559609.636567) can0 400#288000000000002A
(1713559609.639409) can0 551#000000000004C000
(1713559609.639663) can0 552#00FFFFFFFFFFFF90
(1713559609.639909) can0 5D1#9958000200000000
(1713559609.640153) can0 5D2#7444540000000000
(1713559609.640397) can0 450#0055A00013004A00
(1713559609.640636) can0 128#1388030000EC7828
(1713559609.640886) can0 12D#000000000000005F
(1713559609.641129) can0 12E#000000000000C02E
(1713559609.641371) can0 12F#F800032000000048
(1713559609.641616) can0 120#0000000802000027
(1713559609.641863) can0 121#0000000000000035
(1713559609.642108) can0 129#0000000100000031
(1713559609.642342) can0 174#F07F005B3F790113
(1713559609.642584) can0 178#0080000001930191
(1713559609.642826) can0 17C#008001001069014C
(1713559609.643072) can0 290#0000000200000057
(1713559609.645068) can0 410#2880008B9F6E8B9F
(1713559609.646444) can0 400#2880000000000040
(1713559609.649439) can0 541#04404800007FFF3D
(1713559609.650773) can0 12F#F80002200000007A
(1713559609.651019) can0 12D#000000000000006A
(1713559609.651267) can0 290#0000000200000062
(1713559609.651504) can0 174#F07F005B3B790232
(1713559609.651740) can0 178#FC7F0130FF920265
(1713559609.651977) can0 17C#0C8001000B690248
(1713559609.655089) can0 410#2880008B9F6E8BAA
(1713559609.656536) can0 400#2880000000000075
(1713559609.656845) can0 140#0000030000000000
(1713559609.657182) can0 540#0000001040009F00
(1713559609.657424) can0 5B0#6342000000000042
(1713559609.659392) can0 551#000000000004C000
(1713559609.659634) can0 550#48000C0001000049
(1713559609.659875) can0 5D1#9958000200000000
(1713559609.660488) can0 12F#F80003200000009C
(1713559609.660723) can0 128#1388030000EC7842
(1713559609.660961) can0 12A#1028103C44580068
(1713559609.661207) can0 12D#000000000000008B
(1713559609.661451) can0 12E#000000000000C044
(1713559609.661695) can0 120#000000080200004D
(1713559609.661943) can0 121#000000000000005F
(1713559609.662187) can0 129#000000010000005B
(1713559609.662421) can0 174#EE7F005B3B790397
(1713559609.662662) can0 178#F87F000004930350
(1713559609.662900) can0 17C#16800100216903BB
(1713559609.663152) can0 290#0000000200000083
(1713559609.663391) can0 5A0#0000006244928076
(1713559609.665014) can0 410#2880008B9F6E8BC0
(1713559609.666539) can0 400#2880000000000094
(1713559609.669431) can0 541#04404800007FFF57
(1713559609.670727) can0 12F#F8000220000000AE
(1713559609.670975) can0 12D#00000000000000BE
(1713559609.671221) can0 290#00000002000000B6
(1713559609.671501) can0 174#EE7F005B46790409
(1713559609.671732) can0 178#FA7F01530C9304D4
(1713559609.671967) can0 17C#168001004869043B
(1713559609.675031) can0 410#2880008B9F6E8B21
(1713559609.676352) can0 6B9#0020400000000000
(1713559609.676597) can0 5A2#1410140000000000
(1713559609.676847) can0 400#28800000000000A1
(1713559609.677363) can0 140#0000030000000000
(1713559609.679437) can0 551#000000000004C000
(1713559609.679685) can0 5D1#9958000200000000
(1713559609.680474) can0 12F#F8000320000000C3
(1713559609.680696) can0 128#1388030000EC7877
(1713559609.680905) can0 12D#00000000000000D4
(1713559609.681152) can0 12E#000000000000C071
(1713559609.681400) can0 290#00000002000000DC
(1713559609.681634) can0 174#F07F005B587905BD
(1713559609.681881) can0 120#0000000802000078
(1713559609.682133) can0 121#000000000000006A
(1713559609.682381) can0 129#000000010000006E
(1713559609.682613) can0 178#FA7F024314930546
(1713559609.682851) can0 17C#0E8001005E690550
(1713559609.684959) can0 410#2880008B9F6E8B4B
(1713559609.686634) can0 400#28800000000000CB
(1713559609.689401) can0 541#04404800007FFF62
(1713559609.689655) can0 552#00FFFFFFFFFFFFA5
(1713559609.689898) can0 450#0055A00013004A00
(1713559609.690664) can0 12F#F800022000000025
(1713559609.690959) can0 12D#0000000000000035
(1713559609.691206) can0 290#000000020000003D
(1713559609.691507) can0 174#F27F005B6179068B
(1713559609.691737) can0 178#FA7F03321C930661
(1713559609.691973) can0 17C#0680010055690625
(1713559609.694956) can0 410#2880008B9F6E8B7E
(1713559609.696729) can0 400#288000000000002A
(1713559609.697883) can0 140#0000030000000000
(1713559609.699435) can0 551#000000000004C000
(1713559609.699685) can0 5D1#9958000200000000
(1713559609.700532) can0 12F#F800032000000048
(1713559609.700764) can0 128#1388030000EC7896
(1713559609.701014) can0 12D#000000000000005F
(1713559609.701260) can0 12E#000000000000C090
(1713559609.701506) can0 290#0000000200000057
(1713559609.701738) can0 174#EE7F005B5879073F
(1713559609.701982) can0 120#0000000802000099
(1713559609.702226) can0 121#000000000000008B
(1713559609.702469) can0 129#000000010000008F
(1713559609.702704) can0 178#F67F0430229307CA
(1713559609.702951) can0 17C#008001003D6907B7
(1713559609.704896) can0 410#2880008B9F6E8B9F
(1713559609.706735) can0 400#2880000000000040
(1713559609.709390) can0 541#04404800007FFF83
(1713559609.709634) can0 550#48000C000100007C
(1713559609.710458) can0 5D0#9958000200000000
(1713559609.710702) can0 12F#F80002200000007A
(1713559609.710938) can0 12A#1028103C44580089
(1713559609.711232) can0 12D#000000000000006A
(1713559609.711482) can0 290#0000000200000062
(1713559609.711711) can0 174#EA7F005B4B790879
(1713559609.711941) can0 178#F67F05301D9308B5
(1713559609.712178) can0 17C#FA7F01002F6908DF
(1713559609.712415) can0 5B1#008A9A6800000077
(1713559609.712654) can0 5CF#7444540000000000
(1713559609.714939) can0 410#2880008B9F6E8BAA
(1713559609.716824) can0 400#2880000000000075
(1713559609.718407) can0 140#0000030000000000
(1713559609.719430) can0 551#000000000004C000
(1713559609.719677) can0 5D1#9958000200000000
(1713559609.720038) can0 4EA#0000000000000000
(1713559609.720279) can0 5B2#0800000000000000
(1713559609.720519) can0 12F#F80003200000009C
(1713559609.720753) can0 128#1388030000EC78A3
(1713559609.720999) can0 12D#000000000000008B
(1713559609.721243) can0 12E#000000000000C0A5
(1713559609.721495) can0 290#0000000200000083
(1713559609.721729) can0 174#EA7F005C3F7909DE
(1713559609.721963) can0 178#FA7F06320C93091D
(1713559609.722207) can0 120#00000008020000AC
(1713559609.722454) can0 121#00000000000000BE
(1713559609.722696) can0 129#00000001000000BA
(1713559609.722931) can0 17C#F67F01002C6909F5
(1713559609.723177) can0 310#FFFFFFFF7D7D0000
(1713559609.724896) can0 410#2880008B9F6E8BC0
(1713559609.726828) can0 400#2880000000000094
(1713559609.729390) can0 541#04404800007FFFB6
(1713559609.730662) can0 12F#F8000220000000AE
(1713559609.730911) can0 12D#00000000000000BE
(1713559609.731156) can0 290#00000002000000B6
(1713559609.731466) can0 174#EE7F005C32790A15
(1713559609.731706) can0 178#00800737FE920A8C
(1713559609.731944) can0 17C#F87F01002C690AD3
(1713559609.734940) can0 410#2880008B9F6E8B21
(1713559609.736921) can0 400#28800000000000A1
(1713559609.738928) can0 140#0000030000000000
(1713559609.739452) can0 551#000000000004C000
(1713559609.739706) can0 552#00FFFFFFFFFFFFCF
(1713559609.739953) can0 5D1#9958000200000000
(1713559609.740195) can0 5D2#7444540000000000
(1713559609.740439) can0 450#0055A00013004A00
(1713559609.740675) can0 128#1388030000EC78C9
(1713559609.740926) can0 12D#00000000000000D4
(1713559609.741174) can0 12E#000000000000C0CF
(1713559609.741408) can0 12F#F8000320000000C3
(1713559609.741632) can0 174#F47F005C2D790B47
(1713559609.741867) can0 178#0280085F06930BDD
(1713559609.742113) can0 120#00000008020000C6
(1713559609.742358) can0 121#00000000000000D4
(1713559609.742600) can0 129#00000001000000D0
(1713559609.742838) can0 17C#FC7F01002A690BA2
(1713559609.743085) can0 290#00100002000000D7
(1713559609.744893) can0 410#2880008B9F6E8B4B
(1713559609.746927) can0 400#28800000000000CB
(1713559609.749379) can0 541#04404800007FFFDC
(1713559609.750714) can0 12F#F800022000000025
(1713559609.750961) can0 12D#0000000000000035
(1713559609.751205) can0 290#0010000200000036
(1713559609.751472) can0 174#F47F005B2F790CE3
(1713559609.751703) can0 178#FE7F093014930C52
(1713559609.751940) can0 17C#FA7F010029690CAE
(1713559609.754945) can0 410#2880008B9F6E8B7E
(1713559609.757022) can0 400#288000000000002A
(1713559609.757702) can0 540#0000001040009F00
(1713559609.757942) can0 5B0#6342000000000077
(1713559609.759438) can0 551#000000000004C000
(1713559609.759686) can0 140#0000030000000000
(1713559609.759928) can0 550#48000C000100009D
(1713559609.760169) can0 5D1#9958000200000000
(1713559609.760542) can0 12F#F800032000000048
(1713559609.760780) can0 128#1388030000EC7828
(1713559609.761019) can0 12A#1028103C445800BC
(1713559609.761276) can0 12D#000000000000005F
(1713559609.761514) can0 12E#000000000000C02E
(1713559609.761743) can0 174#F67F005B34790DDC
(1713559609.761975) can0 178#FA7F0A371C930D60
(1713559609.762215) can0 17C#F67F010026690D8E
(1713559609.762457) can0 120#0000000802000027
(1713559609.762706) can0 121#0000000000000035
(1713559609.762949) can0 129#0000000100000031
(1713559609.763195) can0 290#001000020000005C
(1713559609.763434) can0 5A0#0000006244928097
(1713559609.764942) can0 410#2880008B9F6E8B9F
(1713559609.767019) can0 400#2880000000000040
(1713559609.769379) can0 541#04404800007FFF3D
(1713559609.770678) can0 12F#F80002200000007A
(1713559609.770924) can0 12D#000000000000006A
(1713559609.771168) can0 290#0010000200000069
(1713559609.771482) can0 174#F67F005B38790EF1
(1713559609.771713) can0 178#FA7F0B311A930E41
(1713559609.771953) can0 17C#F87F010026690EA8
(1713559609.774941) can0 410#2880008B9F6E8BAA
(1713559609.776526) can0 6B9#0020400000000000
(1713559609.776765) can0 5A2#1410140000000000
(1713559609.777111) can0 400#2880000000000075
(1713559609.779432) can0 551#000000000004C000
(1713559609.779679) can0 5D1#9958000200000000
(1713559609.779976) can0 140#0000030000000000
(1713559609.780480) can0 12F#F80003200000009C
(1713559609.780714) can0 128#1388030000EC7842
(1713559609.780960) can0 12D#000000000000008B
(1713559609.781204) can0 12E#000000000000C044
(1713559609.781456) can0 290#0000000200000083
(1713559609.781697) can0 174#F27F005B38790F85
(1713559609.781926) can0 178#FC7F000017930F31
(1713559609.782165) can0 17C#FE7F01002D690FE6
(1713559609.782408) can0 120#000000080200004D
(1713559609.782657) can0 121#000000000000005F
(1713559609.782903) can0 129#000000010000005B
(1713559609.784944) can0 410#2880008B9F6E8BC0
(1713559609.787106) can0 400#2880000000000094
(1713559609.790684) can0 12F#F8000220000000AE
(1713559609.790931) can0 12D#00000000000000BE
(1713559609.791177) can0 290#00000002000000B6
(1713559609.791488) can0 174#F27F005B357900BB
(1713559609.791724) can0 178#FC7F01371193007E
(1713559609.791967) can0 17C#0480010037690082
(1713559609.792208) can0 541#04404800007FFF57
(1713559609.792464) can0 552#00FFFFFFFFFFFF2E
(1713559609.792708) can0 450#0055A00013004A00
(1713559609.794940) can0 410#2880008B9F6E8B21
(1713559609.797211) can0 400#28800000000000A1
(1713559609.799429) can0 551#000000000004C000
(1713559609.799677) can0 5D1#9958000200000000
(1713559609.800495) can0 140#0000030000000000
(1713559609.800727) can0 128#1388030000EC7877
(1713559609.800972) can0 12D#00000000000000D4
(1713559609.801219) can0 12E#000000000000C071
(1713559609.801459) can0 12F#F8000320000000C3
(1713559609.801689) can0 174#F27F005C347901DD
(1713559609.801930) can0 178#FE7F022E0A9301DB
(1713559609.802163) can0 17C#08800100346901A8
(1713559609.802408) can0 120#0000000802000078
(1713559609.802660) can0 121#000000000000006A
(1713559609.802908) can0 129#000000010000006E
(1713559609.803152) can0 290#00200002000000CA
(1713559609.804943) can0 410#2880008B9F6E8B4B
(1713559609.807203) can0 400#28800000000000CB
(1713559609.809379) can0 541#04404800007FFF62
(1713559609.809622) can0 550#48000C00010000A8
(1713559609.810466) can0 5D0#9958000200000000
(1713559609.810707) can0 12F#F800022000000025
(1713559609.810941) can0 12A#1028103C445800D6
(1713559609.811187) can0 12D#0000000000000035
(1713559609.811434) can0 290#002000020000002B
(1713559609.811667) can0 174#F07F005B347902B4
(1713559609.811906) can0 178#FE7F0331FF920296
(1713559609.812144) can0 17C#068001003469028E
(1713559609.812379) can0 5B1#008A9A6800000096
(1713559609.812617) can0 5CF#7444540000000000
(1713559609.814939) can0 410#2880008B9F6E8B7E
(1713559609.817310) can0 400#288000000000002A
(1713559609.819428) can0 551#000000000004C000
(1713559609.819674) can0 5D1#9958000200000000
(1713559609.819923) can0 4EA#0000000000000000
(1713559609.820169) can0 5B2#0800000000000000
(1713559609.820417) can0 310#FFFFFFFF7D7D0000
(1713559609.820649) can0 128#1388030000EC7896
(1713559609.820899) can0 12D#000000000000005F
(1713559609.821146) can0 12E#000000000000C090
(1713559609.821387) can0 12F#F800032000000048
(1713559609.821637) can0 140#0000030000000000
(1713559609.821872) can0 174#F07F005B347903A9
(1713559609.822113) can0 178#FA7F0430F49203F4
(1713559609.822346) can0 17C#0480010042690364
(1713559609.822588) can0 120#0000000802000099
(1713559609.822832) can0 121#000000000000008B
(1713559609.823074) can0 129#000000010000008F
(1713559609.823359) can0 290#0000000200000057
(1713559609.824913) can0 410#2880008B9F6E8B9F
(1713559609.827303) can0 400#2880000000000040
(1713559609.829385) can0 541#04404800007FFF83
(1713559609.830690) can0 12F#F80002200000007A
(1713559609.830935) can0 12D#000000000000006A
(1713559609.831183) can0 290#0000000200000062
(1713559609.831516) can0 174#EE7F005B34790442
(1713559609.831753) can0 178#F27F0000F49204AF
(1713559609.831991) can0 17C#048001005B6904AC
(1713559609.834832) can0 410#2880008B9F6E8BAA
(1713559609.837415) can0 400#2880000000000075
(1713559609.839450) can0 551#000000000004C000
(1713559609.839702) can0 552#00FFFFFFFFFFFF44
(1713559609.839948) can0 5D1#9958000200000000
(1713559609.840192) can0 5D2#7444540000000000
(1713559609.840438) can0 450#0055A00013004A00
(1713559609.840674) can0 128#1388030000EC78A3
(1713559609.840920) can0 12D#000000000000008B
(1713559609.841164) can0 12E#000000000000C0A5
(1713559609.841407) can0 12F#F80003200000009C
(1713559609.841654) can0 140#0000030000000000
(1713559609.841884) can0 174#EE7F005C35790524
(1713559609.842118) can0 178#EC7F0138FF920513
(1713559609.842356) can0 17C#06800100606905A3
(1713559609.842609) can0 290#0000000200000083
(1713559609.842852) can0 120#00000008020000AC
(1713559609.843099) can0 121#00000000000000BE
(1713559609.843358) can0 129#00000001000000BA
(1713559609.844861) can0 410#2880008B9F6E8BC0
(1713559609.847452) can0 400#2880000000000094
(1713559609.849376) can0 541#04404800007FFFB6
(1713559609.850705) can0 12F#F8000220000000AE
(1713559609.850954) can0 12D#00000000000000BE
(1713559609.851200) can0 290#00000002000000B6
(1713559609.851515) can0 174#EE7F005B377906F4
(1713559609.851749) can0 178#EE7F02320C9306C3
(1713559609.851986) can0 17C#088001004A6906BA
(1713559609.854778) can0 410#2880008B9F6E8B21
(1713559609.857454) can0 400#28800000000000A1
(1713559609.858102) can0 540#0000001040009F00
(1713559609.858392) can0 5B0#6342000000000096
(1713559609.859432) can0 551#000000000004C000
(1713559609.859672) can0 550#48000C00010000C2
(1713559609.859913) can0 5D1#9958000200000000
(1713559609.860533) can0 12F#F8000320000000C3
(1713559609.860769) can0 128#1388030000EC78C9
(1713559609.861005) can0 12A#1028103C44580037
(1713559609.861250) can0 12D#00000000000000D4
(1713559609.861494) can0 12E#000000000000C0CF
(1713559609.861726) can0 174#EC7F005C357907A4
(1713559609.861960) can0 178#F47F0332119307F8
(1713559609.862212) can0 140#0000030000000000
(1713559609.862452) can0 17C#08800100386907EC
(1713559609.862700) can0 290#00000002000000DC
(1713559609.862946) can0 120#00000008020000C6
(1713559609.863190) can0 121#00000000000000D4
(1713559609.863435) can0 129#00000001000000D0
(1713559609.863671) can0 5A0#00000062449280A2
(1713559609.864803) can0 410#2880008B9F6E8B4B
(1713559609.867551) can0 400#28800000000000CB
(1713559609.869419) can0 541#04404800007FFFDC
(1713559609.870769) can0 12F#F800022000000025
(1713559609.871015) can0 12D#0000000000000035
(1713559609.871263) can0 290#000000020000003D
(1713559609.871517) can0 174#E87F005B32790808
(1713559609.871751) can0 178#F87F043509930813
(1713559609.871986) can0 17C#0880010038690857
(1713559609.874729) can0 410#2880008B9F6E8B7E
(1713559609.876657) can0 6B9#0020400000000000
(1713559609.876900) can0 5A2#1410140000000000
(1713559609.877551) can0 400#288000000000002A
(1713559609.879429) can0 551#000000000004C000
(1713559609.879676) can0 5D1#9958000200000000
(1713559609.880482) can0 12F#F800032000000048
(1713559609.880719) can0 128#1388030000EC7828
(1713559609.880969) can0 12D#000000000000005F
(1713559609.881213) can0 12E#000000000000C02E
(1713559609.881459) can0 290#0000000200000057
(1713559609.881687) can0 174#E67F005B34790911
(1713559609.881925) can0 178#FE7F0000FC920999
(1713559609.882161) can0 17C#088001003B6909C6
(1713559609.882580) can0 140#0000030000000000
(1713559609.882824) can0 120#0000000802000027
(1713559609.883075) can0 121#0000000000000035
(1713559609.883316) can0 129#0000000100000031
(1713559609.884447) can0 410#2880008B9F6E8B9F
(1713559609.887651) can0 400#2880000000000040
(1713559609.889450) can0 541#04404800007FFF3D
(1713559609.889703) can0 552#00FFFFFFFFFFFF71
(1713559609.889951) can0 450#0055A00013004A00
(1713559609.890711) can0 12F#F80002200000007A
(1713559609.890957) can0 12D#000000000000006A
(1713559609.891205) can0 290#0000000200000062
(1713559609.891530) can0 174#E67F005B3B790AB0
(1713559609.891766) can0 178#00800132F6920A32
(1713559609.892004) can0 17C#0A8001003D690A5E
(1713559609.894368) can0 410#2880008B9F6E8BAA
(1713559609.897647) can0 400#2880000000000075
(1713559609.899429) can0 551#000000000004C000
(1713559609.899677) can0 5D1#9958000200000000
(1713559609.900523) can0 12F#F80003200000009C
(1713559609.900757) can0 128#1388030000EC7842
(1713559609.901003) can0 12D#000000000000008B
(1713559609.901246) can0 12E#000000000000C044
(1713559609.901499) can0 290#0000000200000083
(1713559609.901731) can0 174#E67F005B40790B65
(1713559609.901962) can0 178#FC7F0230F6920BAD
(1713559609.902199) can0 17C#0A8001003B690B46
(1713559609.902849) can0 120#000000080200004D
(1713559609.903097) can0 121#000000000000005F
(1713559609.903347) can0 129#000000010000005B
(1713559609.903593) can0 140#0000030000000000
(1713559609.904392) can0 410#2880008B9F6E8BC0
(1713559609.907739) can0 400#2880000000000094
(1713559609.909425) can0 541#04404800007FFF57
(1713559609.909668) can0 550#48000C0001000023
(1713559609.910524) can0 5D0#9958000200000000
(1713559609.910766) can0 12F#F8000220000000AE
(1713559609.911000) can0 12A#1028103C4458005D
(1713559609.911249) can0 12D#00000000000000BE
(1713559609.911496) can0 290#00000002000000B6
(1713559609.911690) can0 174#E87F005B3B790CFF
(1713559609.911914) can0 178#FE7F0332F6920C09
(1713559609.912149) can0 17C#0880010038690C23
(1713559609.912385) can0 5B1#008A9A68000000A3
(1713559609.912623) can0 5CF#7444540000000000
(1713559609.914314) can0 410#2880008B9F6E8B21
(1713559609.917743) can0 400#28800000000000A1
(1713559609.919422) can0 551#000000000004C000
(1713559609.919667) can0 4EA#0000000000000000
(1713559609.919913) can0 5B2#0800000000000000
(1713559609.920161) can0 310#FFFFFFFF7D7D0000
(1713559609.920399) can0 5D1#9958000200000000
(1713559609.920635) can0 128#1388030000EC7877
(1713559609.920878) can0 12D#00000000000000D4
(1713559609.921125) can0 12E#000000000000C071
(1713559609.921365) can0 12F#F8000320000000C3
(1713559609.921614) can0 290#00000002000000DC
(1713559609.921841) can0 174#EC7F005B34790D0D
(1713559609.922077) can0 178#04800433F4920D49
(1713559609.922316) can0 17C#0A8001003A690D87
(1713559609.922950) can0 120#0000000802000078
(1713559609.923202) can0 121#000000000000006A
(1713559609.923452) can0 129#000000010000006E
(1713559609.923701) can0 140#0000030000000000
(1713559609.924336) can0 410#2880008B9F6E8B4B
(1713559609.927835) can0 400#28800000000000CB
(1713559609.929430) can0 541#04404800007FFF62
(1713559609.930709) can0 12F#F800022000000025
(1713559609.930956) can0 12D#0000000000000035
(1713559609.931203) can0 290#000000020000003D
(1713559609.931586) can0 174#F07F005B2C790E3C
(1713559609.931783) can0 178#08800531F1920E11
(1713559609.932010) can0 17C#0E80010040690E8E
(1713559609.934263) can0 410#2880008B9F6E8B7E
(1713559609.937842) can0 400#288000000000002A
(1713559609.939448) can0 551#000000000004C000
(1713559609.939700) can0 552#00FFFFFFFFFFFF90
(1713559609.939946) can0 5D1#9958000200000000
(1713559609.940189) can0 5D2#7444540000000000
(1713559609.940434) can0 450#0055A00013004A00
(1713559609.940672) can0 128#1388030000EC7896
(1713559609.940919) can0 12D#000000000000005F
(1713559609.941167) can0 12E#000000000000C090
(1713559609.941406) can0 12F#F800032000000048
(1713559609.941639) can0 174#F47F005C2A790FB9
(1713559609.941874) can0 178#02800630F1920F47
(1713559609.942111) can0 17C#1080010046690F2E
(1713559609.942356) can0 290#0020000200000041
(1713559609.943041) can0 120#0000000802000099
(1713559609.943285) can0 121#000000000000008B
(1713559609.943528) can0 129#000000010000008F
(1713559609.944145) can0 140#0000030000000000
(1713559609.944385) can0 410#2880008B9F6E8B9F
(1713559609.947944) can0 400#2880000000000040
(1713559609.949425) can0 541#04404800007FFF83
(1713559609.950760) can0 12F#F80002200000007A
(1713559609.951006) can0 12D#000000000000006A
(1713559609.951252) can0 290#0020000200000074
(1713559609.951592) can0 174#F27F005B2D7900AF
(1713559609.951788) can0 178#F87F073101930007
(1713559609.952016) can0 17C#0C8001004369001E
(1713559609.954207) can0 410#2880008B9F6E8BAA
(1713559609.957938) can0 400#2880000000000075
(1713559609.958583) can0 540#0000001040009F00
(1713559609.958825) can0 5B0#63420000000000A3
(1713559609.959389) can0 551#000000000004C000
(1713559609.959671) can0 550#48000C0001000049
(1713559609.959910) can0 5D1#9958000200000000
(1713559609.960536) can0 12F#F80003200000009C
(1713559609.960775) can0 128#1388030000EC78A3
(1713559609.961011) can0 12A#1028103C44580068
(1713559609.961256) can0 12D#000000000000008B
(1713559609.961499) can0 12E#000000000000C0A5
(1713559609.961730) can0 174#EE7F005B3479012B
(1713559609.961965) can0 178#F47F0838159301C2
(1713559609.962204) can0 17C#048001003769019F
(1713559609.962456) can0 290#0000000200000083
(1713559609.962693) can0 5A0#00000062449280C8
(1713559609.963139) can0 120#00000008020000AC
(1713559609.963391) can0 121#00000000000000BE
(1713559609.963630) can0 129#00000001000000BA
(1713559609.964232) can0 410#2880008B9F6E8BC0
(1713559609.964666) can0 140#0000030000000000
(1713559609.968041) can0 400#2880000000000094
(1713559609.969420) can0 541#04404800007FFFB6
(1713559609.970724) can0 12F#F8000220000000AE
(1713559609.970972) can0 12D#00000000000000BE
(1713559609.971219) can0 290#00000002000000B6
(1713559609.971597) can0 174#EA7F005B3B7902E3
(1713559609.971830) can0 178#F67F00001F9302D4
(1713559609.972023) can0 17C#FA7F010021690204
(1713559609.974155) can0 410#2880008B9F6E8B21
(1713559609.976844) can0 6B9#0020400000000000
(1713559609.977088) can0 5A2#1410140000000000
(1713559609.978036) can0 400#28800000000000A1
(1713559609.979376) can0 551#000000000004C000
(1713559609.979673) can0 5D1#9958000200000000
(1713559609.980480) can0 12F#F8000320000000C3
(1713559609.980715) can0 128#1388030000EC78C9
(1713559609.980961) can0 12D#00000000000000D4
(1713559609.981204) can0 12E#000000000000C0CF
(1713559609.981451) can0 290#00000002000000DC
(1713559609.981685) can0 174#E87F005B45790305
(1713559609.981919) can0 178#F67F000018930343
(1713559609.982160) can0 17C#F87F01001169038B
(1713559609.983232) can0 120#00000008020000C6
(1713559609.983479) can0 121#00000000000000D4
(1713559609.983719) can0 129#00000001000000D0
(1713559609.984180) can0 410#2880008B9F6E8B4B
(1713559609.985187) can0 140#0000030000000000
(1713559609.988127) can0 400#28800000000000CB
(1713559609.989442) can0 541#04404800007FFFDC
(1713559609.989697) can0 552#00FFFFFFFFFFFFA5
(1713559609.989943) can0 450#0055A00013004A00
(1713559609.990758) can0 12F#F800022000000025
(1713559609.991003) can0 12D#0000000000000035
(1713559609.991251) can0 290#000000020000003D
(1713559609.991607) can0 174#EA7F005B46790460
(1713559609.991836) can0 178#F67F01521193046F
(1713559609.992067) can0 17C#F87F010010690457
(1713559609.994119) can0 410#2880008B9F6E8B7E
(1713559609.998135) can0 400#288000000000002A
(1713559609.999377) can0 551#000000000004C000
(1713559609.999685) can0 5D1#9958000200000000
(1713559610.000481) can0 12F#F800032000000048
(1713559610.000728) can0 128#1388030000EC7828
(1713559610.000969) can0 12D#000000000000005F
(1713559610.001214) can0 12E#000000000000C02E
(1713559610.001458) can0 290#0000000200000057
(1713559610.001691) can0 174#EE7F005C407905E5
(1713559610.001934) can0 178#F87F026F0D9305FF
(1713559610.002163) can0 17C#FC7F01001B6905A3
(1713559610.003375) can0 120#0000000802000027
(1713559610.003593) can0 121#0000000000000035
(1713559610.003831) can0 129#0000000100000031
(1713559610.004160) can0 410#2880008B9F6E8B9F
(1713559610.005711) can0 140#0000030000000000
(1713559610.008231) can0 400#2880000000000040
(1713559610.009428) can0 541#04404800007FFF3D
(1713559610.009669) can0 550#48000C000100007C
(1713559610.010545) can0 5D0#9958000200000000
(1713559610.010789) can0 12F#F80002200000007A
(1713559610.011025) can0 12A#1028103C44580089
(1713559610.011271) can0 12D#000000000000006A
(1713559610.011521) can0 290#0000000200000062
(1713559610.011750) can0 174#F27F005B3A790673
(1713559610.011983) can0 178#F67F0362099306FA
(1713559610.012204) can0 17C#FE7F010024690690
(1713559610.012408) can0 5B1#008A9A68000000C9
(1713559610.012646) can0 5CF#7444540000000000
(1713559610.014074) can0 410#2880008B9F6E8BAA
(1713559610.018229) can0 400#2880000000000075
(1713559610.019350) can0 4EA#0000000000000000
(1713559610.019586) can0 551#000000000004C000
(1713559610.019882) can0 5B2#0800000000000000
(1713559610.020128) can0 310#FFFFFFFF7D7D0000
(1713559610.020368) can0 5D1#9958000200000000
(1713559610.020602) can0 128#1388030000EC7842
(1713559610.020848) can0 12D#000000000000008B
(1713559610.021094) can0 12E#000000000000C044
(1713559610.021332) can0 12F#F80003200000009C
(1713559610.021584) can0 290#0000000200000083
(1713559610.021818) can0 174#F47F005B347907B4
(1713559610.022060) can0 178#F87F04650493079C
(1713559610.022305) can0 17C#FC7F01002F6907B7
(1713559610.023433) can0 120#000000080200004D
(1713559610.023678) can0 121#000000000000005F
(1713559610.023923) can0 129#000000010000005B
(1713559610.024163) can0 410#2880008B9F6E8BC0
(1713559610.026232) can0 140#0000030000000000
(1713559610.028354) can0 400#2880000000000094
(1713559610.029425) can0 541#04404800007FFF57
(1713559610.030718) can0 12F#F8000220000000AE
(1713559610.030966) can0 12D#00000000000000BE
(1713559610.031212) can0 290#00000002000000B6
(1713559610.031616) can0 174#F47F005B2F790897
(1713559610.031851) can0 178#FC7F05720A9308FC
(1713559610.032090) can0 17C#FC7F010037690818
(1713559610.034021) can0 410#2880008B9F6E8B21
(1713559610.038328) can0 400#28800000000000A1
(1713559610.039394) can0 551#000000000004C000
(1713559610.039648) can0 552#00FFFFFFFFFFFFCF
(1713559610.039944) can0 5D1#9958000200000000
(1713559610.040188) can0 5D2#7444540000000000
(1713559610.040432) can0 450#0055A00013004A00
(1713559610.040666) can0 128#1388030000EC7877
(1713559610.040910) can0 12D#00000000000000D4
(1713559610.041162) can0 12E#000000000000C071
(1713559610.041400) can0 12F#F8000320000000C3
(1713559610.041647) can0 290#00000002000000DC
(1713559610.041876) can0 174#F47F005C2F79097E
(1713559610.042111) can0 178#FA7F067417930978
(1713559610.042347) can0 17C#FE7F01003A69093A
(1713559610.043544) can0 120#0000000802000078
(1713559610.043790) can0 121#000000000000006A
(1713559610.044032) can0 129#000000010000006E
(1713559610.044269) can0 410#2880008B9F6E8B4B
(1713559610.046753) can0 140#0000030000000000
(1713559610.048422) can0 400#28800000000000CB
(1713559610.049420) can0 541#04404800007FFF62
(1713559610.050201) can0 6AB#A5CD1C2E77A3E100
(1713559610.050757) can0 12F#F800022000000025
(1713559610.051003) can0 12D#0000000000000035
(1713559610.051253) can0 290#000000020000003D
(1713559610.051628) can0 174#F47F005B32790A30
(1713559610.051858) can0 178#F67F072018930AF7
(1713559610.052094) can0 17C#FE7F010038690A1E
(1713559610.053973) can0 410#2880008B9F6E8B7E
(1713559610.055678) can0 6E2#0544000000000000
(1713559610.058418) can0 400#288000000000002A
(1713559610.059069) can0 540#0000001040009F00
(1713559610.059308) can0 5B0#63420000000000C9
(1713559610.059551) can0 550#48000C000100009D
(1713559610.059797) can0 551#000000000004C000
(1713559610.060096) can0 5D1#9958000200000000
(1713559610.060553) can0 12F#F800032000000048
(1713559610.060788) can0 128#1388030000EC7896
(1713559610.061026) can0 12A#1028103C445800BC
(1713559610.061277) can0 12D#000000000000005F
(1713559610.061523) can0 12E#000000000000C090
(1713559610.061752) can0 174#F47F005B38790B22
(1713559610.061982) can0 178#F47F08420D930B44
(1713559610.062224) can0 17C#008001002F690B30
(1713559610.062470) can0 290#0000000200000057
(1713559610.062708) can0 5A0#0000006244928029
(1713559610.063618) can0 120#0000000802000099
(1713559610.063859) can0 121#000000000000008B
(1713559610.064101) can0 129#000000010000008F
(1713559610.064341) can0 410#2880008B9F6E8B9F
(1713559610.067273) can0 140#0000030000000000
(1713559610.068528) can0 400#2880000000000040
(1713559610.069422) can0 541#04404800007FFF83
(1713559610.070732) can0 12F#F80002200000007A
(1713559610.070978) can0 12D#000000000000006A
(1713559610.071226) can0 290#0000000200000062
(1713559610.071631) can0 174#EE7F005B3D790C29
(1713559610.071860) can0 178#F67F096F03930CCB
(1713559610.072096) can0 17C#0480010024690C8A
(1713559610.073907) can0 410#2880008B9F6E8BAA
(1713559610.077009) can0 6B9#0020400000000000
(1713559610.077252) can0 5A2#1410140000000000
(1713559610.078513) can0 400#2880000000000075
(1713559610.079786) can0 551#000000000004C000
(1713559610.080085) can0 5D1#9958000200000000
(1713559610.080479) can0 12F#F80003200000009C
(1713559610.080715) can0 128#1388030000EC78A3
(1713559610.080961) can0 12D#000000000000008B
(1713559610.081206) can0 12E#000000000000C0A5
(1713559610.081459) can0 290#0000000200000083
(1713559610.081687) can0 174#EA7F005B37790D52
(1713559610.081920) can0 178#FC7F0A7306930D7E
(1713559610.082159) can0 17C#0480010027690D1B
(1713559610.083706) can0 120#00000008020000AC
(1713559610.083950) can0 121#00000000000000BE
(1713559610.084192) can0 129#00000001000000BA
(1713559610.084432) can0 410#2880008B9F6E8BC0
(1713559610.087797) can0 140#0000030000000000
(1713559610.088621) can0 400#2880000000000094
(1713559610.089437) can0 541#04404800007FFFB6
(1713559610.089691) can0 552#00FFFFFFFFFFFF2E
(1713559610.089935) can0 450#0055A00013004A00
(1713559610.090755) can0 12F#F8000220000000AE
(1713559610.091003) can0 12D#00000000000000BE
(1713559610.091249) can0 290#00000002000000B6
(1713559610.091640) can0 174#EC7F005B27790EBE
(1713559610.091872) can0 178#02800B630F930E34
(1713559610.092109) can0 17C#0480010035690E27
(1713559610.093908) can0 410#2880008B9F6E8B21
(1713559610.098613) can0 400#28800000000000A1
(1713559610.099372) can0 551#000000000004C000
(1713559610.099618) can0 5D1#9958000200000000
(1713559610.100484) can0 12F#F8000320000000C3
(1713559610.100720) can0 128#1388030000EC78C9
(1713559610.100964) can0 12D#00000000000000D4
(1713559610.101208) can0 12E#000000000000C0CF
(1713559610.101460) can0 290#00000002000000DC
(1713559610.101691) can0 174#EC7F005C1F790F73
(1713559610.101922) can0 178#04800C6814930F4F
(1713559610.102164) can0 17C#068001003F690F8F
(1713559610.103806) can0 120#00000008020000C6
(1713559610.104046) can0 121#00000000000000D4
(1713559610.104289) can0 129#00000001000000D0
(1713559610.104526) can0 410#2880008B9F6E8B4B
(1713559610.108319) can0 140#0000030000000000
(1713559610.108723) can0 400#28800000000000CB
(1713559610.109426) can0 541#04404800007FFFDC
(1713559610.109665) can0 550#48000C00010000A8
(1713559610.110544) can0 5D0#9958000200000000
(1713559610.110786) can0 12F#F800022000000025
(1713559610.111020) can0 12A#1028103C445800D6
(1713559610.111266) can0 12D#0000000000000035
(1713559610.111516) can0 290#000000020000003D
(1713559610.111745) can0 174#EC7F005C2A790069
(1713559610.111981) can0 178#02800D2014930045
(1713559610.112217) can0 17C#0A8001003B690089
(1713559610.112455) can0 5B1#008A9A6800000028
(1713559610.112642) can0 5CF#7444540000000000
(1713559610.113910) can0 410#2880008B9F6E8B7E
(1713559610.118710) can0 400#288000000000002A
(1713559610.119137) can0 4EA#0000000000000000
(1713559610.119384) can0 551#000000000004C000
(1713559610.119628) can0 5B2#0800000000000000
(1713559610.119874) can0 310#FFFFFFFF7D7D0000
(1713559610.120114) can0 5D1#9958000200000000
(1713559610.120524) can0 12F#F800032000000048
(1713559610.120762) can0 128#1388030000EC7828
(1713559610.121013) can0 12D#000000000000005F
(1713559610.121256) can0 12E#000000000000C02E
(1713559610.121503) can0 290#0000000200000057
(1713559610.121736) can0 174#EE7F005B3F7901AB
(1713559610.121967) can0 178#FE7F0E47149301D7
(1713559610.122209) can0 17C#108001003D690140
(1713559610.123902) can0 120#0000000802000027
(1713559610.124147) can0 121#0000000000000035
(1713559610.124392) can0 129#0000000100000031
(1713559610.124632) can0 410#2880008B9F6E8B9F
(1713559610.128823) can0 400#2880000000000040
(1713559610.129066) can0 140#0000030000000000
(1713559610.129438) can0 541#04404800007FFF3D
(1713559610.130712) can0 12F#F80002200000007A
(1713559610.130958) can0 12D#000000000000006A
(1713559610.131207) can0 290#0000000200000062
(1713559610.131655) can0 174#F27F005B46790245
(1713559610.131885) can0 178#FE7F0F6D1A930262
(1713559610.132123) can0 17C#0E80010040690212
(1713559610.133905) can0 410#2880008B9F6E8BAA
(1713559610.138806) can0 400#2880000000000075
(1713559610.139388) can0 551#000000000004C000
(1713559610.139641) can0 552#00FFFFFFFFFFFF44
(1713559610.139887) can0 5D1#9958000200000000
(1713559610.140131) can0 5D2#7444540000000000
(1713559610.140425) can0 450#0055A00013004A00
(1713559610.140659) can0 128#1388030000EC7842
(1713559610.140906) can0 12D#000000000000008B
(1713559610.141150) can0 12E#000000000000C044
(1713559610.141390) can0 12F#F80003200000009C
(1713559610.141641) can0 290#0000000200000083
(1713559610.141877) can0 174#F27F005C3F790367
(1713559610.142110) can0 178#FC7F0062229303F5
(1713559610.142348) can0 17C#0A8001003B6903AE
(1713559610.143961) can0 410#2880008B9F6E8BC0
(1713559610.144203) can0 120#000000080200004D
(1713559610.144451) can0 121#000000000000005F
(1713559610.144695) can0 129#000000010000005B
(1713559610.148921) can0 400#2880000000000094
(1713559610.149361) can0 140#0000030000000000
(1713559610.149601) can0 541#04404800007FFF57
(1713559610.150758) can0 12F#F8000220000000AE
(1713559610.151006) can0 12D#00000000000000BE
(1713559610.151252) can0 290#00000002000000B6
(1713559610.151673) can0 174#F47F005B3A79049A
(1713559610.151908) can0 178#F87F0148279304DD
(1713559610.152147) can0 17C#068001002A6904D1
(1713559610.153907) can0 410#2880008B9F6E8B21
(1713559610.158902) can0 400#28800000000000A1
(1713559610.159369) can0 551#000000000004C000
(1713559610.159611) can0 550#48000C00010000C2
(1713559610.159857) can0 540#0000001040009F00
(1713559610.160099) can0 5B0#6342000000000028
(1713559610.160346) can0 5D1#9958000200000000
(1713559610.160623) can0 128#1388030000EC7877
(1713559610.160860) can0 12A#1028103C44580037
(1713559610.161104) can0 12D#00000000000000D4
(1713559610.161352) can0 12E#000000000000C071
(1713559610.161592) can0 12F#F8000320000000C3
(1713559610.161826) can0 174#F27F005C3A7905A0
(1713559610.162060) can0 178#F47F00002393051F
(1713559610.162300) can0 17C#028001001B690502
(1713559610.162546) can0 290#00100002000000D7
(1713559610.162784) can0 5A0#0000006244928043
(1713559610.163961) can0 410#2880008B9F6E8B4B
(1713559610.164204) can0 120#0000000802000078
(1713559610.164457) can0 121#000000000000006A
(1713559610.164705) can0 129#000000010000006E
(1713559610.169015) can0 400#28800000000000CB
(1713559610.169411) can0 541#04404800007FFF62
(1713559610.169881) can0 140#0000030000000000
(1713559610.170747) can0 12F#F800032000000022
(1713559610.170994) can0 12D#0000000000000035
(1713559610.171238) can0 290#0010000200000036
(1713559610.171671) can0 174#F07F005B387906CA
(1713559610.171906) can0 178#F47F00001A930693
(1713559610.172143) can0 17C#02800100146906A3
(1713559610.173911) can0 410#2880008B9F6E8B7E
(1713559610.177229) can0 6B9#0020400000000000
(1713559610.177472) can0 5A2#1410140000000000
(1713559610.179001) can0 400#288000000000002A
(1713559610.179388) can0 551#000000000004C000
(1713559610.179637) can0 5D1#9958000200000000
(1713559610.180436) can0 12F#F80002200000004F
(1713559610.180717) can0 128#1388030000EC7896
(1713559610.180967) can0 12D#000000000000005F
(1713559610.181213) can0 12E#000000000000C090
(1713559610.181460) can0 290#0000000200000057
(1713559610.181696) can0 174#F07F005B35790752
(1713559610.181933) can0 178#F87F000D12930776
(1713559610.182173) can0 17C#02800100146907BE
(1713559610.183963) can0 410#2880008B9F6E8B9F
(1713559610.184210) can0 120#0000000802000099
(1713559610.184454) can0 121#000000000000008B
(1713559610.184696) can0 129#000000010000008F
(1713559610.189115) can0 400#2880000000000040
(1713559610.189456) can0 541#04404800007FFF83
(1713559610.189708) can0 552#00FFFFFFFFFFFF71
(1713559610.189953) can0 450#0055A00013004A00
(1713559610.190402) can0 140#0000030000000000
(1713559610.190711) can0 12F#F80003200000007D
(1713559610.190958) can0 12D#000000000000006A
(1713559610.191205) can0 290#0000000200000062
(1713559610.191678) can0 174#F07F005B34790866
(1713559610.191916) can0 178#FA7F00000D9308A6
(1713559610.192154) can0 17C#028001001C690809
(1713559610.193888) can0 410#2880008B9F6E8BAA
(1713559610.199097) can0 400#2880000000000075
(1713559610.199383) can0 551#000000000004C000
(1713559610.199632) can0 5D1#9958000200000000
(1713559610.200470) can0 12F#F80003200000009C
(1713559610.200757) can0 128#1388030000EC78A3
(1713559610.201003) can0 12D#000000000000008B
(1713559610.201247) can0 12E#000000000000C0A5
(1713559610.201499) can0 290#0000000200000083
(1713559610.201729) can0 174#EC7F005B3279097C
(1713559610.201964) can0 178#FA7F01360C930958
(1713559610.202200) can0 17C#02800100296909B5
(1713559610.203918) can0 410#2880008B9F6E8BC0
(1713559610.204285) can0 120#00000008020000AC
(1713559610.204532) can0 121#00000000000000BE
(1713559610.204774) can0 129#00000001000000BA
(1713559610.209210) can0 400#2880000000000094
(1713559610.209446) can0 541#04404800007FFFB6
(1713559610.209687) can0 550#48000C0001000023
(1713559610.210553) can0 5D0#9958000200000000
(1713559610.210801) can0 12D#00000000000000BE
(1713559610.211035) can0 12A#1028103C4458005D
(1713559610.211277) can0 12F#F8000220000000AE
(1713559610.211528) can0 140#0000030000000000
(1713559610.211758) can0 174#EA7F005B2F790A15
(1713559610.211994) can0 178#FE7F023009930A48
(1713559610.212229) can0 17C#FE7F01003A690A1D
(1713559610.212475) can0 290#00000002000000B6
(1713559610.212711) can0 5B1#008A9A6800000042
(1713559610.212950) can0 5CF#7444540000000000
(1713559610.213834) can0 410#2880008B9F6E8B21
(1713559610.218932) can0 4EA#0000000000000000
(1713559610.219178) can0 5B2#0800000000000000
(1713559610.219423) can0 310#FFFFFFFF7D7D0000
(1713559610.219669) can0 400#28800000000000A1
(1713559610.219915) can0 551#000000000004C000
(1713559610.220163) can0 5D1#9958000200000000
(1713559610.220439) can0 12F#F8000320000000C3
(1713559610.220725) can0 128#1388030000EC78C9
(1713559610.220970) can0 12D#00000000000000D4
(1713559610.221214) can0 12E#000000000000C0CF
(1713559610.221461) can0 290#00000002000000DC
(1713559610.221697) can0 174#EE7F005B2C790BED
(1713559610.221930) can0 178#0280033103930BB6
(1713559610.222166) can0 17C#F67F010046690B90
(1713559610.223863) can0 410#2880008B9F6E8B4B
(1713559610.224384) can0 120#00000008020000C6
(1713559610.224628) can0 121#00000000000000D4
(1713559610.224870) can0 129#00000001000000D0
(1713559610.229315) can0 400#28800000000000CB
(1713559610.229557) can0 541#04404800007FFFDC
(1713559610.230715) can0 12F#F800022000000025
(1713559610.230962) can0 12D#0000000000000035
(1713559610.231209) can0 290#000000020000003D
(1713559610.231460) can0 140#0000030000000000
(1713559610.231699) can0 174#F07F005C2C790CF2
(1713559610.231934) can0 178#0080043803930C55
(1713559610.232169) can0 17C#F07F010042690C16
(1713559610.233836) can0 410#2880008B9F6E8B7E
(1713559610.239296) can0 400#288000000000002A
(1713559610.239540) can0 551#000000000004C000
(1713559610.239794) can0 552#00FFFFFFFFFFFF90
(1713559610.240040) can0 5D1#9958000200000000
(1713559610.240286) can0 5D2#7444540000000000
(1713559610.240524) can0 128#1388030000EC7828
(1713559610.240824) can0 12D#000000000000005F
(1713559610.241068) can0 12E#000000000000C02E
(1713559610.241310) can0 12F#F800032000000048
(1713559610.241556) can0 290#0000000200000057
(1713559610.241784) can0 174#EE7F005B2C790DA3
(1713559610.242014) can0 178#FC7F053109930D37
(1713559610.242252) can0 17C#EE7F01003A690DF7
(1713559610.242489) can0 450#0055A00013004A00
(1713559610.243810) can0 410#2880008B9F6E8B9F
(1713559610.244479) can0 120#0000000802000027
(1713559610.244727) can0 121#0000000000000035
(1713559610.244971) can0 129#0000000100000031
(1713559610.249406) can0 400#2880000000000040
(1713559610.249649) can0 541#04404800007FFF3D
(1713559610.250762) can0 12F#F80003200000007D
(1713559610.251008) can0 12D#000000000000006A
(1713559610.251256) can0 290#0000000200000062
(1713559610.251688) can0 174#EA7F005B2F790E61
(1713559610.251924) can0 178#FA7F06320F930EC2
(1713559610.252174) can0 140#0000030000000000
(1713559610.252413) can0 17C#F07F01003A690E68
(1713559610.253404) can0 410#2880008B9F6E8BAA
(1713559610.259368) can0 551#000000000004C000
(1713559610.259613) can0 400#2880000000000075
(1713559610.259856) can0 550#48000C0001000049
(1713559610.260095) can0 5D1#9958000200000000
(1713559610.260341) can0 540#0000001040009F00
(1713559610.260575) can0 128#1388030000EC7842
(1713559610.260814) can0 12A#1028103C44580068
(1713559610.261075) can0 12D#000000000000008B
(1713559610.261353) can0 12E#000000000000C044
(1713559610.261594) can0 12F#F80002200000009B
(1713559610.261826) can0 174#E67F005B2F790FC7
(1713559610.262058) can0 178#FE7F073914930F62
(1713559610.262298) can0 17C#F87F01003A690FA7
(1713559610.262552) can0 290#0000000200000083
(1713559610.262788) can0 5A0#0000006244928076
(1713559610.263031) can0 5B0#6342000000000042
(1713559610.263434) can0 410#2880008B9F6E8BC0
(1713559610.264582) can0 120#000000080200004D
(1713559610.264830) can0 121#000000000000005F
(1713559610.265071) can0 129#000000010000005B
(1713559610.269495) can0 400#2880000000000094
(1713559610.270746) can0 12F#F8000320000000A9
(1713559610.270988) can0 12D#00000000000000BE
(1713559610.271231) can0 290#00000002000000B6
(1713559610.271703) can0 174#E67F005B307900E2
(1713559610.271940) can0 178#0680082D0F930024
(1713559610.272182) can0 17C#008001003F6900E7
(1713559610.272424) can0 541#04404800007FFF57
(1713559610.272674) can0 140#0000030000000000
(1713559610.273403) can0 410#2880008B9F6E8B21
(1713559610.277424) can0 6B9#0020400000000000
(1713559610.277667) can0 5A2#1410140000000000
(1713559610.279363) can0 551#000000000004C000
(1713559610.279609) can0 400#28800000000000A1
(1713559610.279849) can0 5D1#9958000200000000
(1713559610.280433) can0 12F#F8000220000000C4
(1713559610.280667) can0 128#1388030000EC7877
(1713559610.280912) can0 12D#00000000000000D4
(1713559610.281160) can0 12E#000000000000C071
(1713559610.281408) can0 290#00000002000000DC
(1713559610.281650) can0 174#EA7F005C35790139
(1713559610.281886) can0 178#0480093006930100
(1713559610.282177) can0 17C#00800100436901B8
(1713559610.283414) can0 410#2880008B9F6E8B4B
(1713559610.284684) can0 120#0000000802000078
(1713559610.284933) can0 121#000000000000006A
(1713559610.285181) can0 129#000000010000006E
(1713559610.289430) can0 541#04404800007FFF62
(1713559610.289673) can0 400#28800000000000CB
(1713559610.289918) can0 552#00FFFFFFFFFFFFA5
(1713559610.290162) can0 450#0055A00013004A00
(1713559610.290700) can0 12F#F800032000000022
(1713559610.290948) can0 12D#0000000000000035
(1713559610.291194) can0 290#000000020000003D
(1713559610.291711) can0 174#F27F005B37790282
(1713559610.291946) can0 178#00800A32FE92021F
(1713559610.292188) can0 17C#008001003F6902DD
(1713559610.293009) can0 140#0000030000000000
(1713559610.293353) can0 410#2880008B9F6E8B7E
(1713559610.299363) can0 551#000000000004C000
(1713559610.299617) can0 400#288000000000002A
(1713559610.299856) can0 5D1#9958000200000000
(1713559610.300502) can0 12F#F80002200000004F
(1713559610.300736) can0 128#1388030000EC7896
(1713559610.300987) can0 12D#000000000000005F
(1713559610.301232) can0 12E#000000000000C090
(1713559610.301478) can0 290#0000000200000057
(1713559610.301711) can0 174#F67F005C35790301
(1713559610.301947) can0 178#FC7F0B36F99203B7
(1713559610.302229) can0 17C#0680010038690399
(1713559610.303348) can0 410#2880008B9F6E8B9F
(1713559610.304778) can0 120#0000000802000099
(1713559610.305020) can0 121#000000000000008B
(1713559610.305262) can0 129#000000010000008F
(1713559610.309416) can0 541#04404800007FFF83
(1713559610.309657) can0 550#48000C000100007C
(1713559610.309907) can0 400#2880000000000040
(1713559610.310570) can0 5D0#9958000200000000
(1713559610.310804) can0 12D#000000000000006A
(1713559610.311044) can0 12A#1028103C44580089
(1713559610.311285) can0 12F#F80003200000007D
(1713559610.311534) can0 290#0000000200000062
(1713559610.311763) can0 174#F67F005B34790429
(1713559610.311997) can0 178#FA7F0C30F89204DA
(1713559610.312237) can0 17C#0A8001003469047B
(1713559610.312473) can0 5B1#008A9A6800000077
(1713559610.312711) can0 5CF#7444540000000000
(1713559610.313293) can0 410#2880008B9F6E8BAA
(1713559610.313544) can0 140#0000030000000000
(1713559610.318733) can0 4EA#0000000000000000
(1713559610.318977) can0 5B2#0800000000000000
(1713559610.319221) can0 310#FFFFFFFF7D7D0000
(1713559610.319467) can0 551#000000000004C000
(1713559610.319718) can0 400#2880000000000075
(1713559610.319959) can0 5D1#9958000200000000
(1713559610.320430) can0 12F#F80002200000009B
(1713559610.320667) can0 128#1388030000EC78A3
(1713559610.320916) can0 12D#000000000000008B
(1713559610.321159) can0 12E#000000000000C0A5
(1713559610.321409) can0 290#0000000200000083
(1713559610.321671) can0 174#F87F005B3879053F
(1713559610.321913) can0 178#F87F0000F992055F
(1713559610.322151) can0 17C#0A8001002C690572
(1713559610.323272) can0 410#2880008B9F6E8BC0
(1713559610.324876) can0 120#00000008020000AC
(1713559610.325120) can0 121#00000000000000BE
(1713559610.325362) can0 129#00000001000000BA
(1713559610.329421) can0 541#04404800007FFFB6
(1713559610.329783) can0 400#2880000000000094
(1713559610.330711) can0 12F#F8000320000000A9
(1713559610.330959) can0 12D#00000000000000BE
(1713559610.331213) can0 290#00000002000000B6
(1713559610.331721) can0 174#F67F005B3F790693
(1713559610.331959) can0 178#FA7F01300193060F
(1713559610.332197) can0 17C#0A8001002F6906D9
(1713559610.333242) can0 410#2880008B9F6E8B21
(1713559610.334053) can0 140#0000030000000000
(1713559610.339383) can0 551#000000000004C000
(1713559610.339636) can0 552#00FFFFFFFFFFFFCF
(1713559610.339882) can0 400#28800000000000A1
(1713559610.340121) can0 5D1#9958000200000000
(1713559610.340365) can0 5D2#7444540000000000
(1713559610.340601) can0 128#1388030000EC78C9
(1713559610.340846) can0 12D#00000000000000D4
(1713559610.341090) can0 12E#000000000000C0CF
(1713559610.341330) can0 12F#F8000220000000C4
(1713559610.341579) can0 290#00000002000000DC
(1713559610.341814) can0 174#F47F005B487907F6
(1713559610.342050) can0 178#FC7F02320A9307D8
(1713559610.342288) can0 17C#0A8001003469075C
(1713559610.342526) can0 450#0055A00013004A00
(1713559610.343217) can0 410#2880008B9F6E8B4B
(1713559610.344967) can0 120#00000008020000C6
(1713559610.345209) can0 121#00000000000000D4
(1713559610.345451) can0 129#00000001000000D0
(1713559610.349406) can0 541#04404800007FFFDC
(1713559610.349881) can0 400#28800000000000CB
(1713559610.350756) can0 12F#F800032000000022
(1713559610.351001) can0 12D#0000000000000035
(1713559610.351250) can0 290#000000020000003D
(1713559610.351735) can0 174#F07F005B537908BC
(1713559610.351964) can0 178#FA7F03360D93081E
(1713559610.352199) can0 17C#088001002C690849
(1713559610.353190) can0 410#2880008B9F6E8B7E
(1713559610.354579) can0 140#0000030000000000
(1713559610.359362) can0 551#000000000004C000
(1713559610.359602) can0 550#48000C000100009D
(1713559610.359843) can0 5D1#9958000200000000
(1713559610.360091) can0 400#288000000000002A
(1713559610.360448) can0 12F#F80002200000004F
(1713559610.360685) can0 128#1388030000EC7828
(1713559610.360923) can0 12A#1028103C445800BC
(1713559610.361173) can0 12D#000000000000005F
(1713559610.361417) can0 12E#000000000000C02E
(1713559610.361664) can0 290#0000000200000057
(1713559610.361892) can0 174#EA7F005B55790975
(1713559610.362120) can0 178#F67F04350993090F
(1713559610.362357) can0 17C#06800100216909D0
(1713559610.362604) can0 540#0000001040009F00
(1713559610.362840) can0 5A0#0000006244928097
(1713559610.363080) can0 5B0#6342000000000077
(1713559610.363395) can0 410#2880008B9F6E8B9F
(1713559610.365065) can0 120#0000000802000027
(1713559610.365311) can0 121#0000000000000035
(1713559610.365554) can0 129#0000000100000031
(1713559610.369409) can0 541#04404800007FFF3D
(1713559610.369977) can0 400#2880000000000040
(1713559610.370767) can0 12F#F80003200000007D
(1713559610.371014) can0 12D#000000000000006A
(1713559610.371262) can0 290#0000000200000062
(1713559610.371730) can0 174#E67F005B4E790A71
(1713559610.371973) can0 178#F67F0530FC920ADC
(1713559610.372206) can0 17C#028001001F690ABF
(1713559610.373158) can0 410#2880008B9F6E8BAA
(1713559610.375101) can0 140#0000030000000000
(1713559610.377621) can0 6B9#0020400000000000
(1713559610.377864) can0 5A2#1410140000000000
(1713559610.379359) can0 551#000000000004C000
(1713559610.379610) can0 5D1#9958000200000000
(1713559610.379967) can0 400#2880000000000075
(1713559610.380469) can0 12F#F80002200000009B
(1713559610.380703) can0 128#1388030000EC7842
(1713559610.380949) can0 12D#000000000000008B
(1713559610.381193) can0 12E#000000000000C044
(1713559610.381443) can0 290#0010000200000088
(1713559610.381685) can0 174#E47F005B42790BDC
(1713559610.381919) can0 178#FC7F0631F8920B8C
(1713559610.382158) can0 17C#028001002A690B03
(1713559610.383087) can0 410#2880008B9F6E8BC0
(1713559610.385159) can0 120#000000080200004D
(1713559610.385405) can0 121#000000000000005F
(1713559610.385650) can0 129#000000010000005B
(1713559610.389429) can0 541#04404800007FFF57
(1713559610.389678) can0 552#00FFFFFFFFFFFF2E
(1713559610.389923) can0 450#0055A00013004A00
(1713559610.390169) can0 400#2880000000000094
(1713559610.390757) can0 12F#F8000320000000A9
(1713559610.391005) can0 12D#00000000000000BE
(1713559610.391251) can0 290#00100002000000BD
(1713559610.391736) can0 174#E87F005B34790C79
(1713559610.391971) can0 178#00800731FC920CA8
(1713559610.392218) can0 17C#048001003B690C14
(1713559610.393109) can0 410#2880008B9F6E8B21
(1713559610.395624) can0 140#0000030000000000
(1713559610.399356) can0 551#000000000004C000
(1713559610.399605) can0 5D1#9958000200000000
(1713559610.400065) can0 400#28800000000000A1
(1713559610.400423) can0 12F#F8000220000000C4
(1713559610.400657) can0 128#1388030000EC7877
(1713559610.400901) can0 12D#00000000000000D4
(1713559610.401149) can0 12E#000000000000C071
(1713559610.401397) can0 290#00000002000000DC
(1713559610.401692) can0 174#EC7F005B2D790D96
(1713559610.401928) can0 178#FE7F083107930D2C
(1713559610.402162) can0 17C#088001004A690D75
(1713559610.403033) can0 410#2880008B9F6E8B4B
(1713559610.405259) can0 120#0000000802000078
(1713559610.405509) can0 121#000000000000006A
(1713559610.405757) can0 129#000000010000006E
(1713559610.409408) can0 541#04404800007FFF62
(1713559610.409649) can0 550#48000C00010000A8
(1713559610.410164) can0 400#28800000000000CB
(1713559610.410557) can0 5D0#9958000200000000
(1713559610.410803) can0 12D#0000000000000035
(1713559610.411037) can0 12A#1028103C445800D6
(1713559610.411282) can0 12F#F800032000000022
(1713559610.411530) can0 290#000000020000003D
(1713559610.411766) can0 5B1#008A9A6800000096
(1713559610.411996) can0 174#F07F005C2C790EC8
(1713559610.412224) can0 178#F27F093011930E5A
(1713559610.412462) can0 17C#068001004A690E53
(1713559610.412699) can0 5CF#7444540000000000
(1713559610.413057) can0 410#2880008B9F6E8B7E
(1713559610.416143) can0 140#0000030000000000
(1713559610.418524) can0 4EA#0000000000000000
(1713559610.418769) can0 5B2#0800000000000000
(1713559610.419015) can0 310#FFFFFFFF7D7D0000
(1713559610.419370) can0 551#000000000004C000
(1713559610.419620) can0 5D1#9958000200000000
(1713559610.420163) can0 400#288000000000002A
(1713559610.420441) can0 12F#F80002200000004F
(1713559610.420676) can0 128#1388030000EC7896
(1713559610.420926) can0 12D#000000000000005F
(1713559610.421172) can0 12E#000000000000C090
(1713559610.421418) can0 290#0000000200000057
(1713559610.421698) can0 174#EE7F005B2D790F16
(1713559610.421928) can0 178#EE7F0A3817930F62
(1713559610.422168) can0 17C#028001003B690FE0
(1713559610.422981) can0 410#2880008B9F6E8B9F
(1713559610.425349) can0 120#0000000802000099
(1713559610.425589) can0 121#000000000000008B
(1713559610.425833) can0 129#000000010000008F
(1713559610.429415) can0 541#04404800007FFF83
(1713559610.430261) can0 400#2880000000000040
(1713559610.430716) can0 12F#F80003200000007D
(1713559610.430961) can0 12D#000000000000006A
(1713559610.431209) can0 290#0000000200000062
(1713559610.431754) can0 174#EA7F005B3479005F
(1713559610.431988) can0 178#F67F000018930064
(1713559610.432228) can0 17C#028001002C6900C9
(1713559610.433000) can0 410#2880008B9F6E8BAA
(1713559610.436677) can0 140#0000030000000000
(1713559610.439428) can0 551#000000000004C000
(1713559610.439679) can0 552#00FFFFFFFFFFFF44
(1713559610.439925) can0 5D1#9958000200000000
(1713559610.440168) can0 5D2#7444540000000000
(1713559610.440415) can0 400#2880000000000075
(1713559610.440650) can0 128#1388030000EC78A3
(1713559610.440896) can0 12D#000000000000008B
(1713559610.441141) can0 12E#000000000000C0A5
(1713559610.441381) can0 12F#F80002200000009B
(1713559610.441633) can0 290#0000000200000083
(1713559610.441863) can0 174#EA7F005B3B7901C4
(1713559610.442099) can0 178#0680013015930159
(1713559610.442338) can0 17C#048001002269010E
(1713559610.442576) can0 450#0055A00013004A00
(1713559610.442992) can0 410#2880008B9F6E8BC0
(1713559610.445401) can0 120#00000008020000AC
(1713559610.445646) can0 121#00000000000000BE
(1713559610.445888) can0 129#00000001000000BA
(1713559610.449352) can0 541#04404800007FFFB6
(1713559610.450309) can0 400#2880000000000094
(1713559610.450704) can0 12F#F8000320000000A9
(1713559610.451003) can0 12D#00000000000000BE
(1713559610.451249) can0 290#00000002000000B6
(1713559610.451762) can0 174#EA7F005B48790227
(1713559610.452004) can0 178#12800000119302AD
(1713559610.452243) can0 17C#02800100166902D4
(1713559610.452989) can0 410#2880008B9F6E8B21
(1713559610.457195) can0 140#0000030000000000
(1713559610.459410) can0 551#000000000004C000
(1713559610.459652) can0 550#48000C00010000C2
(1713559610.459890) can0 5D1#9958000200000000
(1713559610.460410) can0 400#28800000000000A1
(1713559610.460646) can0 128#1388030000EC78C9
(1713559610.460883) can0 12A#1028103C44580037
(1713559610.461127) can0 12D#00000000000000D4
(1713559610.461370) can0 12E#000000000000C0CF
(1713559610.461611) can0 12F#F8000220000000C4
(1713559610.461841) can0 174#EA7F005B537903A2
(1713559610.462073) can0 178#148001530D930310
(1713559610.462313) can0 17C#FE7F01001369035B
(1713559610.462562) can0 290#00000002000000DC
(1713559610.462807) can0 540#0000001040009F00
(1713559610.463045) can0 410#2880008B9F6E8B4B
(1713559610.463284) can0 5A0#00000062449280A2
(1713559610.463476) can0 5B0#6342000000000096
(1713559610.465496) can0 120#00000008020000C6
(1713559610.465740) can0 121#00000000000000D4
(1713559610.465982) can0 129#00000001000000D0
(1713559610.469349) can0 541#04404800007FFFDC
(1713559610.470405) can0 400#28800000000000CB
(1713559610.470719) can0 12F#F800032000000022
(1713559610.470964) can0 12D#0000000000000035
(1713559610.471212) can0 290#000000020000003D
(1713559610.471729) can0 174#EA7F005B537904F1
(1713559610.472011) can0 178#0C8002430A930439
(1713559610.472253) can0 17C#F87F01001B6904D7
(1713559610.472993) can0 410#2880008B9F6E8B7E
(1713559610.477719) can0 140#0000030000000000
(1713559610.477963) can0 6B9#0020400000000000
(1713559610.478207) can0 5A2#1410140000000000
(1713559610.479405) can0 551#000000000004C000
(1713559610.479653) can0 5D1#9958000200000000
(1713559610.480476) can0 12F#F800032000000048
(1713559610.480716) can0 128#1388030000EC7828
(1713559610.480964) can0 12D#000000000000005F
(1713559610.481209) can0 12E#000000000000C02E
(1713559610.481455) can0 290#0000000200000057
(1713559610.481702) can0 400#288000000000002A
(1713559610.481934) can0 174#EC7F005B4D79052E
(1713559610.482168) can0 178#0480033209930576
(1713559610.482405) can0 17C#F67F0100276905E9
(1713559610.482993) can0 410#2880008B9F6E8B9F
(1713559610.485585) can0 120#0000000802000027
(1713559610.485833) can0 121#0000000000000035
(1713559610.486077) can0 129#0000000100000031
(1713559610.489373) can0 541#04404800007FFF3D
(1713559610.489624) can0 552#00FFFFFFFFFFFF71
(1713559610.489867) can0 450#0055A00013004A00
(1713559610.490503) can0 400#2880000000000040
(1713559610.490748) can0 12F#F80002200000007A
(1713559610.490994) can0 12D#000000000000006A
(1713559610.491242) can0 290#0000000200000062
(1713559610.491729) can0 174#F47F005B4D790662
(1713559610.492019) can0 178#FC7F04300993060F
(1713559610.492257) can0 17C#FA7F01003A6906E8
(1713559610.492997) can0 410#2880008B9F6E8BAA
(1713559610.498241) can0 140#0000030000000000
(1713559610.499404) can0 551#000000000004C000
(1713559610.499649) can0 5D1#9958000200000000
(1713559610.500478) can0 12F#F80003200000009C
(1713559610.500718) can0 128#1388030000EC7842
(1713559610.500959) can0 12D#000000000000008B
(1713559610.501201) can0 12E#000000000000C044
(1713559610.501453) can0 290#0000000200000083
(1713559610.501700) can0 400#2880000000000075
(1713559610.501934) can0 174#FA7F005B4E7907F2
(1713559610.502174) can0 178#FA7F05300F9307AE
(1713559610.502414) can0 17C#0080010042690779
(1713559610.502992) can0 410#2880008B9F6E8BC0
(1713559610.505685) can0 120#000000080200004D
(1713559610.505932) can0 121#000000000000005F
(1713559610.506176) can0 129#000000010000005B
(1713559610.509351) can0 541#04404800007FFF57
(1713559610.509592) can0 550#48000C0001000023
(1713559610.510519) can0 5D0#9958000200000000
(1713559610.510767) can0 12D#00000000000000BE
(1713559610.511001) can0 12A#1028103C4458005D
(1713559610.511243) can0 12F#F8000220000000AE
(1713559610.511490) can0 290#00000002000000B6
(1713559610.511735) can0 400#2880000000000094
(1713559610.511967) can0 174#F87F005B5179086D
(1713559610.512201) can0 178#FA7F063214930814
(1713559610.512490) can0 17C#FE7F01003B6908A8
(1713559610.512726) can0 5B1#008A9A68000000A3
(1713559610.512964) can0 5CF#7444540000000000
(1713559610.513200) can0 410#2880008B9F6E8B21
(1713559610.518374) can0 4EA#0000000000000000
(1713559610.518615) can0 5B2#0800000000000000
(1713559610.518865) can0 140#0000030000000000
(1713559610.519111) can0 310#FFFFFFFF7D7D0000
(1713559610.519419) can0 551#000000000004C000
(1713559610.519665) can0 5D1#9958000200000000
(1713559610.520479) can0 12F#F8000320000000C3
(1713559610.520713) can0 128#1388030000EC7877
(1713559610.520965) can0 12D#00000000000000D4
(1713559610.521207) can0 12E#000000000000C071
(1713559610.521451) can0 290#00100002000000D7
(1713559610.521698) can0 400#28800000000000A1
(1713559610.521927) can0 174#F47F005C55790939
(1713559610.522160) can0 178#FA7F07370F930928
(1713559610.522398) can0 17C#FC7F01003269098C
(1713559610.522990) can0 410#2880008B9F6E8B4B
(1713559610.525782) can0 120#0000000802000078
(1713559610.526034) can0 121#000000000000006A
(1713559610.526282) can0 129#000000010000006E
(1713559610.529355) can0 541#04404800007FFF62
(1713559610.530658) can0 12F#F800022000000025
(1713559610.530904) can0 12D#0000000000000035
(1713559610.531149) can0 290#0010000200000036
(1713559610.531395) can0 400#28800000000000CB
(1713559610.531742) can0 174#F47F005B4A790A74
(1713559610.531978) can0 178#F87F085F06930A08
(1713559610.532216) can0 17C#FE7F01002C690A00
(1713559610.533001) can0 410#2880008B9F6E8B7E
(1713559610.539297) can0 140#0000030000000000
(1713559610.539531) can0 551#000000000004C000
(1713559610.539781) can0 552#00FFFFFFFFFFFF90
(1713559610.540028) can0 55A#0017160000000000
(1713559610.540324) can0 5D1#9958000200000000
(1713559610.540574) can0 12D#000000000000005F
(1713559610.540808) can0 128#1388030000EC7896
(1713559610.541064) can0 12E#000000000000C090
(1713559610.541298) can0 12F#F800032000000048
(1713559610.541542) can0 290#0000000200000057
(1713559610.541791) can0 400#288000000000002A
(1713559610.542020) can0 174#F47F005B3A790B21
(1713559610.542257) can0 178#F87F0930FE920B01
(1713559610.542497) can0 17C#068001002F690BE3
(1713559610.542735) can0 5D2#7444540000000000
(1713559610.542983) can0 450#0055A00013004A00
(1713559610.543226) can0 410#2880008B9F6E8B9F
(1713559610.545926) can0 120#0000000802000099
(1713559610.546120) can0 121#000000000000008B
(1713559610.546362) can0 129#000000010000008F
(1713559610.549351) can0 541#04404800007FFF83
(1713559610.550735) can0 12F#F80002200000007A
(1713559610.550974) can0 12D#000000000000006A
(1713559610.551223) can0 290#0000000200000062
(1713559610.551473) can0 400#2880000000000040
(1713559610.551746) can0 174#F47F005B30790C7D
(1713559610.551979) can0 178#F87F0A3701930C5A
(1713559610.552217) can0 17C#0880010035690CA6
(1713559610.552993) can0 410#2880008B9F6E8BAA
(1713559610.559523) can0 550#48000C0001000049
(1713559610.559799) can0 551#000000000004C000
(1713559610.560048) can0 140#0000030000000000
(1713559610.560290) can0 5D1#9958000200000000
(1713559610.560527) can0 12F#F80003200000009C
(1713559610.560763) can0 128#1388030000EC78A3
(1713559610.561002) can0 12A#1028103C44580068
(1713559610.561256) can0 12D#000000000000008B
(1713559610.561494) can0 12E#000000000000C0A5
(1713559610.561744) can0 290#0000000200000083
(1713559610.561976) can0 174#F47F005B2D790DFD
(1713559610.562208) can0 178#FA7F0B310A930D7E
(1713559610.562446) can0 17C#0080010038690DEC
(1713559610.562692) can0 400#2880000000000075
(1713559610.562939) can0 540#0000001040009F00
(1713559610.563179) can0 410#2880008B9F6E8BC0
(1713559610.563417) can0 5A0#00000062449280C8
(1713559610.563657) can0 5B0#63420000000000A3
(1713559610.565974) can0 120#00000008020000AC
(1713559610.566220) can0 121#00000000000000BE
(1713559610.566462) can0 129#00000001000000BA
(1713559610.569343) can0 541#04404800007FFFB6
(1713559610.570724) can0 12F#F8000220000000AE
(1713559610.570972) can0 12D#00000000000000BE
(1713559610.571219) can0 290#00000002000000B6
(1713559610.571466) can0 400#2880000000000094
(1713559610.571744) can0 174#F47F005B2C790E55
(1713559610.571980) can0 178#F87F000012930ECC
(1713559610.572218) can0 17C#F87F010035690E3C
(1713559610.572899) can0 410#2880008B9F6E8B21
(1713559610.578040) can0 6B9#0020400000000000
(1713559610.578281) can0 5A2#1410140000000000
(1713559610.579397) can0 551#000000000004C000
(1713559610.579644) can0 5D1#9958000200000000
(1713559610.580327) can0 140#0000030000000000
(1713559610.580565) can0 128#1388030000EC78C9
(1713559610.580806) can0 12D#00000000000000D4
(1713559610.581051) can0 12E#000000000000C0CF
(1713559610.581295) can0 12F#F8000320000000C3
(1713559610.581541) can0 290#00000002000000DC
(1713559610.581785) can0 400#28800000000000A1
(1713559610.582018) can0 174#F47F005B2A790F4D
(1713559610.582251) can0 178#F67F013715930FAB
(1713559610.582493) can0 17C#F27F01002C690FD2
(1713559610.582880) can0 410#2880008B9F6E8B4B
(1713559610.586071) can0 120#00000008020000C6
(1713559610.586314) can0 121#00000000000000D4
(1713559610.586557) can0 129#00000001000000D0
(1713559610.589364) can0 541#04404800007FFFDC
(1713559610.589617) can0 552#00FFFFFFFFFFFFA5
(1713559610.589861) can0 450#0055A00013004A00
(1713559610.590706) can0 12F#F800022000000025
(1713559610.590951) can0 12D#0000000000000035
(1713559610.591199) can0 290#000000020000003D
(1713559610.591447) can0 400#28800000000000CB
(1713559610.591758) can0 174#F47F005B247900FF
(1713559610.591987) can0 178#F67F022E1593008A
(1713559610.592226) can0 17C#F27F0100296900E0
(1713559610.592802) can0 410#2880008B9F6E8B7E
(1713559610.599400) can0 551#000000000004C000
(1713559610.599644) can0 5D1#9958000200000000
(1713559610.600470) can0 12F#F800032000000048
(1713559610.600708) can0 128#1388030000EC7828
(1713559610.600958) can0 12D#000000000000005F
(1713559610.601202) can0 12E#000000000000C02E
(1713559610.601452) can0 140#0000030000000000
(1713559610.601706) can0 290#0000000200000057
(1713559610.601937) can0 174#F07F005C2479017F
(1713559610.602170) can0 178#FA7F03310D93011F
(1713559610.602406) can0 17C#F47F01002969012E
(1713559610.602654) can0 400#288000000000002A
(1713559610.602895) can0 410#2880008B9F6E8B9F
(1713559610.606168) can0 120#0000000802000027
(1713559610.606415) can0 121#0000000000000035
(1713559610.606659) can0 129#0000000100000031
(1713559610.609348) can0 541#04404800007FFF3D
(1713559610.609592) can0 550#48000C000100007C
(1713559610.610538) can0 5D0#9958000200000000
(1713559610.610774) can0 12A#1028103C44580089
(1713559610.611020) can0 12D#000000000000006A
(1713559610.611264) can0 12F#F80002200000007A
(1713559610.611513) can0 290#0000000200000062
(1713559610.611761) can0 400#2880000000000040
(1713559610.611996) can0 174#EC7F005C30790244
(1713559610.612232) can0 178#FE7F0430FF920200
(1713559610.612470) can0 17C#FC7F0100296902DB
(1713559610.612707) can0 5B1#008A9A68000000C9
(1713559610.612943) can0 410#2880008B9F6E8BAA
(1713559610.613181) can0 5CF#7444540000000000
(1713559610.618172) can0 4EA#0000000000000000
(1713559610.618409) can0 5B2#0800000000000000
(1713559610.618654) can0 310#FFFFFFFF7D7D0000
(1713559610.619392) can0 551#000000000004C000
(1713559610.619639) can0 5D1#9958000200000000
(1713559610.620483) can0 12F#F80003200000009C
(1713559610.620717) can0 128#1388030000EC7842
(1713559610.620963) can0 12D#000000000000008B
(1713559610.621207) can0 12E#000000000000C044
(1713559610.621457) can0 140#0000030000000000
(1713559610.621711) can0 290#0000000200000083
(1713559610.621949) can0 174#EE7F005B3F790391
(1713559610.622179) can0 178#FE7F0000F19203CE
(1713559610.622419) can0 17C#008001002A690351
(1713559610.622665) can0 400#2880000000000075
(1713559610.622905) can0 410#2880008B9F6E8BC0
(1713559610.626269) can0 120#000000080200004D
(1713559610.626516) can0 121#000000000000005F
(1713559610.626760) can0 129#000000010000005B
(1713559610.629351) can0 541#04404800007FFF57
(1713559610.630694) can0 12F#F8000220000000AE
(1713559610.630942) can0 12D#00000000000000BE
(1713559610.631188) can0 290#00000002000000B6
(1713559610.631435) can0 400#2880000000000094
(1713559610.631773) can0 174#F07F005B487904B8
(1713559610.632007) can0 178#FC7F0138EE920420
(1713559610.632246) can0 17C#028001002A6904B8
(1713559610.632481) can0 410#2880008B9F6E8B21
(1713559610.639415) can0 551#000000000004C000
(1713559610.639669) can0 552#00FFFFFFFFFFFFCF
(1713559610.639915) can0 5D1#9958000200000000
(1713559610.640159) can0 5D2#7444540000000000
(1713559610.640405) can0 450#0055A00013004A00
(1713559610.640639) can0 128#1388030000EC7877
(1713559610.640883) can0 12D#00000000000000D4
(1713559610.641131) can0 12E#000000000000C071
(1713559610.641371) can0 12F#F8000320000000C3
(1713559610.641617) can0 290#00100002000000D7
(1713559610.641849) can0 174#F07F005B487905A5
(1713559610.642107) can0 140#0000030000000000
(1713559610.642337) can0 178#F87F0232F99205C3
(1713559610.642574) can0 17C#068001002D690546
(1713559610.642822) can0 400#28800000000000A1
(1713559610.643058) can0 410#2880008B9F6E8B4B
(1713559610.646369) can0 120#0000000802000078
(1713559610.646620) can0 121#000000000000006A
(1713559610.646868) can0 129#000000010000006E
(1713559610.649342) can0 541#04404800007FFF62
(1713559610.650708) can0 12F#F800022000000025
(1713559610.650950) can0 12D#0000000000000035
(1713559610.651194) can0 290#0010000200000036
(1713559610.651442) can0 400#28800000000000CB
(1713559610.651776) can0 174#F07F005B4279068D
(1713559610.652012) can0 178#F67F03320A9306C7
(1713559610.652253) can0 17C#088001003D690678
(1713559610.652492) can0 410#2880008B9F6E8B7E
(1713559610.659400) can0 551#000000000004C000
(1713559610.659639) can0 550#48000C000100009D
(1713559610.659882) can0 5D1#9958000200000000
(1713559610.660494) can0 12F#F800032000000048
(1713559610.660729) can0 128#1388030000EC7896
(1713559610.660967) can0 12A#1028103C445800BC
(1713559610.661217) can0 12D#000000000000005F
(1713559610.661464) can0 12E#000000000000C090
(1713559610.661709) can0 290#0000000200000057
(1713559610.661941) can0 174#EE7F005B4079072B
(1713559610.662180) can0 178#F67F043514930734
(1713559610.662411) can0 17C#088001005369073C
(1713559610.662661) can0 140#0000030000000000
(1713559610.662909) can0 400#288000000000002A
(1713559610.663148) can0 410#2880008B9F6E8B9F
(1713559610.663398) can0 540#0000001040009F00
(1713559610.663632) can0 5A0#0000006244928029
(1713559610.663873) can0 5B0#63420000000000C9
(1713559610.666468) can0 120#0000000802000099
(1713559610.666710) can0 121#000000000000008B
(1713559610.666953) can0 129#000000010000008F
(1713559610.669342) can0 541#04404800007FFF83
(1713559610.670727) can0 12F#F80002200000007A
(1713559610.670973) can0 12D#000000000000006A
(1713559610.671222) can0 290#0000000200000062
(1713559610.671471) can0 400#2880000000000040
(1713559610.671782) can0 174#EE7F005B40790890
(1713559610.672020) can0 178#FA7F0000119308B4
(1713559610.672255) can0 17C#048001005C6908BA
(1713559610.672490) can0 410#2880008B9F6E8BAA
(1713559610.678229) can0 6B9#0020400000000000
(1713559610.678468) can0 5A2#1410140000000000
(1713559610.679396) can0 551#000000000004C000
(1713559610.679642) can0 5D1#9958000200000000
(1713559610.680471) can0 12F#F80003200000009C
(1713559610.680704) can0 128#1388030000EC78A3
(1713559610.680950) can0 12D#000000000000008B
(1713559610.681194) can0 12E#000000000000C0A5
(1713559610.681446) can0 290#0000000200000083
(1713559610.681692) can0 400#2880000000000075
(1713559610.681920) can0 174#F27F005B3D790942
(1713559610.682157) can0 178#FE7F0132079309FF
(1713559610.682399) can0 17C#0480010055690924
(1713559610.682633) can0 410#2880008B9F6E8BC0
(1713559610.682945) can0 140#0000030000000000
(1713559610.686562) can0 120#00000008020000AC
(1713559610.686807) can0 121#00000000000000BE
(1713559610.687049) can0 129#00000001000000BA
(1713559610.689358) can0 541#04404800007FFFB6
(1713559610.689613) can0 552#00FFFFFFFFFFFF2E
(1713559610.689858) can0 450#0055A00013004A00
(1713559610.690700) can0 12F#F8000220000000AE
(1713559610.690948) can0 12D#00000000000000BE
(1713559610.691194) can0 290#00000002000000B6
(1713559610.691477) can0 400#2880000000000094
(1713559610.691786) can0 174#F27F005C3B790A94
(1713559610.692022) can0 178#0680023001930A36
(1713559610.692260) can0 17C#008001004D690A7E
(1713559610.692497) can0 410#2880008B9F6E8B21
(1713559610.699396) can0 551#000000000004C000
(1713559610.699640) can0 5D1#9958000200000000
(1713559610.700468) can0 12F#F8000320000000C3
(1713559610.700705) can0 128#1388030000EC78C9
(1713559610.700949) can0 12D#00000000000000D4
(1713559610.701193) can0 12E#000000000000C0CF
(1713559610.701439) can0 290#00100002000000D7
(1713559610.701687) can0 400#28800000000000A1
(1713559610.701915) can0 174#F07F005B3B790BC7
(1713559610.702147) can0 178#0A80033204930B54
(1713559610.702385) can0 17C#FC7F010050690BE5
(1713559610.702631) can0 410#2880008B9F6E8B4B
(1713559610.703471) can0 140#0000030000000000
(1713559610.706660) can0 120#00000008020000C6
(1713559610.706904) can0 121#00000000000000D4
(1713559610.707146) can0 129#00000001000000D0
(1713559610.709341) can0 541#04404800007FFFDC
(1713559610.709584) can0 550#48000C00010000A8
(1713559610.710547) can0 5D0#9958000200000000
(1713559610.710781) can0 12A#1028103C445800D6
(1713559610.711027) can0 12D#0000000000000035
(1713559610.711269) can0 12F#F800022000000025
(1713559610.711514) can0 290#0010000200000036
(1713559610.711760) can0 400#28800000000000CB
(1713559610.711989) can0 174#EE7F005B3A790CA3
(1713559610.712221) can0 178#0C8004330A930C4B
(1713559610.712457) can0 17C#FC7F010053690C3A
(1713559610.712698) can0 410#2880008B9F6E8B7E
(1713559610.712937) can0 5B1#008A9A6800000028
(1713559610.713174) can0 5CF#7444540000000000
(1713559610.717964) can0 4EA#0000000000000000
(1713559610.718208) can0 5B2#0800000000000000
(1713559610.718454) can0 310#FFFFFFFF7D7D0000
(1713559610.719390) can0 551#000000000004C000
(1713559610.719634) can0 5D1#9958000200000000
(1713559610.720482) can0 12F#F800032000000048
(1713559610.720720) can0 128#1388030000EC7828
(1713559610.720970) can0 12D#000000000000005F
(1713559610.721214) can0 12E#000000000000C02E
(1713559610.721463) can0 290#0000000200000057
(1713559610.721715) can0 400#288000000000002A
(1713559610.721945) can0 174#EA7F005B37790D52
(1713559610.722181) can0 178#0880053107930DF7
(1713559610.722419) can0 17C#FE7F01004A690D06
(1713559610.722660) can0 410#2880008B9F6E8B9F
(1713559610.724000) can0 140#0000030000000000
(1713559610.726803) can0 120#0000000802000027
(1713559610.727050) can0 121#0000000000000035
(1713559610.727294) can0 129#0000000100000031
(1713559610.729347) can0 541#04404800007FFF3D
(1713559610.730662) can0 12F#F80002200000007A
(1713559610.730908) can0 12D#000000000000006A
(1713559610.731156) can0 290#0000000200000062
(1713559610.731665) can0 400#2880000000000040
(1713559610.731893) can0 174#E87F005C38790EBD
(1713559610.732129) can0 178#00800630FE920E66
(1713559610.732367) can0 17C#0080010038690ECB
(1713559610.732603) can0 410#2880008B9F6E8BAA
(1713559610.739362) can0 551#000000000004C000
(1713559610.739616) can0 552#00FFFFFFFFFFFF44
(1713559610.739861) can0 5D1#9958000200000000
(1713559610.740105) can0 5D2#7444540000000000
(1713559610.740349) can0 450#0055A00013004A00
(1713559610.740583) can0 128#1388030000EC7842
(1713559610.740877) can0 12D#000000000000008B
(1713559610.741121) can0 12E#000000000000C044
(1713559610.741367) can0 12F#F80003200000009C
(1713559610.741614) can0 290#0000000200000083
(1713559610.741860) can0 400#2880000000000075
(1713559610.742090) can0 174#E67F005C43790F69
(1713559610.742331) can0 178#F87F0731FB920F77
(1713559610.742573) can0 17C#FC7F010034690FC7
(1713559610.742810) can0 410#2880008B9F6E8BC0
(1713559610.744513) can0 140#0000030000000000
(1713559610.746898) can0 120#000000080200004D
(1713559610.747147) can0 121#000000000000005F
(1713559610.747394) can0 129#000000010000005B
(1713559610.750741) can0 12F#F8000220000000AE
(1713559610.750983) can0 12D#00000000000000BE
(1713559610.751227) can0 290#00000002000000B6
(1713559610.751811) can0 400#2880000000000094
(1713559610.752042) can0 174#E67F005B4E7900A3
(1713559610.752279) can0 178#FA7F0838FC920081
(1713559610.752517) can0 17C#FC7F01003A690075
(1713559610.752754) can0 410#2880008B9F6E8B21
(1713559610.752996) can0 541#04404800007FFF57
(1713559610.759344) can0 551#000000000004C000
(1713559610.759585) can0 550#48000C00010000C2
(1713559610.759824) can0 5D1#9958000200000000
(1713559610.760466) can0 12F#F8000320000000C3
(1713559610.760700) can0 128#1388030000EC7877
(1713559610.760937) can0 12A#1028103C44580037
(1713559610.761180) can0 12D#00000000000000D4
(1713559610.761428) can0 12E#000000000000C071
(1713559610.761677) can0 290#00000002000000DC
(1713559610.761911) can0 174#E67F005B507901AF
(1713559610.762197) can0 178#04800000019301F8
(1713559610.762441) can0 17C#FC7F01003A690168
(1713559610.762687) can0 400#28800000000000A1
(1713559610.762924) can0 410#2880008B9F6E8B4B
(1713559610.763171) can0 540#0000001040009F00
(1713559610.763412) can0 5A0#0000006244928043
(1713559610.763653) can0 5B0#6342000000000028
(1713559610.765032) can0 140#0000030000000000
(1713559610.767006) can0 120#0000000802000078
(1713559610.767258) can0 121#000000000000006A
(1713559610.767508) can0 129#000000010000006E
(1713559610.769379) can0 541#04404800007FFF62
(1713559610.770767) can0 12F#F800022000000025
(1713559610.771014) can0 12D#0000000000000035
(1713559610.771261) can0 290#000000020000003D
(1713559610.771869) can0 174#E67F005B50790288
(1713559610.772109) can0 178#0C8000000193020D
(1713559610.772349) can0 17C#FE7F010031690275
(1713559610.772595) can0 400#28800000000000CB
(1713559610.772836) can0 410#2880008B9F6E8B7E
(1713559610.778357) can0 6B9#0020400000000000
(1713559610.778600) can0 5A2#1410140000000000
(1713559610.779347) can0 551#000000000004C000
(1713559610.779587) can0 5D1#9958000200000000
(1713559610.780430) can0 12F#F800032000000048
(1713559610.780664) can0 128#1388030000EC7896
(1713559610.780915) can0 12D#000000000000005F
(1713559610.781161) can0 12E#000000000000C090
(1713559610.781406) can0 290#0000000200000057
(1713559610.781826) can0 174#E87F005C557903E9
(1713559610.782062) can0 178#0A800152FE92037D
(1713559610.782300) can0 17C#028001002F690362
(1713559610.782597) can0 400#288000000000002A
(1713559610.782837) can0 410#2880008B9F6E8B9F
(1713559610.785551) can0 140#0000030000000000
(1713559610.787099) can0 120#0000000802000099
(1713559610.787349) can0 121#000000000000008B
(1713559610.787587) can0 129#000000010000008F
(1713559610.789406) can0 541#04404800007FFF83
(1713559610.789662) can0 552#00FFFFFFFFFFFF71
(1713559610.789904) can0 450#0055A00013004A00
(1713559610.790752) can0 12F#F80002200000007A
(1713559610.790999) can0 12D#000000000000006A
(1713559610.791248) can0 290#0000000200000062
(1713559610.791876) can0 174#EA7F005C5679048C
(1713559610.792108) can0 178#0680026F01930449
(1713559610.792347) can0 17C#048001003469047A
(1713559610.792595) can0 400#2880000000000040
(1713559610.792831) can0 410#2880008B9F6E8BAA
(1713559610.799348) can0 551#000000000004C000
(1713559610.799589) can0 5D1#9958000200000000
(1713559610.800423) can0 12F#F80003200000009C
(1713559610.800659) can0 128#1388030000EC78A3
(1713559610.800905) can0 12D#000000000000008B
(1713559610.801150) can0 12E#000000000000C0A5
(1713559610.801403) can0 290#0000000200000083
(1713559610.801832) can0 174#EE7F005B51790586
(1713559610.802070) can0 178#FE7F03620A930583
(1713559610.802308) can0 17C#04800100356905E8
(1713559610.802554) can0 400#2880000000000075
(1713559610.802842) can0 410#2880008B9F6E8BC0
(1713559610.806071) can0 140#0000030000000000
(1713559610.807196) can0 120#00000008020000AC
(1713559610.807443) can0 121#00000000000000BE
(1713559610.807680) can0 129#00000001000000BA
(1713559610.809391) can0 541#04404800007FFFB6
(1713559610.809628) can0 550#48000C0001000023
(1713559610.810604) can0 5D0#9958000200000000
(1713559610.810852) can0 12D#00000000000000BE
(1713559610.811087) can0 12A#1028103C4458005D
(1713559610.811352) can0 12F#F8000220000000AE
(1713559610.811580) can0 290#00000002000000B6
(1713559610.811811) can0 5B1#008A9A6800000042
(1713559610.812040) can0 174#F27F005B4A79063B
(1713559610.812274) can0 178#F87F046514930699
(1713559610.812515) can0 17C#0880010035690674
(1713559610.812761) can0 400#2880000000000094
(1713559610.812997) can0 410#2880008B9F6E8B21
(1713559610.813235) can0 5CF#7444540000000000
(1713559610.817713) can0 4EA#0000000000000000
(1713559610.817958) can0 5B2#0800000000000000
(1713559610.818203) can0 310#FFFFFFFF7D7D0000
(1713559610.819343) can0 551#000000000004C000
(1713559610.819582) can0 5D1#9958000200000000
(1713559610.820441) can0 12F#F8000320000000C3
(1713559610.820677) can0 128#1388030000EC78C9
(1713559610.820921) can0 12D#00000000000000D4
(1713559610.821166) can0 12E#000000000000C0CF
(1713559610.821414) can0 290#00000002000000DC
(1713559610.821836) can0 174#F27F005B4679072C
(1713559610.822072) can0 178#F07F05721A9307E4
(1713559610.822311) can0 17C#0A8001002F6907C4
(1713559610.822557) can0 400#28800000000000A1
(1713559610.822796) can0 410#2880008B9F6E8B4B
(1713559610.826591) can0 140#0000030000000000
(1713559610.827291) can0 120#00000008020000C6
(1713559610.827536) can0 121#00000000000000D4
(1713559610.827777) can0 129#00000001000000D0
(1713559610.829387) can0 541#04404800007FFFDC
(1713559610.830703) can0 12F#F800022000000025
(1713559610.830949) can0 12D#0000000000000035
(1713559610.831197) can0 290#000000020000003D
(1713559610.831892) can0 174#F07F005B4279082B
(1713559610.832120) can0 178#E47F06741D9308D2
(1713559610.832354) can0 17C#0A800100266908FC
(1713559610.832600) can0 400#28800000000000CB
(1713559610.832840) can0 410#2880008B9F6E8B7E
(1713559610.839358) can0 551#000000000004C000
(1713559610.839612) can0 552#00FFFFFFFFFFFF90
(1713559610.839858) can0 5D1#9958000200000000
(1713559610.840102) can0 5D2#7444540000000000
(1713559610.840346) can0 450#0055A00013004A00
(1713559610.840584) can0 128#1388030000EC7828
(1713559610.840834) can0 12D#000000000000005F
(1713559610.841078) can0 12E#000000000000C02E
(1713559610.841320) can0 12F#F800032000000048
(1713559610.841566) can0 290#0000000200000057
(1713559610.841836) can0 174#EE7F005B43790901
(1713559610.842069) can0 178#DC7F07201C9309D1
(1713559610.842305) can0 17C#0680010024690959
(1713559610.842553) can0 400#288000000000002A
(1713559610.842793) can0 410#2880008B9F6E8B9F
(1713559610.847109) can0 140#0000030000000000
(1713559610.847387) can0 120#0000000802000027
(1713559610.847631) can0 121#0000000000000035
(1713559610.847875) can0 129#0000000100000031
(1713559610.849386) can0 541#04404800007FFF3D
(1713559610.850774) can0 12F#F80002200000007A
(1713559610.851020) can0 12D#000000000000006A
(1713559610.851268) can0 290#0000000200000062
(1713559610.851896) can0 174#EE7F005B4A790AA5
(1713559610.852124) can0 178#DE7F084218930ACF
(1713559610.852360) can0 17C#028001002D690A94
(1713559610.852608) can0 400#2880000000000040
(1713559610.852845) can0 410#2880008B9F6E8BAA
(1713559610.859348) can0 551#000000000004C000
(1713559610.859581) can0 550#48000C0001000049
(1713559610.859821) can0 5D1#9958000200000000
(1713559610.860438) can0 12F#F80003200000009C
(1713559610.860673) can0 128#1388030000EC7842
(1713559610.860911) can0 12A#1028103C44580068
(1713559610.861157) can0 12D#000000000000008B
(1713559610.861401) can0 12E#000000000000C044
(1713559610.861654) can0 290#0000000200000083
(1713559610.861884) can0 174#F27F005C45790BC8
(1713559610.862115) can0 178#E87F096F18930BB8
(1713559610.862354) can0 17C#008001003D690B2B
(1713559610.862601) can0 400#2880000000000075
(1713559610.862841) can0 410#2880008B9F6E8BC0
(1713559610.863085) can0 540#0000001040009F00
(1713559610.863331) can0 5A0#0000006244928076
(1713559610.863592) can0 5B0#6342000000000042
(1713559610.867491) can0 120#000000080200004D
(1713559610.867734) can0 121#000000000000005F
(1713559610.867978) can0 129#000000010000005B
(1713559610.868227) can0 140#0000030000000000
(1713559610.869375) can0 541#04404800007FFF57
(1713559610.870758) can0 12F#F8000220000000AE
(1713559610.871006) can0 12D#00000000000000BE
(1713559610.871252) can0 290#00000002000000B6
(1713559610.871913) can0 174#F67F005B30790CC7
(1713559610.872141) can0 178#F07F0A7317930C4F
(1713559610.872388) can0 17C#068001004D690CE3
(1713559610.872626) can0 400#2880000000000094
(1713559610.872861) can0 410#2880008B9F6E8B21
(1713559610.878531) can0 6B9#0020400000000000
(1713559610.878775) can0 5A2#1410140000000000
(1713559610.879344) can0 551#000000000004C000
(1713559610.879583) can0 5D1#9958000200000000
(1713559610.880419) can0 12F#F8000320000000C3
(1713559610.880653) can0 128#1388030000EC7877
(1713559610.880897) can0 12D#00000000000000D4
(1713559610.881145) can0 12E#000000000000C071
(1713559610.881393) can0 290#00000002000000DC
(1713559610.881857) can0 174#F67F005B14790DEC
(1713559610.882089) can0 178#F47F0B630F930D60
(1713559610.882325) can0 17C#0C8001004B690D93
(1713559610.882572) can0 400#28800000000000A1
(1713559610.882810) can0 410#2880008B9F6E8B4B
(1713559610.887588) can0 120#0000000802000078
(1713559610.887834) can0 121#000000000000006A
(1713559610.888087) can0 129#000000010000006E
(1713559610.888336) can0 140#0000030000000000
(1713559610.889403) can0 541#04404800007FFF62
(1713559610.889651) can0 552#00FFFFFFFFFFFFA5
(1713559610.889894) can0 450#0055A00013004A00
(1713559610.890793) can0 12F#F800022000000025
(1713559610.891039) can0 12D#0000000000000035
(1713559610.891287) can0 290#000000020000003D
(1713559610.891906) can0 174#F27F005B06790EB9
(1713559610.892135) can0 178#F47F0C6806930EE9
(1713559610.892369) can0 17C#0E80010042690E8D
(1713559610.892622) can0 400#28800000000000CB
(1713559610.892857) can0 410#2880008B9F6E8B7E
(1713559610.899346) can0 551#000000000004C000
(1713559610.899582) can0 5D1#9958000200000000
(1713559610.900429) can0 12F#F800032000000048
(1713559610.900663) can0 128#1388030000EC7896
(1713559610.900913) can0 12D#000000000000005F
(1713559610.901160) can0 12E#000000000000C090
(1713559610.901406) can0 290#0000000200000057
(1713559610.901854) can0 174#EC7F005B0C790F13
(1713559610.902086) can0 178#F47F0D2003930F1F
(1713559610.902326) can0 17C#0E80010040690F93
(1713559610.902566) can0 410#2880008B9F6E8B9F
(1713559610.902815) can0 400#288000000000002A
(1713559610.907680) can0 120#0000000802000099
(1713559610.907918) can0 121#000000000000008B
(1713559610.908160) can0 129#000000010000008F
(1713559610.908673) can0 140#0000030000000000
(1713559610.909387) can0 541#04404800007FFF83
(1713559610.909628) can0 550#48000C000100007C
(1713559610.910610) can0 5D0#9958000200000000
(1713559610.910846) can0 12A#1028103C44580089
(1713559610.911092) can0 12D#000000000000006A
(1713559610.911351) can0 12F#F80002200000007A
(1713559610.911586) can0 290#0000000200000062
(1713559610.911821) can0 5B1#008A9A6800000077
(1713559610.912053) can0 174#EA7F005C1C790097
(1713559610.912286) can0 178#F47F0E47FF9200FE
(1713559610.912523) can0 17C#08800100486900F7
(1713559610.912779) can0 400#2880000000000040
(1713559610.913009) can0 410#2880008B9F6E8BAA
(1713559610.913245) can0 5CF#7444540000000000
(1713559610.917555) can0 4EA#0000000000000000
(1713559610.917799) can0 5B2#0800000000000000
(1713559610.918045) can0 310#FFFFFFFF7D7D0000
(1713559610.919333) can0 551#000000000004C000
(1713559610.919580) can0 5D1#9958000200000000
(1713559610.920427) can0 12F#F80003200000009C
(1713559610.920664) can0 128#1388030000EC78A3
(1713559610.920911) can0 12D#000000000000008B
(1713559610.921154) can0 12E#000000000000C0A5
(1713559610.921406) can0 290#0000000200000083
(1713559610.921862) can0 174#EE7F005B2A79013A
(1713559610.922096) can0 178#FC7F0F6DF99201AF
(1713559610.922332) can0 17C#04800100536901C9
(1713559610.922573) can0 410#2880008B9F6E8BC0
(1713559610.922819) can0 400#2880000000000075
(1713559610.927776) can0 120#00000008020000AC
(1713559610.928017) can0 121#00000000000000BE
(1713559610.928260) can0 129#00000001000000BA
(1713559610.929196) can0 140#0000030000000000
(1713559610.929440) can0 541#04404800007FFFB6
(1713559610.930706) can0 12F#F8000220000000AE
(1713559610.930954) can0 12D#00000000000000BE
(1713559610.931200) can0 290#00000002000000B6
(1713559610.931918) can0 174#EE7F005C35790277
(1713559610.932157) can0 178#02800062FB92023E
(1713559610.932392) can0 17C#048001005C690268
(1713559610.932629) can0 410#2880008B9F6E8B21
(1713559610.932875) can0 400#2880000000000094
(1713559610.939411) can0 551#000000000004C000
(1713559610.939659) can0 552#00FFFFFFFFFFFFCF
(1713559610.939903) can0 5D1#9958000200000000
(1713559610.940147) can0 5D2#7444540000000000
(1713559610.940391) can0 450#0055A00013004A00
(1713559610.940627) can0 128#1388030000EC78C9
(1713559610.940871) can0 12D#00000000000000D4
(1713559610.941115) can0 12E#000000000000C0CF
(1713559610.941355) can0 12F#F8000320000000C3
(1713559610.941603) can0 290#00000002000000DC
(1713559610.941919) can0 174#E87F005B387903C8
(1713559610.942156) can0 178#06800148FF9203D7
(1713559610.942391) can0 17C#0080010051690399
(1713559610.942629) can0 410#2880008B9F6E8B4B
(1713559610.942876) can0 400#28800000000000A1
(1713559610.947823) can0 120#00000008020000C6
(1713559610.948066) can0 121#00000000000000D4
(1713559610.948308) can0 129#00000001000000D0
(1713559610.949329) can0 541#04404800007FFFDC
(1713559610.949673) can0 140#0000030000000000
(1713559610.950698) can0 12F#F800022000000025
(1713559610.950993) can0 12D#0000000000000035
(1713559610.951240) can0 290#000000020000003D
(1713559610.951902) can0 410#2880008B9F6E8B7E
(1713559610.952134) can0 174#E27F005B387904F3
(1713559610.952371) can0 178#0880000003930429
(1713559610.952611) can0 17C#FC7F010035690487
(1713559610.952865) can0 400#28800000000000CB
(1713559610.959386) can0 551#000000000004C000
(1713559610.959625) can0 550#48000C000100009D
(1713559610.959864) can0 5D1#9958000200000000
(1713559610.960492) can0 12F#F800032000000048
(1713559610.960730) can0 128#1388030000EC7828
(1713559610.960968) can0 12A#1028103C445800BC
(1713559610.961218) can0 12D#000000000000005F
(1713559610.961462) can0 12E#000000000000C02E
(1713559610.961708) can0 290#0000000200000057
(1713559610.961948) can0 410#2880008B9F6E8B9F
(1713559610.962180) can0 174#E07F005B357905D1
(1713559610.962420) can0 178#0480000009930580
(1713559610.962659) can0 17C#F67F01001C690541
(1713559610.962894) can0 5A0#0000006244928097
(1713559610.963143) can0 400#288000000000002A
(1713559610.963524) can0 540#0000001040009F00
(1713559610.963763) can0 5B0#6342000000000077
(1713559610.967920) can0 120#0000000802000027
(1713559610.968167) can0 121#0000000000000035
(1713559610.968411) can0 129#0000000100000031
(1713559610.969325) can0 541#04404800007FFF3D
(1713559610.970198) can0 140#0000030000000000
(1713559610.970716) can0 12F#F80002200000007A
(1713559610.970962) can0 12D#000000000000006A
(1713559610.971210) can0 290#0000000200000062
(1713559610.971867) can0 410#2880008B9F6E8BAA
(1713559610.972099) can0 174#E07F005B34790679
(1713559610.972334) can0 178#FE7F000D129306B8
(1713559610.972575) can0 17C#F67F0100116906E3
(1713559610.972905) can0 400#2880000000000040
(1713559610.978801) can0 6B9#0020400000000000
(1713559610.979043) can0 5A2#1410140000000000
(1713559610.979397) can0 551#000000000004C000
(1713559610.979645) can0 5D1#9958000200000000
(1713559610.980480) can0 12F#F80003200000009C
(1713559610.980707) can0 128#1388030000EC7842
(1713559610.980952) can0 12D#000000000000008B
(1713559610.981195) can0 12E#000000000000C044
(1713559610.981447) can0 290#0000000200000083
(1713559610.981823) can0 410#2880008B9F6E8BC0
(1713559610.982055) can0 174#E27F005B347907DE
(1713559610.982294) can0 178#028000001593077B
(1713559610.982534) can0 17C#FC7F01001969079A
(1713559610.982950) can0 400#2880000000000075
(1713559610.988021) can0 120#000000080200004D
(1713559610.988268) can0 121#000000000000005F
(1713559610.988512) can0 129#000000010000005B
(1713559610.989345) can0 541#04404800007FFF57
(1713559610.989600) can0 552#00FFFFFFFFFFFF2E
(1713559610.989844) can0 450#0055A00013004A00
(1713559610.990699) can0 12F#F8000220000000AE
(1713559610.990947) can0 12D#00000000000000BE
(1713559610.991197) can0 140#0000030000000000
(1713559610.991444) can0 290#00000002000000B6
(1713559610.991801) can0 410#2880008B9F6E8B21
(1713559610.992029) can0 174#E47F005B347908B6
(1713559610.992311) can0 178#0A8001361593087E
(1713559610.992547) can0 17C#048001002969087B
(1713559610.993000) can0 400#2880000000000094
(1713559610.999418) can0 551#000000000004C000
(1713559610.999627) can0 5D1#9958000200000000
(1713559611.000470) can0 12F#F8000320000000C3
(1713559611.000704) can0 128#1388030000EC7877
(1713559611.000952) can0 12D#00000000000000D4
(1713559611.001196) can0 12E#000000000000C071
(1713559611.001444) can0 290#00000002000000DC
(1713559611.001804) can0 410#2880008B9F6E8B4B
(1713559611.002032) can0 174#E67F005C3579096A
(1713559611.002266) can0 178#0C800230149309E8
(1713559611.002506) can0 17C#04800100326909FE
(1713559611.003049) can0 400#28800000000000A1
(1713559611.008110) can0 120#0000000802000078
(1713559611.008361) can0 121#000000000000006A
(1713559611.008609) can0 129#000000010000006E
(1713559611.009327) can0 541#04404800007FFF62
(1713559611.009572) can0 550#48000C00010000A8
(1713559611.010556) can0 5D0#9958000200000000
(1713559611.010790) can0 12A#1028103C445800D6
(1713559611.011036) can0 12D#0000000000000035
(1713559611.011279) can0 12F#F800022000000025
(1713559611.011529) can0 140#0000030000000000
(1713559611.011776) can0 290#000000020000003D
(1713559611.012004) can0 174#E67F005B43790AF4
(1713559611.012259) can0 178#0880033111930AD8
(1713559611.012523) can0 17C#008001002D690A2E
(1713559611.012763) can0 410#2880008B9F6E8B7E
(1713559611.012999) can0 5B1#008A9A6800000096
(1713559611.013245) can0 400#28800000000000CB
(1713559611.013483) can0 5CF#7444540000000000
(1713559611.017402) can0 4EA#0000000000000000
(1713559611.017643) can0 5B2#0800000000000000
(1713559611.017889) can0 310#FFFFFFFF7D7D0000
(1713559611.019397) can0 551#000000000004C000
(1713559611.019624) can0 5D1#9958000200000000
(1713559611.020479) can0 12F#F800032000000048
(1713559611.020716) can0 128#1388030000EC7896
(1713559611.020971) can0 12D#000000000000005F
(1713559611.021211) can0 12E#000000000000C090
(1713559611.021455) can0 290#0000000200000057
(1713559611.021821) can0 410#2880008B9F6E8B9F
(1713559611.022050) can0 174#E67F005C58790B85
(1713559611.022283) can0 178#FE7F04380F930BAD
(1713559611.022524) can0 17C#FC7F01001F690B03
(1713559611.023140) can0 400#288000000000002A
(1713559611.028203) can0 120#0000000802000099
(1713559611.028446) can0 121#000000000000008B
(1713559611.028688) can0 129#000000010000008F
(1713559611.029334) can0 541#04404800007FFF83
(1713559611.030654) can0 12F#F80002200000007A
(1713559611.030901) can0 12D#000000000000006A
(1713559611.031149) can0 290#0000000200000062
(1713559611.031760) can0 140#0000030000000000
(1713559611.031989) can0 174#EA7F005B63790C31
(1713559611.032217) can0 178#EE7F053112930CB1
(1713559611.032498) can0 17C#F67F010017690C34
(1713559611.032734) can0 410#2880008B9F6E8BAA
(1713559611.033188) can0 400#2880000000000040
(1713559611.039768) can0 551#000000000004C000
(1713559611.040013) can0 552#00FFFFFFFFFFFF44
(1713559611.040303) can0 5D1#9958000200000000
(1713559611.040549) can0 12D#000000000000008B
(1713559611.040785) can0 128#1388030000EC78A3
(1713559611.041038) can0 12E#000000000000C0A5
(1713559611.041271) can0 12F#F80003200000009C
(1713559611.041519) can0 290#0010000200000088
(1713559611.041759) can0 410#2880008B9F6E8BC0
(1713559611.041987) can0 174#F27F005B63790D47
(1713559611.042220) can0 178#E27F063214930D16
(1713559611.042451) can0 17C#F27F010011690D45
(1713559611.042689) can0 5D2#7444540000000000
(1713559611.042938) can0 450#0055A00013004A00
(1713559611.043236) can0 400#2880000000000075
(1713559611.048302) can0 120#00000008020000AC
(1713559611.048547) can0 121#00000000000000BE
(1713559611.048790) can0 129#00000001000000BA
(1713559611.049326) can0 541#04404800007FFFB6
(1713559611.050704) can0 12F#F8000220000000AE
(1713559611.050952) can0 12D#00000000000000BE
(1713559611.051199) can0 290#00100002000000BD
(1713559611.051435) can0 410#2880008B9F6E8B21
(1713559611.051904) can0 174#F67F005C5C790E53
(1713559611.052134) can0 178#E27F073914930E7D
(1713559611.052386) can0 140#0000030000000000
(1713559611.052669) can0 17C#F67F01000C690E96
(1713559611.053285) can0 400#2880000000000094
(1713559611.055035) can0 6AB#ACC2A57596A3C162
(1713559611.055725) can0 6E2#0544000000000000
(1713559611.059408) can0 551#000000000004C000
(1713559611.059620) can0 550#48000C00010000C2
