(1713559067.896616) can0 12D#0000000000000035
(1713559067.896759) can0 290#000000020000003D
(1713559067.896790) can0 541#0440E800007FFF52
(1713559067.897652) can0 140#0000030000000000
(1713559067.900101) can0 410#2880008B9F6E8B4B
(1713559067.903226) can0 400#28800000000000A1
(1713559067.903572) can0 551#000000000004C000
(1713559067.903819) can0 5D1#9958000200000000
(1713559067.904052) can0 174#F47F004937790500
(1713559067.904292) can0 178#0A800465FF9205F8
(1713559067.904532) can0 17C#028001002C6905A0
(1713559067.905479) can0 12F#F820022000000059
(1713559067.905714) can0 128#1388030000EC7896
(1713559067.905964) can0 12D#000000000000005F
(1713559067.906210) can0 12E#000000000000C090
(1713559067.906456) can0 290#0000000200000057
(1713559067.908372) can0 120#000000000700007A
(1713559067.908618) can0 121#000000000000006A
(1713559067.908866) can0 129#000000010000006E
(1713559067.909110) can0 550#48000C000100007C
(1713559067.910096) can0 410#2880008B9F6E8B7E
(1713559067.913301) can0 400#28800000000000CB
(1713559067.913611) can0 541#0440E800007FFF67
(1713559067.913861) can0 552#00FFFFFFFFFFFFA5
(1713559067.914104) can0 174#F87F0049457906D7
(1713559067.914335) can0 178#0A80057204930620
(1713559067.914577) can0 17C#0680010035690675
(1713559067.914816) can0 450#005500001B004A00
(1713559067.915748) can0 12F#F810022000000071
(1713559067.915980) can0 12A#1428701C60580098
(1713559067.916226) can0 12D#000000000000006A
(1713559067.916474) can0 290#0000000200000062
(1713559067.918128) can0 140#0000030000000000
(1713559067.920047) can0 410#2880008B9F6E8B9F
(1713559067.923334) can0 400#288000000000002A
(1713559067.923574) can0 551#000000000004C000
(1713559067.923821) can0 5D1#9958000200000000
(1713559067.924051) can0 174#F67F00494879074E
(1713559067.924285) can0 178#088006740C93075C
(1713559067.924525) can0 17C#068001002F69077F
(1713559067.925430) can0 12F#F82002200000008D
(1713559067.925705) can0 128#1388030000EC78A3
(1713559067.925950) can0 12D#000000000000008B
(1713559067.926197) can0 12E#000000000000C0A5
(1713559067.926447) can0 290#0000000200000083
(1713559067.927117) can0 6B9#0000000000000000
(1713559067.927379) can0 5A2#1410140000000000
(1713559067.928475) can0 120#000000000700009B
(1713559067.928721) can0 121#000000000000008B
(1713559067.928961) can0 129#000000010000008F
(1713559067.930055) can0 410#2880008B9F6E8BAA
(1713559067.933410) can0 400#2880000000000040
(1713559067.933651) can0 541#0440E800007FFF86
(1713559067.933938) can0 174#F27F004942790893
(1713559067.934179) can0 178#0880072012930863
(1713559067.934409) can0 17C#0480010027690872
(1713559067.934775) can0 4EA#0000000000000000
(1713559067.935021) can0 5B2#0800000000000000
(1713559067.935267) can0 310#FFFFFFFF7D7D0000
(1713559067.935705) can0 12F#F8100220000000A5
(1713559067.935953) can0 12D#00000000000000BE
(1713559067.936201) can0 290#00000002000000B6
(1713559067.938659) can0 140#0000030000000000
(1713559067.939996) can0 410#2880008B9F6E8BC0
(1713559067.943425) can0 400#2880000000000075
(1713559067.943669) can0 551#000000000004C000
(1713559067.943901) can0 174#F27F00493A7909CA
(1713559067.944133) can0 178#0880084217930972
(1713559067.944370) can0 17C#02800100276909BC
(1713559067.944616) can0 540#000000103F009D00
(1713559067.944858) can0 5B0#63420000000000A3
(1713559067.945098) can0 5D1#9958000200000000
(1713559067.945466) can0 12F#F8200220000000D2
(1713559067.945752) can0 128#1388030000EC78C9
(1713559067.945996) can0 12D#00000000000000D4
(1713559067.946240) can0 12E#000000000000C0CF
(1713559067.946488) can0 290#00000002000000DC
(1713559067.948588) can0 120#00000000070000AE
(1713559067.948828) can0 121#00000000000000BE
(1713559067.949070) can0 129#00000001000000BA
(1713559067.950013) can0 410#2880008B9F6E8B21
(1713559067.953517) can0 400#2880000000000094
(1713559067.953756) can0 541#0440E800007FFFB3
(1713559067.953985) can0 174#F27F00493A790AED
(1713559067.954218) can0 178#0680096F1A930ABE
(1713559067.954462) can0 17C#FE7F010031690A9D
(1713559067.955713) can0 12F#F820022000000033
(1713559067.955955) can0 12D#0000000000000035
(1713559067.956202) can0 290#000000020000003D
(1713559067.958985) can0 550#48000C000100009D
(1713559067.959236) can0 140#0000030000000000
(1713559067.959618) can0 410#2880008B9F6E8B4B
(1713559067.962853) can0 5D0#9958010200000000
(1713559067.963085) can0 5B1#008A9A6800000096
(1713559067.963332) can0 5CF#7444540000000000
(1713559067.963575) can0 400#28800000000000A1
(1713559067.963822) can0 551#000000000004C000
(1713559067.964053) can0 174#F07F00493D790BC0
(1713559067.964287) can0 178#00800A7314930B30
(1713559067.964528) can0 17C#FE7F010038690B03
(1713559067.964773) can0 552#00FFFFFFFFFFFFCF
(1713559067.965019) can0 5D1#9958000200000000
(1713559067.965351) can0 5D2#7444540000000000
(1713559067.965589) can0 128#1388030000EC7828
(1713559067.965823) can0 12A#1428701C605800AD
(1713559067.966123) can0 12D#000000000000005F
(1713559067.966367) can0 12E#000000000000C02E
(1713559067.966609) can0 12F#F810022000000044
(1713559067.966855) can0 290#0000000200000057
(1713559067.967095) can0 450#005500001B004A00
(1713559067.967359) can0 5A0#0000006244928097
(1713559067.968689) can0 120#00000000070000C4
(1713559067.968934) can0 121#00000000000000D4
(1713559067.969174) can0 129#00000001000000D0
(1713559067.969642) can0 410#2880008B9F6E8B7E
(1713559067.973597) can0 541#0440E800007FFFD9
(1713559067.973840) can0 400#28800000000000CB
(1713559067.974068) can0 174#EC7F00493D790C91
(1713559067.974300) can0 178#FA7F0B6307930C70
(1713559067.974538) can0 17C#FE7F01003D690CD9
(1713559067.975775) can0 12F#F82002200000006C
(1713559067.976017) can0 12D#000000000000006A
(1713559067.976265) can0 290#0000000200000062
(1713559067.979566) can0 410#2880008B9F6E8B9F
(1713559067.979815) can0 140#0000030000000000
(1713559067.983548) can0 551#000000000004C000
(1713559067.983796) can0 400#288000000000002A
(1713559067.984026) can0 174#EC7F00493D790D8C
(1713559067.984259) can0 178#FA7F0C68FF920D88
(1713559067.984494) can0 17C#0280010040690D12
(1713559067.984735) can0 5D1#9958000200000000
(1713559067.985426) can0 12F#F82002200000008D
(1713559067.985660) can0 128#1388030000EC7842
(1713559067.985907) can0 12D#000000000000008B
(1713559067.986152) can0 12E#000000000000C044
(1713559067.986452) can0 290#0000000200000083
(1713559067.988773) can0 120#0000000007000025
(1713559067.989021) can0 121#0000000000000035
(1713559067.989265) can0 129#0000000100000031
(1713559067.989583) can0 410#2880008B9F6E8BAA
(1713559067.993600) can0 541#0440E800007FFF38
(1713559067.993846) can0 400#2880000000000040
(1713559067.994075) can0 174#EE7F00493D790E11
(1713559067.994312) can0 178#02800D20FB920EB9
(1713559067.994548) can0 17C#FE7F010048690E22
(1713559067.995751) can0 12F#F8100220000000A5
(1713559067.995989) can0 12D#00000000000000BE
(1713559067.996234) can0 290#00000002000000B6
(1713559067.999562) can0 410#2880008B9F6E8BC0
(1713559068.000257) can0 140#0000030000000000
(1713559068.003548) can0 551#000000000004C000
(1713559068.003793) can0 400#2880000000000075
(1713559068.004027) can0 174#F07F00493D790FB4
(1713559068.004265) can0 178#06800E47F6920FDC
(1713559068.004499) can0 17C#F47F010055690FCA
(1713559068.004739) can0 5D1#9958000200000000
(1713559068.005419) can0 12F#F8200220000000D2
(1713559068.005653) can0 128#1388030000EC7877
(1713559068.005898) can0 12D#00000000000000D4
(1713559068.006146) can0 12E#000000000000C071
(1713559068.006394) can0 290#00000002000000DC
(1713559068.008873) can0 120#000000000700004F
(1713559068.009122) can0 121#000000000000005F
(1713559068.009366) can0 129#000000010000005B
(1713559068.009602) can0 410#2880008B9F6E8B21
(1713559068.009845) can0 550#48000C00010000A8
(1713559068.013614) can0 541#0440E800007FFF52
(1713559068.013858) can0 400#2880000000000094
(1713559068.014094) can0 174#F07F00493D79000F
(1713559068.014330) can0 178#06800F6DF89200F5
(1713559068.014568) can0 17C#EE7F01005E690020
(1713559068.014814) can0 552#00FFFFFFFFFFFF2E
(1713559068.015060) can0 450#005500001B004A00
(1713559068.015725) can0 12F#F81002200000002E
(1713559068.015961) can0 12A#1428701C605800C7
(1713559068.016205) can0 12D#0000000000000035
(1713559068.016455) can0 290#000000020000003D
(1713559068.019508) can0 410#2880008B9F6E8B4B
(1713559068.020790) can0 140#0000030000000000
(1713559068.023543) can0 551#000000000004C000
(1713559068.023792) can0 5D1#9958000200000000
(1713559068.024024) can0 174#F07F00493A790198
(1713559068.024262) can0 178#06800062079301BE
(1713559068.024498) can0 17C#F47F0100566901E0
(1713559068.024744) can0 400#28800000000000A1
(1713559068.025480) can0 12F#F820022000000059
(1713559068.025715) can0 128#1388030000EC7896
(1713559068.025966) can0 12D#000000000000005F
(1713559068.026211) can0 12E#000000000000C090
(1713559068.026457) can0 290#001000020000005C
(1713559068.027362) can0 6B9#0000000000000000
(1713559068.027654) can0 5A2#1410140000000000
(1713559068.028969) can0 120#000000000700007A
(1713559068.029219) can0 121#000000000000006A
(1713559068.029467) can0 129#000000010000006E
(1713559068.029707) can0 410#2880008B9F6E8B7E
(1713559068.033596) can0 541#0440E800007FFF67
(1713559068.033903) can0 400#28800000000000CB
(1713559068.034138) can0 174#F07F0049347902B6
(1713559068.034374) can0 178#048001481493022C
(1713559068.034613) can0 17C#0080010046690216
(1713559068.034862) can0 4EA#0000000000000000
(1713559068.035107) can0 5B2#0800000000000000
(1713559068.035379) can0 310#FFFFFFFF7D7D0000
(1713559068.035720) can0 12F#F82002200000006C
(1713559068.035964) can0 12D#000000000000006A
(1713559068.036216) can0 290#0010000200000069
(1713559068.039457) can0 410#2880008B9F6E8B9F
(1713559068.041324) can0 140#0000030000000000
(1713559068.043543) can0 551#000000000004C000
(1713559068.043792) can0 5D1#9958000200000000
(1713559068.044028) can0 174#F07F0049307903AD
(1713559068.044266) can0 178#FC7F000014930321
(1713559068.044510) can0 17C#068001003D690310
(1713559068.044758) can0 400#288000000000002A
(1713559068.045004) can0 540#000000103F009D00
(1713559068.045244) can0 5B0#63420000000000C9
(1713559068.045485) can0 12F#F810022000000090
(1713559068.045721) can0 128#1388030000EC78A3
(1713559068.045967) can0 12D#000000000000008B
(1713559068.046211) can0 12E#000000000000C0A5
(1713559068.046463) can0 290#0000000200000083
(1713559068.049059) can0 120#000000000700009B
(1713559068.049304) can0 121#000000000000008B
(1713559068.049549) can0 129#000000010000008F
(1713559068.049783) can0 410#2880008B9F6E8BAA
(1713559068.053595) can0 541#0440E800007FFF86
(1713559068.054000) can0 400#2880000000000040
(1713559068.054231) can0 174#F47F004934790491
(1713559068.054469) can0 178#F27F00000D9304E8
(1713559068.054712) can0 17C#048001003A690473
(1713559068.055230) can0 6E2#0544000000000000
(1713559068.055749) can0 12F#F8200220000000B8
(1713559068.055994) can0 12D#00000000000000BE
(1713559068.056240) can0 290#00000002000000B6
(1713559068.059036) can0 550#48000C00010000C2
(1713559068.059403) can0 410#2880008B9F6E8BC0
(1713559068.061855) can0 140#0000030000000000
(1713559068.062869) can0 5D0#9958010200000000
(1713559068.063105) can0 5B1#008A9A68000000A3
(1713559068.063346) can0 5CF#7444540000000000
(1713559068.063590) can0 551#000000000004C000
(1713559068.063844) can0 552#00FFFFFFFFFFFF44
(1713559068.064082) can0 174#F87F004930790531
(1713559068.064318) can0 178#F07F000D09930506
(1713559068.064556) can0 17C#FC7F010037690599
(1713559068.064802) can0 400#2880000000000075
(1713559068.065043) can0 5D1#9958000200000000
(1713559068.065348) can0 5D2#7444540000000000
(1713559068.065584) can0 128#1388030000EC78C9
(1713559068.065819) can0 12A#1428701C60580026
(1713559068.066063) can0 12D#00000000000000D4
(1713559068.066308) can0 12E#000000000000C0CF
(1713559068.066547) can0 12F#F8200220000000D2
(1713559068.066795) can0 290#00000002000000DC
(1713559068.067035) can0 450#005500001B004A00
(1713559068.067274) can0 5A0#00000062449280A2
(1713559068.069159) can0 120#00000000070000AE
(1713559068.069405) can0 121#00000000000000BE
(1713559068.069648) can0 129#00000001000000BA
(1713559068.069884) can0 410#2880008B9F6E8B21
(1713559068.073589) can0 541#0440E800007FFFB3
(1713559068.073998) can0 174#F87F00492979068D
(1713559068.074234) can0 178#F27F0000099306D4
(1713559068.074472) can0 17C#F47F01002F690678
(1713559068.074718) can0 400#2880000000000094
(1713559068.075766) can0 12F#F81002200000002E
(1713559068.076010) can0 12D#0000000000000035
(1713559068.076258) can0 290#000000020000003D
(1713559068.079394) can0 410#2880008B9F6E8B4B
(1713559068.082439) can0 140#0000030000000000
(1713559068.083545) can0 551#000000000004C000
(1713559068.083796) can0 5D1#9958000200000000
(1713559068.084027) can0 174#F47F004925790721
(1713559068.084265) can0 178#F47F01360C9307FF
(1713559068.084506) can0 17C#EE7F0100276907B8
(1713559068.084752) can0 400#28800000000000A1
(1713559068.085424) can0 12F#F820022000000059
(1713559068.085662) can0 128#1388030000EC7828
(1713559068.085912) can0 12D#000000000000005F
(1713559068.086156) can0 12E#000000000000C02E
(1713559068.086402) can0 290#0000000200000057
(1713559068.089201) can0 120#00000000070000C4
(1713559068.089445) can0 121#00000000000000D4
(1713559068.089687) can0 129#00000001000000D0
(1713559068.089927) can0 410#2880008B9F6E8B7E
(1713559068.093582) can0 541#0440E800007FFFD9
(1713559068.094003) can0 174#F07F0049297908F9
(1713559068.094235) can0 178#F67F0230079308A9
(1713559068.094466) can0 17C#EE7F01002A690886
(1713559068.094712) can0 400#28800000000000CB
(1713559068.095711) can0 12F#F810022000000071
(1713559068.095954) can0 12D#000000000000006A
(1713559068.096202) can0 290#0000000200000062
(1713559068.099368) can0 410#2880008B9F6E8B9F
(1713559068.102978) can0 140#0000030000000000
(1713559068.103593) can0 551#000000000004C000
(1713559068.103839) can0 5D1#9958000200000000
(1713559068.104069) can0 174#F27F00492C7909D7
(1713559068.104309) can0 178#F87F0331FB92098C
(1713559068.104546) can0 17C#F67F0100346909E1
(1713559068.104794) can0 400#288000000000002A
(1713559068.105474) can0 12F#F82002200000008D
(1713559068.105709) can0 128#1388030000EC7842
(1713559068.105957) can0 12D#000000000000008B
(1713559068.106198) can0 12E#000000000000C044
(1713559068.106450) can0 290#0000000200000083
(1713559068.108986) can0 550#48000C0001000023
(1713559068.109239) can0 410#2880008B9F6E8BAA
(1713559068.109487) can0 120#0000000007000025
(1713559068.109735) can0 121#0000000000000035
(1713559068.109979) can0 129#0000000100000031
(1713559068.113561) can0 541#0440E800007FFF38
(1713559068.113814) can0 552#00FFFFFFFFFFFF71
(1713559068.114044) can0 174#F67F00492F790A15
(1713559068.114278) can0 178#FA7F0438F3920A17
(1713559068.114518) can0 17C#0280010034690A0F
(1713559068.114766) can0 400#2880000000000040
(1713559068.115029) can0 450#005500001B004A00
(1713559068.115726) can0 12F#F8200220000000B8
(1713559068.115958) can0 12A#1428701C6058004C
(1713559068.116204) can0 12D#00000000000000BE
(1713559068.116452) can0 290#00000002000000B6
(1713559068.119267) can0 410#2880008B9F6E8BC0
(1713559068.123505) can0 140#0000030000000000
(1713559068.123754) can0 551#000000000004C000
(1713559068.123996) can0 5D1#9958000200000000
(1713559068.124225) can0 174#F67F004932790B95
(1713559068.124465) can0 178#F87F0531F0920B57
(1713559068.124701) can0 17C#0E80010029690B34
(1713559068.124947) can0 400#2880000000000075
(1713559068.125526) can0 12F#F8100220000000CF
(1713559068.125760) can0 128#1388030000EC7877
(1713559068.126004) can0 12D#00000000000000D4
(1713559068.126252) can0 12E#000000000000C071
(1713559068.126500) can0 290#00000002000000DC
(1713559068.127645) can0 6B9#0000000000000000
(1713559068.127834) can0 5A2#1410140000000000
(1713559068.129187) can0 410#2880008B9F6E8B21
(1713559068.129439) can0 120#000000000700004F
(1713559068.129687) can0 121#000000000000005F
(1713559068.129931) can0 129#000000010000005B
(1713559068.133540) can0 541#0440E800007FFF52
(1713559068.133962) can0 174#EE7F004935790C27
(1713559068.134191) can0 178#F67F0632F1920C8E
(1713559068.134429) can0 17C#1480010022690C36
(1713559068.134675) can0 400#2880000000000094
(1713559068.134925) can0 4EA#0000000000000000
(1713559068.135171) can0 5B2#0800000000000000
(1713559068.135469) can0 310#FFFFFFFF7D7D0000
(1713559068.135710) can0 12F#F820022000000033
(1713559068.135956) can0 12D#0000000000000035
(1713559068.136207) can0 290#000000020000003D
(1713559068.139210) can0 410#2880008B9F6E8B4B
(1713559068.143585) can0 551#000000000004C000
(1713559068.143832) can0 5D1#9958000200000000
(1713559068.144089) can0 140#0000030000000000
(1713559068.144313) can0 174#E87F004938790D6C
(1713559068.144546) can0 178#FC7F0739F9920DBB
(1713559068.144783) can0 17C#0E80010021690D76
(1713559068.145029) can0 400#28800000000000A1
(1713559068.145275) can0 540#000000103F009D00
(1713559068.145516) can0 12F#F820022000000059
(1713559068.145751) can0 128#1388030000EC7896
(1713559068.146001) can0 12D#000000000000005F
(1713559068.146248) can0 12E#000000000000C090
(1713559068.146493) can0 290#0000000200000057
(1713559068.146736) can0 5B0#6342000000000028
(1713559068.149111) can0 410#2880008B9F6E8B7E
(1713559068.149493) can0 120#000000000700007A
(1713559068.149744) can0 121#000000000000006A
(1713559068.149992) can0 129#000000010000006E
(1713559068.153544) can0 541#0440E800007FFF67
(1713559068.153973) can0 174#EA7F004938790EF1
(1713559068.154208) can0 178#0680082D01930E8B
(1713559068.154445) can0 17C#0880010022690E0E
(1713559068.154691) can0 400#28800000000000CB
(1713559068.155743) can0 12F#F810022000000071
(1713559068.155987) can0 12D#000000000000006A
(1713559068.156235) can0 290#0000000200000062
(1713559068.159037) can0 550#48000C0001000049
(1713559068.159277) can0 410#2880008B9F6E8B9F
(1713559068.162927) can0 5D0#9958010200000000
(1713559068.163162) can0 5B1#008A9A68000000C9
(1713559068.163405) can0 5CF#7444540000000000
(1713559068.163646) can0 551#000000000004C000
(1713559068.163900) can0 552#00FFFFFFFFFFFF90
(1713559068.164132) can0 174#EE7F004938790F85
(1713559068.164374) can0 178#0E80093004930FCD
(1713559068.164617) can0 140#0000030000000000
(1713559068.164854) can0 17C#0680010029690F92
(1713559068.165103) can0 400#288000000000002A
(1713559068.165343) can0 5D1#9958000200000000
(1713559068.165579) can0 128#1388030000EC78A3
(1713559068.165811) can0 12A#1428701C60580079
(1713559068.166057) can0 12D#000000000000008B
(1713559068.166301) can0 12E#000000000000C0A5
(1713559068.166543) can0 12F#F82002200000008D
(1713559068.166795) can0 290#0000000200000083
(1713559068.167032) can0 5A0#00000062449280C8
(1713559068.167272) can0 5D2#7444540000000000
(1713559068.167520) can0 450#0054E0001B004A00
(1713559068.169098) can0 410#2880008B9F6E8BAA
(1713559068.169588) can0 120#000000000700009B
(1713559068.169832) can0 121#000000000000008B
(1713559068.170075) can0 129#000000010000008F
(1713559068.173532) can0 541#0440E800007FFF86
(1713559068.173989) can0 174#F47F0049387900EF
(1713559068.174225) can0 178#14800A32019300B7
(1713559068.174468) can0 17C#0C80010035690053
(1713559068.174715) can0 400#2880000000000040
(1713559068.175750) can0 12F#F8100220000000A5
(1713559068.176047) can0 12D#00000000000000BE
(1713559068.176293) can0 290#00000002000000B6
(1713559068.179151) can0 410#2880008B9F6E8BC0
(1713559068.183936) can0 551#000000000004C000
(1713559068.184166) can0 174#F67F0049357901CD
(1713559068.184397) can0 178#10800B36FF92012A
(1713559068.184647) can0 17C#128001003B6901FF
(1713559068.184886) can0 400#2880000000000075
(1713559068.185136) can0 140#0000030000000000
(1713559068.185376) can0 5D1#9958000200000000
(1713559068.185612) can0 128#1388030000EC78C9
(1713559068.185856) can0 12D#00000000000000D4
(1713559068.186100) can0 12E#000000000000C0CF
(1713559068.186340) can0 12F#F8200220000000D2
(1713559068.186588) can0 290#00000002000000DC
(1713559068.189097) can0 410#2880008B9F6E8B21
(1713559068.189683) can0 120#00000000070000AE
(1713559068.189929) can0 121#00000000000000BE
(1713559068.190172) can0 129#00000001000000BA
(1713559068.193531) can0 541#0440E800007FFFB3
(1713559068.193991) can0 174#F67F004932790260
(1713559068.194226) can0 178#00800C3006930291
(1713559068.194464) can0 17C#108001003A6902ED
(1713559068.194711) can0 400#2880000000000094
(1713559068.195651) can0 12F#F820022000000033
(1713559068.195896) can0 12D#0000000000000035
(1713559068.196151) can0 290#000000020000003D
(1713559068.199147) can0 410#2880008B9F6E8B4B
(1713559068.203589) can0 551#000000000004C000
(1713559068.203838) can0 5D1#9958000200000000
(1713559068.204068) can0 174#F27F00493779039D
(1713559068.204305) can0 178#F67F0000119303C0
(1713559068.204546) can0 17C#088001003769031E
(1713559068.204792) can0 400#28800000000000A1
(1713559068.205479) can0 12F#F820022000000059
(1713559068.205710) can0 128#1388030000EC7828
(1713559068.205961) can0 12D#000000000000005F
(1713559068.206203) can0 12E#000000000000C02E
(1713559068.206453) can0 140#0000030000000000
(1713559068.206699) can0 290#0000000200000057
(1713559068.209046) can0 550#48000C000100007C
(1713559068.209283) can0 410#2880008B9F6E8B7E
(1713559068.209780) can0 120#00000000070000C4
(1713559068.210024) can0 121#00000000000000D4
(1713559068.210267) can0 129#00000001000000D0
(1713559068.213552) can0 541#0440E800007FFFD9
(1713559068.213805) can0 552#00FFFFFFFFFFFFA5
(1713559068.214038) can0 174#F07F00493D79047B
(1713559068.214275) can0 178#F67F013017930493
(1713559068.214519) can0 17C#028001003A6904A0
(1713559068.214761) can0 450#0054E0001B004A00
(1713559068.215007) can0 400#28800000000000CB
(1713559068.215742) can0 12F#F810022000000071
(1713559068.215974) can0 12A#1428701C60580098
(1713559068.216220) can0 12D#000000000000006A
(1713559068.216468) can0 290#0000000200000062
(1713559068.219151) can0 410#2880008B9F6E8B9F
(1713559068.223584) can0 551#000000000004C000
(1713559068.223831) can0 5D1#9958000200000000
(1713559068.224069) can0 174#F07F0049407905AB
(1713559068.224301) can0 178#FA7F023212930525
(1713559068.224541) can0 17C#FE7F0100406905E1
(1713559068.224823) can0 400#288000000000002A
(1713559068.225476) can0 12F#F82002200000008D
(1713559068.225710) can0 128#1388030000EC7842
(1713559068.225963) can0 12D#000000000000008B
(1713559068.226200) can0 12E#000000000000C044
(1713559068.226450) can0 140#0000030000000000
(1713559068.226705) can0 290#0000000200000083
(1713559068.227909) can0 6B9#0000000000000000
(1713559068.228150) can0 5A2#1410140000000000
(1713559068.229146) can0 410#2880008B9F6E8BAA
(1713559068.229928) can0 120#0000000007000025
(1713559068.230177) can0 121#0000000000000035
(1713559068.230421) can0 129#0000000100000031
(1713559068.233536) can0 541#0440E800007FFF38
(1713559068.234007) can0 174#F07F00493F790642
(1713559068.234241) can0 178#FE7F03360A93065B
(1713559068.234478) can0 17C#FA7F010043690623
(1713559068.234727) can0 4EA#0000000000000000
(1713559068.234975) can0 400#2880000000000040
(1713559068.235221) can0 5B2#0800000000000000
(1713559068.235468) can0 310#FFFFFFFF7D7D0000
(1713559068.235711) can0 12F#F8200220000000B8
(1713559068.235961) can0 12D#00000000000000BE
(1713559068.236205) can0 290#00000002000000B6
(1713559068.239151) can0 410#2880008B9F6E8BC0
(1713559068.243579) can0 551#000000000004C000
(1713559068.243827) can0 5D1#9958000200000000
(1713559068.244065) can0 174#F07F00493B790759
(1713559068.244301) can0 178#FE7F043507930772
(1713559068.244543) can0 17C#F67F010045690780
(1713559068.244920) can0 400#2880000000000075
(1713559068.245465) can0 12F#F8200220000000D2
(1713559068.245700) can0 128#1388030000EC7877
(1713559068.245944) can0 12D#00000000000000D4
(1713559068.246198) can0 12E#000000000000C071
(1713559068.246440) can0 290#00000002000000DC
(1713559068.246685) can0 540#000000103F009D00
(1713559068.246935) can0 140#0000030000000000
(1713559068.247180) can0 5B0#6342000000000042
(1713559068.249148) can0 410#2880008B9F6E8B21
(1713559068.250022) can0 120#000000000700004F
(1713559068.250223) can0 121#000000000000005F
(1713559068.250467) can0 129#000000010000005B
(1713559068.253540) can0 541#0440E800007FFF52
(1713559068.254001) can0 174#EE7F004935790853
(1713559068.254233) can0 178#FC7F05300C93084A
(1713559068.254469) can0 17C#F67F0100406908B2
(1713559068.254936) can0 400#2880000000000094
(1713559068.255737) can0 12F#F81002200000002E
(1713559068.255982) can0 12D#0000000000000035
(1713559068.256230) can0 290#000000020000003D
(1713559068.259037) can0 550#48000C000100009D
(1713559068.259272) can0 410#2880008B9F6E8B4B
(1713559068.262922) can0 5D0#9958010200000000
(1713559068.263161) can0 5B1#008A9A6800000028
(1713559068.263399) can0 5CF#7444540000000000
(1713559068.263642) can0 551#000000000004C000
(1713559068.263896) can0 552#00FFFFFFFFFFFFCF
(1713559068.264124) can0 174#EE7F0049327909C4
(1713559068.264356) can0 178#FC7F063114930960
(1713559068.264592) can0 17C#FA7F01003A690953
(1713559068.264834) can0 5D1#9958000200000000
(1713559068.265094) can0 400#28800000000000A1
(1713559068.265320) can0 5D2#7444540000000000
(1713559068.265559) can0 12F#F820022000000059
(1713559068.265793) can0 128#1388030000EC7896
(1713559068.266027) can0 12A#1428701C605800AD
(1713559068.266277) can0 12D#000000000000005F
(1713559068.266531) can0 12E#000000000000C090
(1713559068.266772) can0 290#0000000200000057
(1713559068.267015) can0 450#0054E0001B004A00
(1713559068.267263) can0 140#0000030000000000
(1713559068.267501) can0 5A0#0000006244928029
(1713559068.269144) can0 410#2880008B9F6E8B7E
(1713559068.270124) can0 120#000000000700007A
(1713559068.270367) can0 121#000000000000006A
(1713559068.270574) can0 129#000000010000006E
(1713559068.273536) can0 541#0440E800007FFF67
(1713559068.274007) can0 174#EE7F004932790AE3
(1713559068.274242) can0 178#0080073115930AB9
(1713559068.274478) can0 17C#FC7F010038690AA4
(1713559068.275028) can0 400#28800000000000CB
(1713559068.275711) can0 12F#F82002200000006C
(1713559068.275956) can0 12D#000000000000006A
(1713559068.276204) can0 290#0000000200000062
(1713559068.279117) can0 410#2880008B9F6E8B9F
(1713559068.283589) can0 551#000000000004C000
(1713559068.283835) can0 5D1#9958000200000000
(1713559068.284068) can0 174#F27F00492F790B61
(1713559068.284304) can0 178#0280083114930BED
(1713559068.284540) can0 17C#FC7F01003A690BBA
(1713559068.285115) can0 400#288000000000002A
(1713559068.285469) can0 12F#F82002200000008D
(1713559068.285705) can0 128#1388030000EC78A3
(1713559068.285951) can0 12D#000000000000008B
(1713559068.286195) can0 12E#000000000000C0A5
(1713559068.286448) can0 290#0000000200000083
(1713559068.287772) can0 140#0000030000000000
(1713559068.289084) can0 410#2880008B9F6E8BAA
(1713559068.290218) can0 120#000000000700009B
(1713559068.290462) can0 121#000000000000008B
(1713559068.290704) can0 129#000000010000008F
(1713559068.293524) can0 541#0440E800007FFF86
(1713559068.294013) can0 174#F67F00492D790C58
(1713559068.294245) can0 178#028009300D930CD2
(1713559068.294481) can0 17C#FC7F010031690C69
(1713559068.295128) can0 400#2880000000000040
(1713559068.295653) can0 12F#F8100220000000A5
(1713559068.295900) can0 12D#00000000000000BE
(1713559068.296146) can0 290#00000002000000B6
(1713559068.299013) can0 410#2880008B9F6E8BC0
(1713559068.303582) can0 551#000000000004C000
(1713559068.303829) can0 5D1#9958000200000000
(1713559068.304074) can0 174#F87F004930790DD9
(1713559068.304307) can0 178#FC7F0A3809930D4A
(1713559068.304543) can0 17C#FE7F01001E690D78
(1713559068.305213) can0 400#2880000000000075
(1713559068.305470) can0 12F#F8200220000000D2
(1713559068.305709) can0 128#1388030000EC78C9
(1713559068.305950) can0 12D#00000000000000D4
(1713559068.306194) can0 12E#000000000000C0CF
(1713559068.306442) can0 290#00000002000000DC
(1713559068.308294) can0 140#0000030000000000
(1713559068.309029) can0 410#2880008B9F6E8B21
(1713559068.309275) can0 550#48000C00010000A8
(1713559068.310322) can0 120#00000000070000AE
(1713559068.310571) can0 121#00000000000000BE
(1713559068.310813) can0 129#00000001000000BA
(1713559068.313546) can0 541#0440E800007FFFB3
(1713559068.313802) can0 552#00FFFFFFFFFFFF2E
(1713559068.314034) can0 174#F47F004938790E49
(1713559068.314272) can0 178#F67F000006930ED3
(1713559068.314512) can0 17C#008001001C690EFD
(1713559068.314754) can0 450#0054E0001B004A00
(1713559068.315223) can0 400#2880000000000094
(1713559068.315715) can0 12F#F820022000000033
(1713559068.315950) can0 12A#1428701C605800C7
(1713559068.316197) can0 12D#0000000000000035
(1713559068.316445) can0 290#000000020000003D
(1713559068.318957) can0 410#2880008B9F6E8B4B
(1713559068.323576) can0 551#000000000004C000
(1713559068.323824) can0 5D1#9958000200000000
(1713559068.324072) can0 174#EE7F00493D790F0C
(1713559068.324302) can0 178#F47F013006930F71
(1713559068.324546) can0 17C#008001002C690FC8
(1713559068.325306) can0 400#28800000000000A1
(1713559068.325560) can0 12D#000000000000005F
(1713559068.325795) can0 128#1388030000EC7828
(1713559068.326040) can0 12E#000000000000C02E
(1713559068.326282) can0 12F#F820022000000059
(1713559068.326542) can0 290#0000000200000057
(1713559068.328139) can0 6B9#0000000000000000
(1713559068.328380) can0 5A2#1410140000000000
(1713559068.328824) can0 140#0000030000000000
(1713559068.329064) can0 410#2880008B9F6E8B7E
(1713559068.330418) can0 120#00000000070000C4
(1713559068.330662) can0 121#00000000000000D4
(1713559068.330912) can0 129#00000001000000D0
(1713559068.333581) can0 541#0440E800007FFFD9
(1713559068.333980) can0 4EA#0000000000000000
(1713559068.334212) can0 174#EA7F00493B7900DB
(1713559068.334456) can0 178#F87F000006930074
(1713559068.334696) can0 17C#FC7F0100356900F3
(1713559068.334892) can0 5B2#0800000000000000
(1713559068.335138) can0 310#FFFFFFFF7D7D0000
(1713559068.335385) can0 400#28800000000000CB
(1713559068.335656) can0 12F#F810022000000071
(1713559068.335900) can0 12D#000000000000006A
(1713559068.336148) can0 290#0000000200000062
(1713559068.338600) can0 410#2880008B9F6E8B9F
(1713559068.343526) can0 551#000000000004C000
(1713559068.343775) can0 5D1#9958000200000000
(1713559068.344030) can0 174#EC7F00493579011C
(1713559068.344264) can0 178#FE7F015303930152
(1713559068.344503) can0 17C#FC7F010034690161
(1713559068.345404) can0 400#288000000000002A
(1713559068.345638) can0 128#1388030000EC7842
(1713559068.345885) can0 12D#000000000000008B
(1713559068.346129) can0 12E#000000000000C044
(1713559068.346369) can0 12F#F82002200000008D
(1713559068.346623) can0 290#0000000200000083
(1713559068.346869) can0 540#000000103F009D00
(1713559068.347111) can0 5B0#6342000000000077
(1713559068.348621) can0 410#2880008B9F6E8BAA
(1713559068.349357) can0 140#0000030000000000
(1713559068.350517) can0 120#0000000007000025
(1713559068.350766) can0 121#0000000000000035
(1713559068.351009) can0 129#0000000100000031
(1713559068.353586) can0 541#0440E800007FFF38
(1713559068.354090) can0 174#F07F0049307902B0
(1713559068.354324) can0 178#008002430393024F
(1713559068.354564) can0 17C#0080010032690258
(1713559068.355469) can0 400#2880000000000040
(1713559068.355740) can0 12F#F8200220000000B8
(1713559068.355988) can0 12D#00000000000000BE
(1713559068.356234) can0 290#00000002000000B6
(1713559068.358547) can0 410#2880008B9F6E8BC0
(1713559068.358985) can0 550#48000C00010000C2
(1713559068.362886) can0 5D0#9958010200000000
(1713559068.363120) can0 5B1#008A9A6800000042
(1713559068.363358) can0 5CF#7444540000000000
(1713559068.363604) can0 551#000000000004C000
(1713559068.363858) can0 552#00FFFFFFFFFFFF44
(1713559068.364092) can0 174#F07F00492F790333
(1713559068.364330) can0 178#0080033209930351
(1713559068.364572) can0 17C#028001003A6903F3
(1713559068.364813) can0 5D1#9958000200000000
(1713559068.365103) can0 5D2#7444540000000000
(1713559068.365388) can0 450#0054E0001B004A00
(1713559068.365622) can0 128#1388030000EC7877
(1713559068.365857) can0 12A#1428701C60580026
(1713559068.366101) can0 12D#00000000000000D4
(1713559068.366349) can0 12E#000000000000C071
(1713559068.366590) can0 12F#F8200220000000D2
(1713559068.366840) can0 290#00000002000000DC
(1713559068.367083) can0 400#2880000000000075
(1713559068.367357) can0 5A0#0000006244928043
(1713559068.368566) can0 410#2880008B9F6E8B21
(1713559068.369898) can0 140#0000030000000000
(1713559068.370613) can0 120#000000000700004F
(1713559068.370860) can0 121#000000000000005F
(1713559068.371104) can0 129#000000010000005B
(1713559068.374102) can0 174#F27F00492F7904DA
(1713559068.374329) can0 178#008004300F93042B
(1713559068.374571) can0 17C#008001003F690493
(1713559068.375557) can0 400#2880000000000094
(1713559068.375797) can0 12F#F81002200000002E
(1713559068.376042) can0 12D#0000000000000035
(1713559068.376291) can0 290#000000020000003D
(1713559068.376532) can0 541#0440E800007FFF52
(1713559068.378492) can0 410#2880008B9F6E8B4B
(1713559068.383530) can0 551#000000000004C000
(1713559068.383779) can0 5D1#9958000200000000
(1713559068.384043) can0 174#F67F00492D7905AD
(1713559068.384279) can0 178#00800530149305C4
(1713559068.384521) can0 17C#008001003269050B
(1713559068.385443) can0 12F#F820022000000059
(1713559068.385735) can0 128#1388030000EC7896
(1713559068.385977) can0 12D#000000000000005F
(1713559068.386224) can0 12E#000000000000C090
(1713559068.386469) can0 290#0000000200000057
(1713559068.386715) can0 400#28800000000000A1
(1713559068.388517) can0 410#2880008B9F6E8B7E
(1713559068.390420) can0 140#0000030000000000
(1713559068.390712) can0 120#000000000700007A
(1713559068.390964) can0 121#000000000000006A
(1713559068.391215) can0 129#000000010000006E
(1713559068.393580) can0 541#0440E800007FFF67
(1713559068.394099) can0 174#F87F00492979068D
(1713559068.394335) can0 178#FE7F0632149306DB
(1713559068.394571) can0 17C#028001001C6906AF
(1713559068.395661) can0 400#28800000000000CB
(1713559068.395908) can0 12D#000000000000006A
(1713559068.396148) can0 12F#F82002200000006C
(1713559068.396395) can0 290#0000000200000062
(1713559068.398440) can0 410#2880008B9F6E8B9F
(1713559068.403527) can0 551#000000000004C000
(1713559068.403778) can0 5D1#9958000200000000
(1713559068.404056) can0 174#F87F00492579079A
(1713559068.404293) can0 178#FC7F0737129307C0
(1713559068.404530) can0 17C#068001001169075E
(1713559068.405415) can0 12F#F82002200000008D
(1713559068.405651) can0 128#1388030000EC78A3
(1713559068.405946) can0 12D#000000000000008B
(1713559068.406190) can0 12E#000000000000C0A5
(1713559068.406442) can0 290#0000000200000083
(1713559068.406690) can0 400#288000000000002A
(1713559068.408460) can0 410#2880008B9F6E8BAA
(1713559068.409036) can0 550#48000C0001000023
(1713559068.410811) can0 120#000000000700009B
(1713559068.411055) can0 121#000000000000008B
(1713559068.411297) can0 129#000000010000008F
(1713559068.411550) can0 140#0000030000000000
(1713559068.413591) can0 541#0440E800007FFF86
(1713559068.413846) can0 552#00FFFFFFFFFFFF71
(1713559068.414093) can0 450#0054E0001B004A00
(1713559068.414327) can0 174#F87F00492A7908A7
(1713559068.414565) can0 178#FC7F085F119308C9
(1713559068.414797) can0 17C#08800100196908E8
(1713559068.415760) can0 400#2880000000000040
(1713559068.415990) can0 12A#1428701C6058004C
(1713559068.416238) can0 12D#00000000000000BE
(1713559068.416478) can0 12F#F8100220000000A5
(1713559068.416724) can0 290#00000002000000B6
(1713559068.418406) can0 410#2880008B9F6E8BC0
(1713559068.423526) can0 551#000000000004C000
(1713559068.423775) can0 5D1#9958000200000000
(1713559068.424053) can0 174#F67F004935790925
(1713559068.424285) can0 178#FA7F093014930952
(1713559068.424524) can0 17C#0A80010031690973
(1713559068.425426) can0 12F#F8200220000000D2
(1713559068.425662) can0 128#1388030000EC78C9
(1713559068.425905) can0 12D#00000000000000D4
(1713559068.426200) can0 12E#000000000000C0CF
(1713559068.426446) can0 290#00200002000000CA
(1713559068.426690) can0 400#2880000000000075
(1713559068.428402) can0 6B9#0000000000000000
(1713559068.428636) can0 410#2880008B9F6E8B21
(1713559068.428880) can0 5A2#1410140000000000
(1713559068.430908) can0 120#00000000070000AE
(1713559068.431154) can0 121#00000000000000BE
(1713559068.431399) can0 129#00000001000000BA
(1713559068.431647) can0 140#0000030000000000
(1713559068.433571) can0 541#0440E800007FFFB3
(1713559068.433820) can0 4EA#0000000000000000
(1713559068.434066) can0 5B2#0800000000000000
(1713559068.434296) can0 174#F67F004938790A87
(1713559068.434524) can0 178#FA7F0A3712930A3A
(1713559068.434768) can0 17C#0A80010040690A93
(1713559068.435006) can0 310#FFFFFFFF7D7D0000
(1713559068.435701) can0 12F#F820022000000033
(1713559068.435942) can0 12D#0000000000000035
(1713559068.436188) can0 290#002000020000002B
(1713559068.436434) can0 400#2880000000000094
(1713559068.437571) can0 6AB#ACC2A57596A3C162
(1713559068.438381) can0 410#2880008B9F6E8B4B
(1713559068.443518) can0 551#000000000004C000
(1713559068.443768) can0 5D1#9958000200000000
(1713559068.444059) can0 174#F67F004937790B1C
(1713559068.444291) can0 178#FE7F0B310F930BD0
(1713559068.444535) can0 17C#068001003F690BFB
(1713559068.445426) can0 12F#F820022000000059
(1713559068.445664) can0 128#1388030000EC7828
(1713559068.445914) can0 12D#000000000000005F
(1713559068.446158) can0 12E#000000000000C02E
(1713559068.446404) can0 290#001000020000005C
(1713559068.446651) can0 400#28800000000000A1
(1713559068.446946) can0 540#000000103F009D00
(1713559068.447189) can0 5B0#6342000000000096
(1713559068.448370) can0 410#2880008B9F6E8B7E
(1713559068.450997) can0 120#00000000070000C4
(1713559068.451237) can0 121#00000000000000D4
(1713559068.451479) can0 129#00000001000000D0
(1713559068.452019) can0 140#0000030000000000
(1713559068.453577) can0 541#0440E800007FFFD9
(1713559068.454113) can0 174#F27F00493A790CA3
(1713559068.454349) can0 178#0280000009930CA6
(1713559068.454585) can0 17C#0280010037690CCD
(1713559068.455751) can0 12F#F810022000000071
(1713559068.455986) can0 12D#000000000000006A
(1713559068.456229) can0 290#0010000200000069
(1713559068.456476) can0 400#28800000000000CB
(1713559068.458356) can0 410#2880008B9F6E8B9F
(1713559068.459035) can0 550#48000C0001000049
(1713559068.462896) can0 5D0#9958010200000000
(1713559068.463132) can0 5B1#008A9A6800000077
(1713559068.463371) can0 5CF#7444540000000000
(1713559068.463615) can0 551#000000000004C000
(1713559068.463872) can0 552#00FFFFFFFFFFFF90
(1713559068.464100) can0 174#F27F004938790DBD
(1713559068.464336) can0 178#02800137FF920D8B
(1713559068.464576) can0 17C#0480010031690D06
(1713559068.464816) can0 5D1#9958000200000000
(1713559068.465060) can0 5D2#7444540000000000
(1713559068.465332) can0 450#0054E0001B004A00
(1713559068.465566) can0 128#1388030000EC7842
(1713559068.465799) can0 12A#1428701C60580079
(1713559068.466045) can0 12D#000000000000008B
(1713559068.466289) can0 12E#000000000000C044
(1713559068.466530) can0 12F#F82002200000008D
(1713559068.466783) can0 290#0000000200000083
(1713559068.467031) can0 400#288000000000002A
(1713559068.467346) can0 5A0#0000006244928076
(1713559068.468326) can0 410#2880008B9F6E8BAA
(1713559068.471093) can0 120#0000000007000025
(1713559068.471357) can0 121#0000000000000035
(1713559068.471586) can0 129#0000000100000031
(1713559068.472552) can0 140#0000030000000000
(1713559068.473575) can0 541#0440E800007FFF38
(1713559068.474134) can0 174#F27F004930790E96
(1713559068.474368) can0 178#0680022EFC920ED3
(1713559068.474604) can0 17C#048001002A690EB9
(1713559068.475760) can0 12F#F8200220000000B8
(1713559068.476014) can0 12D#00000000000000BE
(1713559068.476255) can0 290#00000002000000B6
(1713559068.476500) can0 400#2880000000000040
(1713559068.478300) can0 410#2880008B9F6E8BC0
(1713559068.483526) can0 551#000000000004C000
(1713559068.483775) can0 5D1#9958000200000000
(1713559068.484085) can0 174#EE7F00492A790F9E
(1713559068.484319) can0 178#0680033101930FA8
(1713559068.484559) can0 17C#0280010024690F7E
(1713559068.485415) can0 12F#F8200220000000D2
(1713559068.485650) can0 128#1388030000EC7877
(1713559068.485894) can0 12D#00000000000000D4
(1713559068.486143) can0 12E#000000000000C071
(1713559068.486390) can0 290#00000002000000DC
(1713559068.486636) can0 400#2880000000000075
(1713559068.488273) can0 410#2880008B9F6E8B21
(1713559068.491186) can0 120#000000000700004F
(1713559068.491439) can0 121#000000000000005F
(1713559068.491678) can0 129#000000010000005B
(1713559068.493082) can0 140#0000030000000000
(1713559068.493579) can0 541#0440E800007FFF52
(1713559068.494128) can0 174#EE7F0049277900A0
(1713559068.494367) can0 178#008004300993005A
(1713559068.494609) can0 17C#048001001F6900BE
(1713559068.495699) can0 12F#F81002200000002E
(1713559068.495942) can0 12D#0000000000000035
(1713559068.496190) can0 290#000000020000003D
(1713559068.496443) can0 400#2880000000000094
(1713559068.498245) can0 410#2880008B9F6E8B4B
(1713559068.503523) can0 551#000000000004C000
(1713559068.503770) can0 5D1#9958000200000000
(1713559068.504080) can0 174#F27F0049257901BC
(1713559068.504320) can0 178#FC7F00000A93010A
(1713559068.504563) can0 17C#0480010021690182
(1713559068.505454) can0 12F#F820022000000059
(1713559068.505688) can0 128#1388030000EC7896
(1713559068.505938) can0 12D#000000000000005F
(1713559068.506185) can0 12E#000000000000C090
(1713559068.506432) can0 290#0000000200000057
(1713559068.506677) can0 400#28800000000000A1
(1713559068.508223) can0 410#2880008B9F6E8B7E
(1713559068.509037) can0 550#48000C000100007C
(1713559068.511295) can0 120#000000000700007A
(1713559068.511548) can0 121#000000000000006A
(1713559068.511793) can0 129#000000010000006E
(1713559068.513589) can0 541#0440E800007FFF67
(1713559068.513839) can0 140#0000030000000000
(1713559068.514084) can0 552#00FFFFFFFFFFFFA5
(1713559068.514316) can0 174#F67F0049297902F8
(1713559068.514555) can0 178#008001380393022C
(1713559068.514790) can0 17C#FC7F01002269025B
(1713559068.515032) can0 450#0054E0001B004A00
(1713559068.515716) can0 12F#F82002200000006C
(1713559068.515946) can0 12A#1428701C60580098
(1713559068.516192) can0 12D#000000000000006A
(1713559068.516441) can0 290#0000000200000062
(1713559068.516694) can0 400#28800000000000CB
(1713559068.518202) can0 410#2880008B9F6E8B9F
(1713559068.523522) can0 551#000000000004C000
(1713559068.523771) can0 5D1#9958000200000000
(1713559068.524097) can0 174#F87F00493079037F
(1713559068.524334) can0 178#06800232FE9203A6
(1713559068.524570) can0 17C#F47F010022690394
(1713559068.525464) can0 12F#F82002200000008D
(1713559068.525700) can0 128#1388030000EC78A3
(1713559068.525947) can0 12D#000000000000008B
(1713559068.526190) can0 12E#000000000000C0A5
(1713559068.526442) can0 290#0000000200000083
(1713559068.526691) can0 400#288000000000002A
(1713559068.528200) can0 410#2880008B9F6E8BAA
(1713559068.528740) can0 6B9#0000000000000000
(1713559068.529102) can0 5A2#1410140000000000
(1713559068.531384) can0 120#000000000700009B
(1713559068.531625) can0 121#000000000000008B
(1713559068.531867) can0 129#000000010000008F
(1713559068.533565) can0 541#0440E800007FFF86
(1713559068.533815) can0 4EA#0000000000000000
(1713559068.534060) can0 5B2#0800000000000000
(1713559068.534310) can0 140#0000030000000000
(1713559068.534544) can0 174#F87F0049357904A5
(1713559068.534781) can0 178#0A80033203930465
(1713559068.535025) can0 17C#EE7F010024690413
(1713559068.535268) can0 310#FFFFFFFF7D7D0000
(1713559068.535640) can0 12F#F8100220000000A5
(1713559068.535886) can0 12D#00000000000000BE
(1713559068.536133) can0 290#00000002000000B6
(1713559068.536381) can0 400#2880000000000040
(1713559068.538207) can0 410#2880008B9F6E8BC0
(1713559068.543513) can0 551#000000000004C000
(1713559068.543762) can0 5D1#9958000200000000
(1713559068.544100) can0 174#F27F0049357905D0
(1713559068.544336) can0 178#0A8004350C930501
(1713559068.544576) can0 17C#EE7F010027690582
(1713559068.545494) can0 12F#F8200220000000D2
(1713559068.545730) can0 128#1388030000EC78C9
(1713559068.545974) can0 12D#00000000000000D4
(1713559068.546218) can0 12E#000000000000C0CF
(1713559068.546467) can0 290#00000002000000DC
(1713559068.546712) can0 400#2880000000000075
(1713559068.547030) can0 540#000000103F009D00
(1713559068.547272) can0 5B0#63420000000000A3
(1713559068.548148) can0 410#2880008B9F6E8B21
(1713559068.551481) can0 120#00000000070000AE
(1713559068.551724) can0 121#00000000000000BE
(1713559068.551967) can0 129#00000001000000BA
(1713559068.553573) can0 541#0440E800007FFFB3
(1713559068.554163) can0 174#EE7F00493279067F
(1713559068.554405) can0 178#048000000F9306A2
(1713559068.554645) can0 17C#F27F01002F6906AB
(1713559068.554895) can0 140#0000030000000000
(1713559068.555738) can0 12F#F820022000000033
(1713559068.555981) can0 12D#0000000000000035
(1713559068.556229) can0 290#000000020000003D
(1713559068.556478) can0 400#2880000000000094
(1713559068.558198) can0 410#2880008B9F6E8B4B
(1713559068.559035) can0 550#48000C000100009D
(1713559068.562883) can0 5D0#9958010200000000
(1713559068.563119) can0 5B1#008A9A6800000096
(1713559068.563358) can0 5CF#7444540000000000
(1713559068.563603) can0 551#000000000004C000
(1713559068.563859) can0 552#00FFFFFFFFFFFFCF
(1713559068.564107) can0 55A#0017160000000000
(1713559068.564343) can0 174#EE7F004930790761
(1713559068.564577) can0 178#FA7F013207930730
(1713559068.564820) can0 17C#F67F01003D6907C4
(1713559068.565060) can0 5D1#9958000200000000
(1713559068.565346) can0 5D2#7444540000000000
(1713559068.565584) can0 128#1388030000EC7828
(1713559068.565818) can0 12A#1428701C605800AD
(1713559068.566069) can0 12D#000000000000005F
(1713559068.566312) can0 12E#000000000000C02E
(1713559068.566554) can0 12F#F820022000000059
(1713559068.566800) can0 290#001000020000005C
(1713559068.567047) can0 400#28800000000000A1
(1713559068.567289) can0 450#0054E0001B004A00
(1713559068.567525) can0 5A0#0000006244928097
(1713559068.568167) can0 410#2880008B9F6E8B7E
(1713559068.571527) can0 120#00000000070000C4
(1713559068.571770) can0 121#00000000000000D4
(1713559068.572011) can0 129#00000001000000D0
(1713559068.573568) can0 541#0440E800007FFFD9
(1713559068.574155) can0 174#F07F0049357908EB
(1713559068.574388) can0 178#F47F0230FF9208DB
(1713559068.574627) can0 17C#FA7F01004A690806
(1713559068.575216) can0 140#0000030000000000
(1713559068.575758) can0 12F#F810022000000071
(1713559068.575999) can0 12D#000000000000006A
(1713559068.576244) can0 290#0010000200000069
(1713559068.576517) can0 400#28800000000000CB
(1713559068.578200) can0 410#2880008B9F6E8B9F
(1713559068.583583) can0 551#000000000004C000
(1713559068.583822) can0 5D1#9958000200000000
(1713559068.584154) can0 174#F27F00493B790945
(1713559068.584386) can0 178#F27F0332FC9209D4
(1713559068.584622) can0 17C#008001004B69095C
(1713559068.585462) can0 12F#F82002200000008D
(1713559068.585696) can0 128#1388030000EC7842
(1713559068.585943) can0 12D#000000000000008B
(1713559068.586187) can0 12E#000000000000C044
(1713559068.586439) can0 290#0000000200000083
(1713559068.586687) can0 400#288000000000002A
(1713559068.588146) can0 410#2880008B9F6E8BAA
(1713559068.591627) can0 120#0000000007000025
(1713559068.591874) can0 121#0000000000000035
(1713559068.592118) can0 129#0000000100000031
(1713559068.593512) can0 541#0440E800007FFF38
(1713559068.594108) can0 174#F27F004942790AA9
(1713559068.594344) can0 178#FA7F0433FF920A3B
(1713559068.594580) can0 17C#0080010043690A77
(1713559068.595701) can0 12F#F8200220000000B8
(1713559068.595945) can0 12D#00000000000000BE
(1713559068.596196) can0 140#0000030000000000
(1713559068.596450) can0 290#00000002000000B6
(1713559068.596689) can0 400#2880000000000040
(1713559068.598203) can0 410#2880008B9F6E8BC0
(1713559068.603575) can0 551#000000000004C000
(1713559068.603822) can0 5D1#9958000200000000
(1713559068.604165) can0 174#F07F004942790B0E
(1713559068.604395) can0 178#FE7F053106930B45
(1713559068.604628) can0 17C#FC7F010043690B71
(1713559068.605463) can0 12F#F8200220000000D2
(1713559068.605697) can0 128#1388030000EC7877
(1713559068.605941) can0 12D#00000000000000D4
(1713559068.606189) can0 12E#000000000000C071
(1713559068.606437) can0 290#00000002000000DC
(1713559068.606690) can0 400#2880000000000075
(1713559068.608147) can0 410#2880008B9F6E8B21
(1713559068.608987) can0 550#48000C00010000A8
(1713559068.611728) can0 120#000000000700004F
(1713559068.611975) can0 121#000000000000005F
(1713559068.612219) can0 129#000000010000005B
(1713559068.613535) can0 541#0440E800007FFF52
(1713559068.613790) can0 552#00FFFFFFFFFFFF2E
(1713559068.614038) can0 450#0054E0001B004A00
(1713559068.614265) can0 174#EE7F00493D790C2B
(1713559068.614501) can0 178#FC7F063003930C06
(1713559068.614735) can0 17C#FA7F010051690CEA
(1713559068.615764) can0 12F#F820022000000033
(1713559068.615997) can0 12A#1428701C605800C7
(1713559068.616243) can0 12D#0000000000000035
(1713559068.616493) can0 140#0000030000000000
(1713559068.616743) can0 290#000000020000003D
(1713559068.616987) can0 400#2880000000000094
(1713559068.618162) can0 410#2880008B9F6E8B4B
(1713559068.623569) can0 551#000000000004C000
(1713559068.623816) can0 5D1#9958000200000000
(1713559068.624174) can0 174#EE7F00493F790D35
(1713559068.624403) can0 178#F47F0731F8920D7A
(1713559068.624642) can0 17C#0080010059690D33
(1713559068.625473) can0 12F#F810022000000044
(1713559068.625704) can0 128#1388030000EC7896
(1713559068.625955) can0 12D#000000000000005F
(1713559068.626201) can0 12E#000000000000C090
(1713559068.626447) can0 290#0000000200000057
(1713559068.626773) can0 400#28800000000000A1
(1713559068.628115) can0 410#2880008B9F6E8B7E
(1713559068.629342) can0 6B9#0000000000000000
(1713559068.629586) can0 5A2#1410140000000000
(1713559068.631825) can0 120#000000000700007A
(1713559068.632076) can0 121#000000000000006A
(1713559068.632324) can0 129#000000010000006E
(1713559068.633317) can0 4EA#0000000000000000
(1713559068.633561) can0 541#0440E800007FFF67
(1713559068.633806) can0 5B2#0800000000000000
(1713559068.634052) can0 310#FFFFFFFF7D7D0000
(1713559068.634287) can0 174#F07F004948790E68
(1713559068.634518) can0 178#F07F0838F4920E43
(1713559068.634758) can0 17C#0C80010050690E2C
(1713559068.635648) can0 12F#F82002200000006C
(1713559068.635942) can0 12D#000000000000006A
(1713559068.636190) can0 290#0000000200000062
(1713559068.636816) can0 140#0000030000000000
(1713559068.637060) can0 400#28800000000000CB
(1713559068.638163) can0 410#2880008B9F6E8B9F
(1713559068.643559) can0 551#000000000004C000
(1713559068.643807) can0 5D1#9958000200000000
(1713559068.644174) can0 174#F47F00494D790F95
(1713559068.644422) can0 178#F47F0000FE920FBC
(1713559068.644649) can0 17C#1280010043690F1D
(1713559068.645465) can0 12F#F82002200000008D
(1713559068.645701) can0 128#1388030000EC78A3
(1713559068.645950) can0 12D#000000000000008B
(1713559068.646191) can0 12E#000000000000C0A5
(1713559068.646443) can0 290#0000000200000083
(1713559068.646872) can0 400#288000000000002A
(1713559068.647534) can0 540#000000103F009D00
(1713559068.647772) can0 5B0#63420000000000C9
(1713559068.648136) can0 410#2880008B9F6E8BAA
(1713559068.651920) can0 120#000000000700009B
(1713559068.652163) can0 121#000000000000008B
(1713559068.652405) can0 129#000000010000008F
(1713559068.653519) can0 541#0440E800007FFF86
(1713559068.654127) can0 174#F67F00494B790091
(1713559068.654374) can0 178#F87F00000F9300F7
(1713559068.654613) can0 17C#1080010037690052
(1713559068.655691) can0 12F#F8200220000000B8
(1713559068.655987) can0 12D#00000000000000BE
(1713559068.656236) can0 290#00000002000000B6
(1713559068.656907) can0 400#2880000000000040
(1713559068.657351) can0 140#0000030000000000
(1713559068.658114) can0 410#2880008B9F6E8BC0
(1713559068.659042) can0 550#48000C00010000C2
(1713559068.662969) can0 5D0#9958010200000000
(1713559068.663202) can0 5B1#008A9A68000000A3
(1713559068.663441) can0 5CF#7444540000000000
(1713559068.664024) can0 551#000000000004C000
(1713559068.664255) can0 174#F67F00494279010F
(1713559068.664495) can0 178#FE7F01521C930151
(1713559068.664725) can0 17C#08800100226901B5
(1713559068.664969) can0 552#00FFFFFFFFFFFF44
(1713559068.665215) can0 5D1#9958000200000000
(1713559068.665461) can0 5D2#7444540000000000
(1713559068.665697) can0 128#1388030000EC78C9
(1713559068.665933) can0 12A#1428701C60580026
(1713559068.666175) can0 12D#00000000000000D4
(1713559068.666419) can0 12E#000000000000C0CF
(1713559068.666662) can0 12F#F8100220000000CF
(1713559068.666910) can0 290#00000002000000DC
(1713559068.667155) can0 400#2880000000000075
(1713559068.667401) can0 450#0054E0001B004A00
(1713559068.667636) can0 5A0#00000062449280A2
(1713559068.668084) can0 410#2880008B9F6E8B21
(1713559068.672018) can0 120#00000000070000AE
(1713559068.672263) can0 121#00000000000000BE
(1713559068.672505) can0 129#00000001000000BA
(1713559068.673511) can0 541#0440E800007FFFB3
(1713559068.674143) can0 174#F87F004934790264
(1713559068.674375) can0 178#0880026F1A93029E
(1713559068.674614) can0 17C#FE7F010013690246
(1713559068.675709) can0 12F#F820022000000033
(1713559068.675954) can0 12D#0000000000000035
(1713559068.676251) can0 290#000000020000003D
(1713559068.677009) can0 400#2880000000000094
(1713559068.677885) can0 140#0000030000000000
(1713559068.678124) can0 410#2880008B9F6E8B4B
(1713559068.683570) can0 551#000000000004C000
(1713559068.683812) can0 5D1#9958000200000000
(1713559068.684193) can0 174#F87F00493279037C
(1713559068.684425) can0 178#10800362149303C4
(1713559068.684666) can0 17C#FC7F0100196903EE
(1713559068.685504) can0 12F#F820022000000059
(1713559068.685734) can0 128#1388030000EC7828
(1713559068.685984) can0 12D#000000000000005F
(1713559068.686228) can0 12E#000000000000C02E
(1713559068.686475) can0 290#0000000200000057
(1713559068.687075) can0 400#28800000000000A1
(1713559068.688035) can0 410#2880008B9F6E8B7E
(1713559068.692115) can0 120#00000000070000C4
(1713559068.692358) can0 121#00000000000000D4
(1713559068.692600) can0 129#00000001000000D0
(1713559068.693506) can0 541#0440E800007FFFD9
(1713559068.694143) can0 174#FA7F00493A790499
(1713559068.694374) can0 178#1480046511930488
(1713559068.694612) can0 17C#FE7F01002A6904A3
(1713559068.695654) can0 12F#F82002200000006C
(1713559068.695898) can0 12D#000000000000006A
(1713559068.696146) can0 290#0000000200000062
(1713559068.697057) can0 400#28800000000000CB
(1713559068.698013) can0 410#2880008B9F6E8B9F
(1713559068.698420) can0 140#0000030000000000
(1713559068.703566) can0 551#000000000004C000
(1713559068.703815) can0 5D1#9958000200000000
(1713559068.704200) can0 174#FA7F00493F79050D
(1713559068.704434) can0 178#128005720A930565
(1713559068.704682) can0 17C#008001003A690507
(1713559068.705458) can0 12F#F82002200000008D
(1713559068.705692) can0 128#1388030000EC7842
(1713559068.705946) can0 12D#000000000000008B
(1713559068.706183) can0 12E#000000000000C044
(1713559068.706434) can0 290#0000000200000083
(1713559068.707180) can0 400#288000000000002A
(1713559068.707657) can0 410#2880008B9F6E8BAA
(1713559068.709034) can0 550#48000C0001000023
(1713559068.712213) can0 120#0000000007000025
(1713559068.712460) can0 121#0000000000000035
(1713559068.712705) can0 129#0000000100000031
(1713559068.713531) can0 541#0440E800007FFF38
(1713559068.713786) can0 552#00FFFFFFFFFFFF71
(1713559068.714033) can0 450#0054E0001B004A00
(1713559068.714271) can0 174#F87F00494079065E
(1713559068.714507) can0 178#0C800674039306AE
(1713559068.714749) can0 17C#F87F010040690615
(1713559068.715708) can0 12F#F8100220000000A5
(1713559068.715940) can0 12A#1428701C6058004C
(1713559068.716188) can0 12D#00000000000000BE
(1713559068.716434) can0 290#00000002000000B6
(1713559068.717162) can0 400#2880000000000040
(1713559068.717992) can0 410#2880008B9F6E8BC0
(1713559068.718949) can0 140#0000030000000000
(1713559068.723565) can0 551#000000000004C000
(1713559068.723811) can0 5D1#9958000200000000
(1713559068.724203) can0 174#F47F00493F790736
(1713559068.724440) can0 178#068007200193074D
(1713559068.724684) can0 17C#EE7F01003D6907AF
(1713559068.725488) can0 12F#F8200220000000D2
(1713559068.725722) can0 128#1388030000EC7877
(1713559068.725966) can0 12D#00000000000000D4
(1713559068.726222) can0 12E#000000000000C071
(1713559068.726463) can0 290#00000002000000DC
(1713559068.727274) can0 400#2880000000000075
(1713559068.727602) can0 410#2880008B9F6E8B21
(1713559068.729697) can0 6B9#0000000000000000
(1713559068.729941) can0 5A2#1410140000000000
(1713559068.732308) can0 120#000000000700004F
(1713559068.732555) can0 121#000000000000005F
(1713559068.732800) can0 129#000000010000005B
(1713559068.733127) can0 4EA#0000000000000000
(1713559068.733373) can0 5B2#0800000000000000
(1713559068.733618) can0 310#FFFFFFFF7D7D0000
(1713559068.733861) can0 541#0440E800007FFF52
(1713559068.734155) can0 174#F07F00493D7908E7
(1713559068.734393) can0 178#028008420793081F
(1713559068.734627) can0 17C#EC7F0100356908A2
(1713559068.735642) can0 12F#F820022000000033
(1713559068.735887) can0 12D#0000000000000035
(1713559068.736135) can0 290#000000020000003D
(1713559068.737260) can0 400#2880000000000094
(1713559068.737526) can0 410#2880008B9F6E8B4B
(1713559068.739484) can0 140#0000030000000000
(1713559068.743557) can0 551#000000000004C000
(1713559068.743805) can0 5D1#9958000200000000
(1713559068.744203) can0 174#F27F0049387909C9
(1713559068.744437) can0 178#0280096F0D930962
(1713559068.744675) can0 17C#F67F010031690968
(1713559068.745462) can0 12F#F820022000000059
(1713559068.745698) can0 128#1388030000EC7896
(1713559068.745946) can0 12D#000000000000005F
(1713559068.746192) can0 12E#000000000000C090
(1713559068.746440) can0 290#0000000200000057
(1713559068.747403) can0 400#28800000000000A1
(1713559068.747617) can0 410#2880008B9F6E8B7E
(1713559068.747990) can0 540#000000103F009D00
(1713559068.748233) can0 5B0#6342000000000028
(1713559068.752410) can0 120#000000000700007A
(1713559068.752659) can0 121#000000000000006A
(1713559068.752906) can0 129#000000010000006E
(1713559068.753516) can0 541#0440E800007FFF67
(1713559068.754162) can0 174#F87F004932790A89
(1713559068.754394) can0 178#04800A7312930A41
(1713559068.754632) can0 17C#FC7F01002A690ABF
(1713559068.755684) can0 12F#F82002200000006C
(1713559068.755929) can0 12D#000000000000006A
(1713559068.756176) can0 290#0000000200000062
(1713559068.757364) can0 400#28800000000000CB
(1713559068.757603) can0 410#2880008B9F6E8B9F
(1713559068.759037) can0 550#48000C0001000049
(1713559068.760017) can0 140#0000030000000000
(1713559068.762967) can0 5D0#9958010200000000
(1713559068.763201) can0 5B1#008A9A68000000C9
(1713559068.763442) can0 5CF#7444540000000000
(1713559068.763685) can0 551#000000000004C000
(1713559068.763939) can0 552#00FFFFFFFFFFFF90
(1713559068.764185) can0 5D1#9958000200000000
(1713559068.764421) can0 174#FE7F004930790B44
(1713559068.764653) can0 178#00800B6312930B7A
(1713559068.764891) can0 17C#FC7F010024690BAB
(1713559068.765138) can0 5D2#7444540000000000
(1713559068.765383) can0 450#0054E0001B004A00
(1713559068.765616) can0 128#1388030000EC78A3
(1713559068.765851) can0 12A#1428701C60580079
(1713559068.766094) can0 12D#000000000000008B
(1713559068.766342) can0 12E#000000000000C0A5
(1713559068.766578) can0 12F#F82002200000008D
(1713559068.766831) can0 290#0000000200000083
(1713559068.767073) can0 5A0#00000062449280C8
(1713559068.767483) can0 400#288000000000002A
(1713559068.767706) can0 410#2880008B9F6E8BAA
(1713559068.772493) can0 120#000000000700009B
(1713559068.772738) can0 121#000000000000008B
(1713559068.772980) can0 129#000000010000008F
(1713559068.773522) can0 541#0440E800007FFF86
(1713559068.774172) can0 174#0080004937790C3C
(1713559068.774408) can0 178#F87F0C680F930CEB
(1713559068.774647) can0 17C#FC7F010029690C7D
(1713559068.775710) can0 12F#F8200220000000B8
(1713559068.775958) can0 12D#00000000000000BE
(1713559068.776203) can0 290#00000002000000B6
(1713559068.777421) can0 410#2880008B9F6E8BC0
(1713559068.777669) can0 400#2880000000000040
(1713559068.780547) can0 140#0000030000000000
(1713559068.783562) can0 551#000000000004C000
(1713559068.783809) can0 5D1#9958000200000000
(1713559068.784221) can0 174#FC7F004946790DFD
(1713559068.784453) can0 178#F67F0D200F930D95
(1713559068.784691) can0 17C#FE7F01002C690D53
(1713559068.785455) can0 12F#F8200220000000D2
(1713559068.785692) can0 128#1388030000EC78C9
(1713559068.785935) can0 12D#00000000000000D4
(1713559068.786179) can0 12E#000000000000C0CF
(1713559068.786431) can0 290#00000002000000DC
(1713559068.787443) can0 410#2880008B9F6E8B21
(1713559068.787688) can0 400#2880000000000075
(1713559068.792591) can0 120#00000000070000AE
(1713559068.792837) can0 121#00000000000000BE
(1713559068.793079) can0 129#00000001000000BA
(1713559068.793516) can0 541#0440E800007FFFB3
(1713559068.794179) can0 174#F67F00494D790E32
(1713559068.794416) can0 178#F87F0E470F930E27
(1713559068.794656) can0 17C#FE7F010022690E7D
(1713559068.795643) can0 12F#F81002200000002E
(1713559068.795888) can0 12D#0000000000000035
(1713559068.796136) can0 290#000000020000003D
(1713559068.797366) can0 410#2880008B9F6E8B4B
(1713559068.797619) can0 400#2880000000000094
(1713559068.801081) can0 140#0000030000000000
(1713559068.803567) can0 551#000000000004C000
(1713559068.803815) can0 5D1#9958000200000000
(1713559068.804227) can0 174#F27F004946790FC6
(1713559068.804461) can0 178#F87F0F6D0F930FA1
(1713559068.804698) can0 17C#FC7F010019690F72
(1713559068.805459) can0 12F#F820022000000059
(1713559068.805697) can0 128#1388030000EC7828
(1713559068.805946) can0 12D#000000000000005F
(1713559068.806190) can0 12E#000000000000C02E
(1713559068.806436) can0 290#0000000200000057
(1713559068.807394) can0 410#2880008B9F6E8B7E
(1713559068.807674) can0 400#28800000000000A1
(1713559068.809044) can0 550#48000C000100007C
(1713559068.812741) can0 120#00000000070000C4
(1713559068.812932) can0 121#00000000000000D4
(1713559068.813174) can0 129#00000001000000D0
(1713559068.813547) can0 541#0440E800007FFFD9
(1713559068.813800) can0 552#00FFFFFFFFFFFFA5
(1713559068.814048) can0 450#0054E0001B004A00
(1713559068.814280) can0 174#F27F00493F7900B6
(1713559068.814516) can0 178#F47F00620F9300B5
(1713559068.814760) can0 17C#F87F01001F6900A5
(1713559068.815709) can0 12F#F82002200000006C
(1713559068.815942) can0 12A#1428701C60580098
(1713559068.816190) can0 12D#000000000000006A
(1713559068.816437) can0 290#0000000200000062
(1713559068.817315) can0 410#2880008B9F6E8B9F
(1713559068.817665) can0 400#28800000000000CB
(1713559068.821565) can0 140#0000030000000000
(1713559068.823563) can0 551#000000000004C000
(1713559068.823809) can0 5D1#9958000200000000
(1713559068.824235) can0 174#F27F004938790121
(1713559068.824473) can0 178#F27F01480D9301E3
(1713559068.824707) can0 17C#F47F01003169013A
(1713559068.825465) can0 12F#F82002200000008D
(1713559068.825700) can0 128#1388030000EC7842
(1713559068.825946) can0 12D#000000000000008B
(1713559068.826190) can0 12E#000000000000C044
(1713559068.826442) can0 290#0000000200000083
(1713559068.827394) can0 410#2880008B9F6E8BAA
(1713559068.827767) can0 400#288000000000002A
(1713559068.829935) can0 6B9#0000000000000000
(1713559068.830179) can0 5A2#1410140000000000
(1713559068.832854) can0 120#0000000007000025
(1713559068.833092) can0 121#0000000000000035
(1713559068.833336) can0 129#0000000100000031
(1713559068.833585) can0 4EA#0000000000000000
(1713559068.833829) can0 541#0440E800007FFF38
(1713559068.834077) can0 5B2#0800000000000000
(1713559068.834311) can0 174#F67F004930790263
(1713559068.834549) can0 178#F47F00000A9302FF
(1713559068.834785) can0 17C#F07F01004569023A
(1713559068.835031) can0 310#FFFFFFFF7D7D0000
(1713559068.835697) can0 12F#F8200220000000B8
(1713559068.835943) can0 12D#00000000000000BE
(1713559068.836189) can0 290#00000002000000B6
(1713559068.837287) can0 410#2880008B9F6E8BC0
(1713559068.837760) can0 400#2880000000000040
(1713559068.842097) can0 140#0000030000000000
(1713559068.843502) can0 551#000000000004C000
(1713559068.843751) can0 5D1#9958000200000000
(1713559068.844204) can0 174#F87F0049297903E4
(1713559068.844444) can0 178#F87F0000079303DC
(1713559068.844683) can0 17C#F07F01004E6903A7
(1713559068.845461) can0 12F#F8200220000000D2
(1713559068.845693) can0 128#1388030000EC7877
(1713559068.845937) can0 12D#00000000000000D4
(1713559068.846185) can0 12E#000000000000C071
(1713559068.846432) can0 290#00000002000000DC
(1713559068.847306) can0 410#2880008B9F6E8B21
(1713559068.847862) can0 400#2880000000000075
(1713559068.848473) can0 540#000000103F009D00
(1713559068.848715) can0 5B0#6342000000000042
(1713559068.852935) can0 120#000000000700004F
(1713559068.853180) can0 121#000000000000005F
(1713559068.853424) can0 129#000000010000005B
(1713559068.854266) can0 174#F87F00492C79043E
(1713559068.854495) can0 178#FA7F000D049304F6
(1713559068.854730) can0 17C#F47F01004D690411
(1713559068.855719) can0 12F#F820022000000033
(1713559068.855965) can0 12D#0000000000000035
(1713559068.856211) can0 290#000000020000003D
(1713559068.856453) can0 541#0440E800007FFF52
(1713559068.857281) can0 410#2880008B9F6E8B4B
(1713559068.857909) can0 400#2880000000000094
(1713559068.858985) can0 550#48000C000100009D
(1713559068.862631) can0 140#0000030000000000
(1713559068.862918) can0 5D0#9958010200000000
(1713559068.863156) can0 5B1#008A9A6800000028
(1713559068.863395) can0 5CF#7444540000000000
(1713559068.863640) can0 551#000000000004C000
(1713559068.863894) can0 552#00FFFFFFFFFFFFCF
(1713559068.864140) can0 5D1#9958000200000000
(1713559068.864375) can0 174#F47F00493479058C
(1713559068.864615) can0 178#FA7F0000069305A7
(1713559068.864853) can0 17C#FC7F01004A690554
(1713559068.865092) can0 5D2#7444540000000000
(1713559068.865339) can0 450#005500001B004A00
(1713559068.865573) can0 128#1388030000EC7896
(1713559068.865813) can0 12A#1428701C605800AD
(1713559068.866107) can0 12D#000000000000005F
(1713559068.866353) can0 12E#000000000000C090
(1713559068.866596) can0 12F#F820022000000059
(1713559068.866842) can0 290#0000000200000057
(1713559068.867080) can0 5A0#0000006244928029
(1713559068.867348) can0 410#2880008B9F6E8B7E
(1713559068.867959) can0 400#28800000000000A1
(1713559068.873033) can0 120#000000000700007A
(1713559068.873283) can0 121#000000000000006A
(1713559068.873530) can0 129#000000010000006E
(1713559068.873775) can0 541#0440E800007FFF67
(1713559068.874253) can0 174#F27F00493A790671
(1713559068.874499) can0 178#F87F01360A93065C
(1713559068.874729) can0 17C#0480010045690687
(1713559068.875756) can0 12F#F810022000000071
(1713559068.875999) can0 12D#000000000000006A
(1713559068.876247) can0 290#0000000200000062
(1713559068.877230) can0 410#2880008B9F6E8B9F
(1713559068.877991) can0 400#28800000000000CB
(1713559068.883165) can0 140#0000030000000000
(1713559068.883529) can0 551#000000000004C000
(1713559068.883778) can0 5D1#9958000200000000
(1713559068.884220) can0 174#F27F0049357907EA
(1713559068.884457) can0 178#FC7F0230149307EE
(1713559068.884697) can0 17C#088001003D690765
(1713559068.885409) can0 12F#F82002200000008D
(1713559068.885645) can0 128#1388030000EC78A3
(1713559068.885897) can0 12D#000000000000008B
(1713559068.886188) can0 12E#000000000000C0A5
(1713559068.886437) can0 290#0000000200000083
(1713559068.887199) can0 410#2880008B9F6E8BAA
(1713559068.888047) can0 400#288000000000002A
(1713559068.893127) can0 120#000000000700009B
(1713559068.893370) can0 121#000000000000008B
(1713559068.893612) can0 129#000000010000008F
(1713559068.893854) can0 541#0440E800007FFF86
(1713559068.894266) can0 174#F27F00492C7908CA
(1713559068.894500) can0 178#0080033117930835
(1713559068.894747) can0 17C#0C8001003869083E
(1713559068.895694) can0 12F#F8200220000000B8
(1713559068.895938) can0 12D#00000000000000BE
(1713559068.896185) can0 290#00000002000000B6
(1713559068.897149) can0 410#2880008B9F6E8BC0
(1713559068.898091) can0 400#2880000000000040
(1713559068.903503) can0 551#000000000004C000
(1713559068.903751) can0 140#0000030000000000
(1713559068.903991) can0 5D1#9958000200000000
(1713559068.904223) can0 174#F27F00492A7909D2
(1713559068.904461) can0 178#00800438129309AB
(1713559068.904697) can0 17C#088001003869094A
(1713559068.905406) can0 12F#F8200220000000D2
(1713559068.905642) can0 128#1388030000EC78C9
(1713559068.905886) can0 12D#00000000000000D4
(1713559068.906134) can0 12E#000000000000C0CF
(1713559068.906427) can0 290#00000002000000DC
(1713559068.907192) can0 410#2880008B9F6E8B21
(1713559068.908129) can0 400#2880000000000075
(1713559068.909036) can0 550#48000C00010000A8
(1713559068.913227) can0 120#00000000070000AE
(1713559068.913468) can0 121#00000000000000BE
(1713559068.913713) can0 129#00000001000000BA
(1713559068.913953) can0 541#0440E800007FFFB3
(1713559068.914207) can0 552#00FFFFFFFFFFFF2E
(1713559068.914435) can0 174#F47F004932790A32
(1713559068.914671) can0 178#0080053109930A7F
(1713559068.914917) can0 17C#0280010037690A83
(1713559068.915150) can0 450#005500001B004A00
(1713559068.915710) can0 12F#F820022000000033
(1713559068.915943) can0 12A#1428701C605800C7
(1713559068.916189) can0 12D#0000000000000035
(1713559068.916437) can0 290#000000020000003D
(1713559068.917193) can0 410#2880008B9F6E8B4B
(1713559068.918186) can0 400#2880000000000094
(1713559068.923502) can0 551#000000000004C000
(1713559068.923750) can0 5D1#9958000200000000
(1713559068.924230) can0 140#0000030000000000
(1713559068.924459) can0 174#F47F00493B790BAC
(1713559068.924690) can0 178#0280063201930BD0
(1713559068.924929) can0 17C#0080010038690BA2
(1713559068.925409) can0 12F#F820022000000059
(1713559068.925646) can0 128#1388030000EC7828
(1713559068.925896) can0 12D#000000000000005F
(1713559068.926141) can0 12E#000000000000C02E
(1713559068.926437) can0 290#001000020000005C
(1713559068.927194) can0 410#2880008B9F6E8B7E
(1713559068.928226) can0 400#28800000000000A1
(1713559068.930183) can0 6B9#0000000000000000
(1713559068.930427) can0 5A2#1410140000000000
(1713559068.932733) can0 4EA#0000000000000000
(1713559068.932976) can0 5B2#0800000000000000
(1713559068.933221) can0 310#FFFFFFFF7D7D0000
(1713559068.933467) can0 120#00000000070000C4
(1713559068.933714) can0 121#00000000000000D4
(1713559068.933954) can0 129#00000001000000D0
(1713559068.934196) can0 541#0440E800007FFFD9
(1713559068.934426) can0 174#F27F00493F790C2A
(1713559068.934661) can0 178#06800739FE920CE4
(1713559068.934901) can0 17C#048001003A690C9B
(1713559068.935768) can0 12F#F82002200000006C
(1713559068.936005) can0 12D#000000000000006A
(1713559068.936249) can0 290#0010000200000069
(1713559068.937141) can0 410#2880008B9F6E8B9F
(1713559068.938278) can0 400#28800000000000CB
(1713559068.943496) can0 551#000000000004C000
(1713559068.943745) can0 5D1#9958000200000000
(1713559068.944223) can0 174#F07F004935790D82
(1713559068.944462) can0 178#0880082DFB920D66
(1713559068.944698) can0 17C#0480010034690D8F
(1713559068.944949) can0 140#0000030000000000
(1713559068.945406) can0 12F#F82002200000008D
(1713559068.945640) can0 128#1388030000EC7842
(1713559068.945887) can0 12D#000000000000008B
(1713559068.946130) can0 12E#000000000000C044
(1713559068.946382) can0 290#0000000200000083
(1713559068.947142) can0 410#2880008B9F6E8BAA
(1713559068.948329) can0 400#288000000000002A
(1713559068.948976) can0 540#000000103F009D00
(1713559068.949217) can0 5B0#6342000000000077
(1713559068.953420) can0 120#0000000007000025
(1713559068.953666) can0 121#0000000000000035
(1713559068.953911) can0 129#0000000100000031
(1713559068.954155) can0 541#0440E800007FFF38
(1713559068.954387) can0 174#F27F00492A790E81
(1713559068.954625) can0 178#06800930F9920E43
(1713559068.954868) can0 17C#0080010029690E5C
(1713559068.955741) can0 12F#F8100220000000A5
(1713559068.955994) can0 12D#00000000000000BE
(1713559068.956232) can0 290#00000002000000B6
(1713559068.957142) can0 410#2880008B9F6E8BC0
(1713559068.958380) can0 400#2880000000000040
(1713559068.959035) can0 550#48000C00010000C2
(1713559068.962944) can0 5D0#9958010200000000
(1713559068.963176) can0 5B1#008A9A6800000042
(1713559068.963415) can0 5CF#7444540000000000
(1713559068.963659) can0 551#000000000004C000
(1713559068.963915) can0 552#00FFFFFFFFFFFF44
(1713559068.964158) can0 5D1#9958000200000000
(1713559068.964390) can0 174#F07F004927790FA3
(1713559068.964625) can0 178#02800A32F8920F21
(1713559068.964867) can0 17C#FC7F010026690FDC
(1713559068.965107) can0 5D2#7444540000000000
(1713559068.965354) can0 140#0000030000000000
(1713559068.965589) can0 128#1388030000EC7877
(1713559068.965823) can0 12A#1428701C60580026
(1713559068.966067) can0 12D#00000000000000D4
(1713559068.966315) can0 12E#000000000000C071
(1713559068.966555) can0 12F#F8200220000000D2
(1713559068.966803) can0 290#00000002000000DC
(1713559068.967043) can0 450#005500001B004A00
(1713559068.967279) can0 410#2880008B9F6E8B21
(1713559068.967563) can0 5A0#0000006244928043
(1713559068.968429) can0 400#2880000000000075
(1713559068.973513) can0 120#000000000700004F
(1713559068.973758) can0 121#000000000000005F
(1713559068.974002) can0 129#000000010000005B
(1713559068.974244) can0 541#0440E800007FFF52
(1713559068.974478) can0 174#EE7F0049277900A0
(1713559068.974714) can0 178#02800B36F9920031
(1713559068.974959) can0 17C#FA7F01002169003E
(1713559068.975698) can0 12F#F820022000000033
(1713559068.975943) can0 12D#0000000000000035
(1713559068.976199) can0 290#000000020000003D
(1713559068.977139) can0 410#2880008B9F6E8B4B
(1713559068.978469) can0 400#2880000000000094
(1713559068.983502) can0 551#000000000004C000
(1713559068.983751) can0 5D1#9958000200000000
(1713559068.984233) can0 174#EE7F00492C79013D
(1713559068.984469) can0 178#06800C30FB920124
(1713559068.984709) can0 17C#FC7F01001F6901D1
(1713559068.985475) can0 12F#F820022000000059
(1713559068.985709) can0 128#1388030000EC7896
(1713559068.985959) can0 12D#000000000000005F
(1713559068.986207) can0 12E#000000000000C090
(1713559068.986456) can0 140#0000030000000000
(1713559068.986702) can0 290#0000000200000057
(1713559068.987172) can0 410#2880008B9F6E8B7E
(1713559068.988520) can0 400#28800000000000A1
(1713559068.993544) can0 541#0440E800007FFF67
(1713559068.993790) can0 120#000000000700007A
(1713559068.994042) can0 121#000000000000006A
(1713559068.994290) can0 129#000000010000006E
(1713559068.994524) can0 174#EE7F00493479020E
(1713559068.994762) can0 178#06800000FE920227
(1713559068.995004) can0 17C#048001002469022C
(1713559068.995639) can0 12F#F82002200000006C
(1713559068.995882) can0 12D#000000000000006A
(1713559068.996129) can0 290#0000000200000062
(1713559068.997150) can0 410#2880008B9F6E8B9F
(1713559068.998577) can0 400#28800000000000CB
(1713559069.003499) can0 551#000000000004C000
(1713559069.003750) can0 5D1#9958000200000000
(1713559069.004244) can0 174#F07F004935790324
(1713559069.004478) can0 178#0680013009930371
(1713559069.004717) can0 17C#0C8001002769036F
(1713559069.005476) can0 12F#F82002200000008D
(1713559069.005711) can0 128#1388030000EC78A3
(1713559069.005958) can0 12D#000000000000008B
(1713559069.006202) can0 12E#000000000000C0A5
(1713559069.006452) can0 140#0000030000000000
(1713559069.006704) can0 290#0000000200000083
(1713559069.007169) can0 410#2880008B9F6E8BAA
(1713559069.008567) can0 400#288000000000002A
(1713559069.009040) can0 550#48000C0001000023
(1713559069.013567) can0 541#0440E800007FFF86
(1713559069.013815) can0 120#000000000700009B
(1713559069.014057) can0 121#000000000000008B
(1713559069.014298) can0 129#000000010000008F
(1713559069.014529) can0 174#F47F004932790494
(1713559069.014765) can0 178#0480023217930410
(1713559069.015007) can0 17C#0E8001002A690403
(1713559069.015251) can0 552#00FFFFFFFFFFFF71
(1713559069.015503) can0 450#005500001B004A00
(1713559069.015746) can0 12F#F8200220000000B8
(1713559069.015977) can0 12A#1428701C6058004C
(1713559069.016226) can0 12D#00000000000000BE
(1713559069.016472) can0 290#00000002000000B6
(1713559069.017132) can0 410#2880008B9F6E8BC0
(1713559069.018672) can0 400#2880000000000040
(1713559069.023499) can0 551#000000000004C000
(1713559069.023748) can0 5D1#9958000200000000
(1713559069.024256) can0 174#F87F004930790531
(1713559069.024493) can0 178#008003361C9305C0
(1713559069.024733) can0 17C#088001002C6905C8
(1713559069.025525) can0 12F#F8200220000000D2
(1713559069.025761) can0 128#1388030000EC78C9
(1713559069.026005) can0 12D#00000000000000D4
(1713559069.026249) can0 12E#000000000000C0CF
(1713559069.026498) can0 290#00000002000000DC
(1713559069.026880) can0 140#0000030000000000
(1713559069.027116) can0 410#2880008B9F6E8B21
(1713559069.028658) can0 400#2880000000000075
(1713559069.030482) can0 6B9#0000000000000000
(1713559069.030726) can0 5A2#1410140000000000
(1713559069.032542) can0 4EA#0000000000000000
(1713559069.032788) can0 5B2#0800000000000000
(1713559069.033033) can0 310#FFFFFFFF7D7D0000
(1713559069.033564) can0 541#0440E800007FFFB3
(1713559069.033814) can0 120#00000000070000AE
(1713559069.034060) can0 121#00000000000000BE
(1713559069.034302) can0 129#00000001000000BA
(1713559069.034539) can0 174#F67F004930790617
(1713559069.034772) can0 178#FE7F0435189306F1
(1713559069.035014) can0 17C#00800100276906BD
(1713559069.035634) can0 12F#F81002200000002E
(1713559069.035877) can0 12D#0000000000000035
(1713559069.036125) can0 290#000000020000003D
(1713559069.037077) can0 410#2880008B9F6E8B4B
(1713559069.038769) can0 400#2880000000000094
(1713559069.043493) can0 551#000000000004C000
(1713559069.043742) can0 5D1#9958000200000000
(1713559069.044254) can0 174#F47F00492F79072E
(1713559069.044488) can0 178#0280053014930744
(1713559069.044731) can0 17C#FC7F010022690732
(1713559069.045474) can0 12F#F820022000000059
(1713559069.045712) can0 128#1388030000EC7828
(1713559069.045962) can0 12D#000000000000005F
(1713559069.046206) can0 12E#000000000000C02E
(1713559069.046452) can0 290#001000020000005C
(1713559069.047002) can0 410#2880008B9F6E8B7E
(1713559069.047411) can0 140#0000030000000000
(1713559069.048757) can0 400#28800000000000A1
(1713559069.049381) can0 540#000000103F009D00
(1713559069.049623) can0 5B0#6342000000000096
(1713559069.053550) can0 541#0440E800007FFFD9
(1713559069.053906) can0 120#00000000070000C4
(1713559069.054147) can0 121#00000000000000D4
(1713559069.054389) can0 129#00000001000000D0
(1713559069.054619) can0 174#F47F00492F790895
(1713559069.054853) can0 178#028006310C9308C8
(1713559069.055087) can0 17C#FA7F01002A690856
(1713559069.055353) can0 6E2#0544000000000000
(1713559069.055688) can0 12F#F82002200000006C
(1713559069.055932) can0 12D#000000000000006A
(1713559069.056176) can0 290#0010000200000069
(1713559069.057026) can0 410#2880008B9F6E8B9F
(1713559069.058865) can0 400#28800000000000CB
(1713559069.059101) can0 550#48000C0001000049
(1713559069.062953) can0 5D0#9958010200000000
(1713559069.063188) can0 5B1#008A9A6800000077
(1713559069.063429) can0 5CF#7444540000000000
(1713559069.063674) can0 551#000000000004C000
(1713559069.063928) can0 552#00FFFFFFFFFFFF90
(1713559069.064173) can0 5D1#9958000200000000
(1713559069.064402) can0 174#F27F00492A7909D2
(1713559069.064637) can0 178#02800731049309B3
(1713559069.064872) can0 17C#FE7F01003A69093A
(1713559069.065110) can0 5D2#7444540000000000
(1713559069.065358) can0 450#005500001B004A00
(1713559069.065592) can0 128#1388030000EC7842
(1713559069.065824) can0 12A#1428701C60580079
(1713559069.066070) can0 12D#000000000000008B
(1713559069.066315) can0 12E#000000000000C044
(1713559069.066557) can0 12F#F82002200000008D
(1713559069.066809) can0 290#0000000200000083
(1713559069.067045) can0 410#2880008B9F6E8BAA
(1713559069.067283) can0 5A0#0000006244928076
(1713559069.067944) can0 140#0000030000000000
(1713559069.068858) can0 400#288000000000002A
(1713559069.073544) can0 541#0440E800007FFF38
(1713559069.073999) can0 120#0000000007000025
(1713559069.074249) can0 121#0000000000000035
(1713559069.074491) can0 129#0000000100000031
(1713559069.074723) can0 174#EE7F004922790AFB
(1713559069.074962) can0 178#00800831FC920A9A
(1713559069.075196) can0 17C#0680010046690A2D
(1713559069.075640) can0 12F#F8200220000000B8
(1713559069.075886) can0 12D#00000000000000BE
(1713559069.076132) can0 290#00000002000000B6
(1713559069.076970) can0 410#2880008B9F6E8BC0
(1713559069.078964) can0 400#2880000000000040
(1713559069.083496) can0 551#000000000004C000
(1713559069.083745) can0 5D1#9958000200000000
(1713559069.084263) can0 174#EE7F004921790B6A
(1713559069.084501) can0 178#00800930F8920B76
(1713559069.084737) can0 17C#0A80010048690B82
(1713559069.085535) can0 12F#F8200220000000D2
(1713559069.085770) can0 128#1388030000EC7877
(1713559069.086014) can0 12D#00000000000000D4
(1713559069.086262) can0 12E#000000000000C071
(1713559069.086510) can0 290#00000002000000DC
(1713559069.086746) can0 410#2880008B9F6E8B21
(1713559069.088475) can0 140#0000030000000000
(1713559069.088939) can0 400#2880000000000075
(1713559069.093534) can0 541#0440E800007FFF52
(1713559069.094094) can0 120#000000000700004F
(1713559069.094342) can0 121#000000000000005F
(1713559069.094587) can0 129#000000010000005B
(1713559069.094814) can0 174#F27F004924790CB2
(1713559069.095049) can0 178#02800A38FB920C31
(1713559069.095283) can0 17C#0880010045690CEE
(1713559069.095577) can0 12F#F820022000000033
(1713559069.095821) can0 12D#0000000000000035
(1713559069.096072) can0 290#000000020000003D
(1713559069.096612) can0 410#2880008B9F6E8B4B
(1713559069.099045) can0 400#2880000000000094
(1713559069.103496) can0 551#000000000004C000
(1713559069.103746) can0 5D1#9958000200000000
(1713559069.104272) can0 174#F27F004925790D20
(1713559069.104512) can0 178#0280000001930DB7
(1713559069.104748) can0 17C#0480010042690DC2
(1713559069.105546) can0 12F#F820022000000059
(1713559069.105780) can0 128#1388030000EC7896
(1713559069.106031) can0 12D#000000000000005F
(1713559069.106277) can0 12E#000000000000C090
(1713559069.106523) can0 290#0000000200000057
(1713559069.106763) can0 410#2880008B9F6E8B7E
(1713559069.108988) can0 550#48000C000100007C
(1713559069.109238) can0 140#0000030000000000
(1713559069.109485) can0 400#28800000000000A1
(1713559069.113559) can0 541#0440E800007FFF67
(1713559069.113814) can0 552#00FFFFFFFFFFFFA5
(1713559069.114059) can0 450#005500001B004A00
(1713559069.114308) can0 120#000000000700007A
(1713559069.114559) can0 121#000000000000006A
(1713559069.114808) can0 129#000000010000006E
(1713559069.115042) can0 174#F27F004927790E04
(1713559069.115276) can0 178#0280013007930E90
(1713559069.115513) can0 17C#FE7F010040690E2E
(1713559069.115746) can0 12A#1428701C60580098
(1713559069.115992) can0 12D#000000000000006A
(1713559069.116235) can0 12F#F810022000000071
(1713559069.116483) can0 290#0000000200000062
(1713559069.116723) can0 410#2880008B9F6E8B9F
(1713559069.119143) can0 400#28800000000000CB
(1713559069.123491) can0 551#000000000004C000
(1713559069.123739) can0 5D1#9958000200000000
(1713559069.124277) can0 174#F27F00492C790F99
(1713559069.124516) can0 178#0080000007930F32
(1713559069.124752) can0 17C#FA7F010045690FD3
(1713559069.125618) can0 12F#F82002200000008D
(1713559069.125854) can0 128#1388030000EC78A3
(1713559069.126100) can0 12D#000000000000008B
(1713559069.126344) can0 12E#000000000000C0A5
(1713559069.126596) can0 290#0000000200000083
(1713559069.126833) can0 410#2880008B9F6E8BAA
(1713559069.129143) can0 400#288000000000002A
(1713559069.129537) can0 140#0000030000000000
(1713559069.130717) can0 6B9#0000000000000000
(1713559069.130961) can0 5A2#1410140000000000
(1713559069.132306) can0 4EA#0000000000000000
(1713559069.132554) can0 5B2#0800000000000000
(1713559069.132797) can0 310#FFFFFFFF7D7D0000
(1713559069.133541) can0 541#0440E800007FFF86
(1713559069.134288) can0 120#000000000700009B
(1713559069.134532) can0 121#000000000000008B
(1713559069.134774) can0 129#000000010000008F
(1713559069.135010) can0 174#F07F00493479008C
(1713559069.135246) can0 178#048001530693000E
(1713559069.135484) can0 17C#FA7F0100486900ED
(1713559069.135732) can0 12D#00000000000000BE
(1713559069.135976) can0 12F#F8200220000000B8
(1713559069.136222) can0 290#00000002000000B6
(1713559069.136506) can0 410#2880008B9F6E8BC0
(1713559069.139235) can0 400#2880000000000040
(1713559069.143847) can0 551#000000000004C000
(1713559069.144095) can0 5D1#9958000200000000
(1713559069.144328) can0 174#F07F00493A790198
(1713559069.144561) can0 178#08800243099301B5
(1713559069.144799) can0 17C#0080010048690138
(1713559069.145610) can0 12F#F8200220000000D2
(1713559069.145846) can0 128#1388030000EC78C9
(1713559069.146090) can0 12D#00000000000000D4
(1713559069.146334) can0 12E#000000000000C0CF
(1713559069.146582) can0 290#00000002000000DC
(1713559069.146818) can0 410#2880008B9F6E8B21
(1713559069.149237) can0 400#2880000000000075
(1713559069.149833) can0 540#0000001040009D00
(1713559069.150083) can0 140#0000030000000000
(1713559069.150325) can0 5B0#63420000000000A3
(1713559069.153544) can0 541#0440E800007FFFB3
(1713559069.154345) can0 174#F27F0049437902CE
(1713559069.154590) can0 120#00000000070000AE
(1713559069.154839) can0 121#00000000000000BE
(1713559069.155079) can0 129#00000001000000BA
(1713559069.155317) can0 178#0E8003320993024D
(1713559069.155555) can0 17C#088001004D690244
(1713559069.155799) can0 12D#0000000000000035
(1713559069.156042) can0 12F#F820022000000033
(1713559069.156290) can0 290#000000020000003D
(1713559069.156528) can0 410#2880008B9F6E8B4B
(1713559069.159034) can0 550#48000C000100009D
(1713559069.159355) can0 400#2880000000000094
(1713559069.163002) can0 5D0#9958010200000000
(1713559069.163235) can0 5B1#008A9A6800000096
(1713559069.163427) can0 5CF#7444540000000000
(1713559069.163671) can0 551#000000000004C000
(1713559069.163927) can0 552#00FFFFFFFFFFFFCF
(1713559069.164173) can0 5D1#9958000200000000
(1713559069.164404) can0 174#F67F00494879033A
(1713559069.164637) can0 178#0C800430099303C6
(1713559069.164876) can0 17C#0A800100536903F2
(1713559069.165114) can0 5D2#7444540000000000
(1713559069.165362) can0 450#005500001B004A00
(1713559069.165624) can0 12F#F820022000000059
(1713559069.165862) can0 128#1388030000EC7828
(1713559069.166096) can0 12A#1428701C605800AD
(1713559069.166346) can0 12D#000000000000005F
(1713559069.166591) can0 12E#000000000000C02E
(1713559069.166837) can0 290#0000000200000057
(1713559069.167077) can0 410#2880008B9F6E8B7E
(1713559069.167313) can0 5A0#0000006244928097
(1713559069.169334) can0 400#28800000000000A1
(1713559069.170601) can0 140#0000030000000000
(1713559069.173539) can0 541#0440E800007FFFD9
(1713559069.174360) can0 174#F87F0049457904ED
(1713559069.174603) can0 120#00000000070000C4
(1713559069.174847) can0 121#00000000000000D4
(1713559069.175090) can0 129#00000001000000D0
(1713559069.175345) can0 178#048005300C9304A4
(1713559069.175563) can0 17C#088001004E690486
(1713559069.175808) can0 12D#000000000000006A
(1713559069.176050) can0 12F#F82002200000006C
(1713559069.176298) can0 290#0000000200000062
(1713559069.176538) can0 410#2880008B9F6E8B9F
(1713559069.179435) can0 400#28800000000000CB
(1713559069.183491) can0 551#000000000004C000
(1713559069.183741) can0 5D1#9958000200000000
(1713559069.184305) can0 174#F87F00493D7905B4
(1713559069.184545) can0 178#FA7F06320C930581
(1713559069.184785) can0 17C#048001003D6905E4
(1713559069.185598) can0 12F#F82002200000008D
(1713559069.185831) can0 128#1388030000EC7842
(1713559069.186077) can0 12D#000000000000008B
(1713559069.186321) can0 12E#000000000000C044
(1713559069.186573) can0 290#0000000200000083
(1713559069.186809) can0 410#2880008B9F6E8BAA
(1713559069.189433) can0 400#288000000000002A
(1713559069.191185) can0 140#0000030000000000
(1713559069.193534) can0 541#0440E800007FFF38
(1713559069.194361) can0 174#F67F004934790611
(1713559069.194595) can0 178#F87F07370C9306A5
(1713559069.194844) can0 120#0000000007000025
(1713559069.195092) can0 121#0000000000000035
(1713559069.195346) can0 129#0000000100000031
(1713559069.195581) can0 12F#F8200220000000B8
(1713559069.195829) can0 12D#00000000000000BE
(1713559069.196073) can0 17C#0280010027690607
(1713559069.196317) can0 290#00000002000000B6
(1713559069.196557) can0 410#2880008B9F6E8BC0
(1713559069.199534) can0 400#2880000000000040
(1713559069.203491) can0 551#000000000004C000
(1713559069.203742) can0 5D1#9958000200000000
(1713559069.204318) can0 174#F27F00492F7907FD
(1713559069.204558) can0 178#0080085F0D93077B
(1713559069.204796) can0 17C#028001001969073B
(1713559069.205620) can0 12F#F8200220000000D2
(1713559069.205854) can0 128#1388030000EC7877
(1713559069.206098) can0 12D#00000000000000D4
(1713559069.206346) can0 12E#000000000000C071
(1713559069.206594) can0 290#00000002000000DC
(1713559069.206830) can0 410#2880008B9F6E8B21
(1713559069.208987) can0 550#48000C00010000A8
(1713559069.209528) can0 400#2880000000000075
(1713559069.211719) can0 140#0000030000000000
(1713559069.213556) can0 541#0440E800007FFF52
(1713559069.213812) can0 552#00FFFFFFFFFFFF2E
(1713559069.214058) can0 450#005500001B004A00
(1713559069.214364) can0 174#EC7F0049357908E9
(1713559069.214597) can0 178#0C8009300D9308A7
(1713559069.214842) can0 120#000000000700004F
(1713559069.215091) can0 121#000000000000005F
(1713559069.215354) can0 129#000000010000005B
(1713559069.215578) can0 12F#F820022000000033
(1713559069.215813) can0 12A#1428701C605800C7
(1713559069.216059) can0 12D#0000000000000035
(1713559069.216295) can0 17C#0280010017690889
(1713559069.216544) can0 290#000000020000003D
(1713559069.216781) can0 410#2880008B9F6E8B4B
(1713559069.219631) can0 400#2880000000000094
(1713559069.223490) can0 551#000000000004C000
(1713559069.223738) can0 5D1#9958000200000000
(1713559069.224326) can0 174#EA7F00493F790928
(1713559069.224558) can0 178#12800A370C9309C7
(1713559069.224798) can0 17C#FE7F01001F690983
(1713559069.225627) can0 12F#F820022000000059
(1713559069.225861) can0 128#1388030000EC7896
(1713559069.226111) can0 12D#000000000000005F
(1713559069.226357) can0 12E#000000000000C090
(1713559069.226603) can0 290#0000000200000057
(1713559069.226843) can0 410#2880008B9F6E8B7E
(1713559069.229627) can0 400#28800000000000A1
(1713559069.230911) can0 6B9#0000000000000000
(1713559069.231205) can0 5A2#1410140000000000
(1713559069.232120) can0 4EA#0000000000000000
(1713559069.232371) can0 140#0000030000000000
(1713559069.232614) can0 5B2#0800000000000000
(1713559069.232858) can0 310#FFFFFFFF7D7D0000
(1713559069.233540) can0 541#0440E800007FFF67
(1713559069.234363) can0 174#EC7F004940790A12
(1713559069.234595) can0 178#12800B310D930A6C
(1713559069.234844) can0 120#000000000700007A
(1713559069.235095) can0 121#000000000000006A
(1713559069.235348) can0 129#000000010000006E
(1713559069.235591) can0 12D#000000000000006A
(1713559069.235832) can0 12F#F82002200000006C
(1713559069.236070) can0 17C#FE7F01002A690A05
(1713559069.236318) can0 290#0000000200000062
(1713559069.236559) can0 410#2880008B9F6E8B9F
(1713559069.239729) can0 400#28800000000000CB
(1713559069.243536) can0 551#000000000004C000
(1713559069.243735) can0 5D1#9958000200000000
(1713559069.244315) can0 174#F07F004938790B49
(1713559069.244551) can0 178#0C80000014930B69
(1713559069.244787) can0 17C#FE7F010027690B9D
(1713559069.245611) can0 12F#F82002200000008D
(1713559069.245847) can0 128#1388030000EC78A3
(1713559069.246093) can0 12D#000000000000008B
(1713559069.246338) can0 12E#000000000000C0A5
(1713559069.246589) can0 290#0000000200000083
(1713559069.246825) can0 410#2880008B9F6E8BAA
(1713559069.249725) can0 400#288000000000002A
(1713559069.250316) can0 540#000000103F009D00
(1713559069.250556) can0 5B0#63420000000000C9
(1713559069.252781) can0 140#0000030000000000
(1713559069.253541) can0 541#0440E800007FFF86
(1713559069.254367) can0 174#F27F004932790CAF
(1713559069.254606) can0 178#0080013717930CFC
(1713559069.254850) can0 17C#008001001F690C4B
(1713559069.255107) can0 120#000000000700009B
(1713559069.255348) can0 121#000000000000008B
(1713559069.255580) can0 129#000000010000008F
(1713559069.255827) can0 12D#00000000000000BE
(1713559069.256071) can0 12F#F8200220000000B8
(1713559069.256317) can0 290#00000002000000B6
(1713559069.256557) can0 410#2880008B9F6E8BC0
(1713559069.259036) can0 550#48000C00010000C2
(1713559069.259826) can0 400#2880000000000040
(1713559069.263020) can0 5D0#9958010200000000
(1713559069.263256) can0 5B1#008A9A68000000A3
(1713559069.263496) can0 5CF#7444540000000000
(1713559069.263691) can0 551#000000000004C000
(1713559069.263943) can0 552#00FFFFFFFFFFFF44
(1713559069.264190) can0 5D1#9958000200000000
(1713559069.264425) can0 174#F07F004930790D0B
(1713559069.264657) can0 178#F87F022E15930D0A
(1713559069.264897) can0 17C#0080010022690DFB
(1713559069.265135) can0 5D2#7444540000000000
(1713559069.265383) can0 450#005500001B004A00
(1713559069.265623) can0 12F#F8200220000000D2
(1713559069.265859) can0 128#1388030000EC78C9
(1713559069.266093) can0 12A#1428701C60580026
(1713559069.266337) can0 12D#00000000000000D4
(1713559069.266582) can0 12E#000000000000C0CF
(1713559069.266830) can0 290#00000002000000DC
(1713559069.267066) can0 410#2880008B9F6E8B21
(1713559069.267304) can0 5A0#00000062449280A2
(1713559069.269819) can0 400#2880000000000075
(1713559069.273313) can0 140#0000030000000000
(1713559069.273556) can0 541#0440E800007FFFB3
(1713559069.274374) can0 174#EE7F00492D790E09
(1713559069.274609) can0 178#F87F033111930E0C
(1713559069.274844) can0 17C#FC7F010027690E4E
(1713559069.275091) can0 120#00000000070000AE
(1713559069.275346) can0 121#00000000000000BE
(1713559069.275580) can0 129#00000001000000BA
(1713559069.275825) can0 12D#0000000000000035
(1713559069.276067) can0 12F#F820022000000033
(1713559069.276315) can0 290#000000020000003D
(1713559069.276553) can0 410#2880008B9F6E8B4B
(1713559069.279920) can0 400#2880000000000094
(1713559069.283539) can0 551#000000000004C000
(1713559069.283760) can0 5D1#9958000200000000
(1713559069.284328) can0 174#EA7F00492A790FF7
(1713559069.284562) can0 178#FC7F043007930FF3
(1713559069.284805) can0 17C#F87F01002C690FBA
(1713559069.285608) can0 12F#F820022000000059
(1713559069.285846) can0 128#1388030000EC7828
(1713559069.286096) can0 12D#000000000000005F
(1713559069.286340) can0 12E#000000000000C02E
(1713559069.286586) can0 290#0000000200000057
(1713559069.286826) can0 410#2880008B9F6E8B7E
(1713559069.289916) can0 400#28800000000000A1
(1713559069.293526) can0 541#0440E800007FFFD9
(1713559069.293844) can0 140#0000030000000000
(1713559069.294382) can0 174#EC7F00492C79009A
(1713559069.294620) can0 178#FC7F00000693001D
(1713559069.294864) can0 17C#F87F010032690010
(1713559069.295118) can0 120#00000000070000C4
(1713559069.295399) can0 121#00000000000000D4
(1713559069.295605) can0 129#00000001000000D0
(1713559069.295855) can0 12D#000000000000006A
(1713559069.296091) can0 12F#F82002200000006C
(1713559069.296339) can0 290#0000000200000062
(1713559069.296579) can0 410#2880008B9F6E8B9F
(1713559069.300019) can0 400#28800000000000CB
(1713559069.303537) can0 551#000000000004C000
(1713559069.303783) can0 5D1#9958000200000000
(1713559069.304338) can0 174#F27F00493079012D
(1713559069.304572) can0 178#FA7F01380C930145
(1713559069.304812) can0 17C#F87F010037690184
(1713559069.305607) can0 12F#F82002200000008D
(1713559069.305841) can0 128#1388030000EC7842
(1713559069.306087) can0 12D#000000000000008B
(1713559069.306331) can0 12E#000000000000C044
(1713559069.306583) can0 290#0000000200000083
(1713559069.306819) can0 410#2880008B9F6E8BAA
(1713559069.308987) can0 550#48000C0001000023
(1713559069.310015) can0 400#288000000000002A
(1713559069.313559) can0 541#0440E800007FFF38
(1713559069.313809) can0 552#00FFFFFFFFFFFF71
(1713559069.314053) can0 450#005500001B004A00
(1713559069.314375) can0 140#0000030000000000
(1713559069.314609) can0 174#F67F00492F7902FD
(1713559069.314845) can0 178#F87F0232149302C9
(1713559069.315087) can0 17C#F87F0100356902A0
(1713559069.315350) can0 120#0000000007000025
(1713559069.315586) can0 121#0000000000000035
(1713559069.315828) can0 129#0000000100000031
(1713559069.316061) can0 12A#1428701C6058004C
(1713559069.316308) can0 12D#00000000000000BE
(1713559069.316553) can0 12F#F8200220000000B8
(1713559069.316799) can0 290#00000002000000B6
(1713559069.317041) can0 410#2880008B9F6E8BC0
(1713559069.320117) can0 400#2880000000000040
(1713559069.323535) can0 551#000000000004C000
(1713559069.323782) can0 5D1#9958000200000000
(1713559069.324342) can0 174#FA7F00492979035E
(1713559069.324576) can0 178#FA7F033214930304
(1713559069.324820) can0 17C#F87F01002D6903A9
(1713559069.325683) can0 12F#F8200220000000D2
(1713559069.325918) can0 128#1388030000EC7877
(1713559069.326160) can0 12D#00000000000000D4
(1713559069.326408) can0 12E#000000000000C071
(1713559069.326656) can0 290#00000002000000DC
(1713559069.326892) can0 410#2880008B9F6E8B21
(1713559069.330110) can0 400#2880000000000075
(1713559069.331164) can0 6B9#0000000000000000
(1713559069.331408) can0 5A2#1410140000000000
(1713559069.331930) can0 4EA#0000000000000000
(1713559069.332174) can0 5B2#0800000000000000
(1713559069.332419) can0 310#FFFFFFFF7D7D0000
(1713559069.334399) can0 174#F87F0049277904BE
(1713559069.334633) can0 178#FC7F04350C93046F
(1713559069.334875) can0 17C#F47F0100266904C1
(1713559069.335125) can0 140#0000030000000000
(1713559069.335406) can0 120#000000000700004F
(1713559069.335622) can0 121#000000000000005F
(1713559069.335864) can0 129#000000010000005B
(1713559069.336110) can0 12D#0000000000000035
(1713559069.336352) can0 12F#F820022000000033
(1713559069.336600) can0 290#000000020000003D
(1713559069.336838) can0 410#2880008B9F6E8B4B
(1713559069.337080) can0 541#0440E800007FFF52
(1713559069.340213) can0 400#2880000000000094
(1713559069.343534) can0 551#000000000004C000
(1713559069.343779) can0 5D1#9958000200000000
(1713559069.344347) can0 174#F47F004929790511
(1713559069.344587) can0 178#FC7F0000019305FE
(1713559069.344825) can0 17C#F47F0100226905DA
(1713559069.345633) can0 12F#F820022000000059
(1713559069.345867) can0 128#1388030000EC7896
(1713559069.346117) can0 12D#000000000000005F
(1713559069.346363) can0 12E#000000000000C090
(1713559069.346609) can0 290#0000000200000057
(1713559069.346849) can0 410#2880008B9F6E8B7E
(1713559069.350207) can0 400#28800000000000A1
(1713559069.350836) can0 540#000000103F009D00
(1713559069.351078) can0 5B0#6342000000000028
(1713559069.353537) can0 541#0440E800007FFF67
(1713559069.354404) can0 174#F07F00492C7906D6
(1713559069.354640) can0 178#FC7F0132F89206BC
(1713559069.354878) can0 17C#FA7F01001B690657
(1713559069.355395) can0 120#000000000700007A
(1713559069.355623) can0 121#000000000000006A
(1713559069.355871) can0 129#000000010000006E
(1713559069.356117) can0 12D#000000000000006A
(1713559069.356359) can0 12F#F82002200000006C
(1713559069.356608) can0 140#0000030000000000
(1713559069.356857) can0 290#0000000200000062
(1713559069.357097) can0 410#2880008B9F6E8B9F
(1713559069.359044) can0 550#48000C0001000049
(1713559069.360314) can0 400#28800000000000CB
(1713559069.363020) can0 5D0#9958010200000000
(1713559069.363256) can0 5B1#008A9A68000000C9
(1713559069.363495) can0 5CF#7444540000000000
(1713559069.363741) can0 551#000000000004C000
(1713559069.363996) can0 552#00FFFFFFFFFFFF90
(1713559069.364190) can0 5D1#9958000200000000
(1713559069.364424) can0 174#F07F0049327907DA
(1713559069.364657) can0 178#02800230F3920719
(1713559069.364901) can0 17C#04800100136907E7
(1713559069.365139) can0 5D2#7444540000000000
(1713559069.365387) can0 450#005500001B004A00
(1713559069.365629) can0 12F#F82002200000008D
(1713559069.365865) can0 128#1388030000EC78A3
(1713559069.366097) can0 12A#1428701C60580079
(1713559069.366344) can0 12D#000000000000008B
(1713559069.366588) can0 12E#000000000000C0A5
(1713559069.366840) can0 290#0000000200000083
(1713559069.367076) can0 410#2880008B9F6E8BAA
(1713559069.367312) can0 5A0#00000062449280C8
(1713559069.370310) can0 400#288000000000002A
(1713559069.373532) can0 541#0440E800007FFF86
(1713559069.374409) can0 174#F07F004934790864
(1713559069.374640) can0 178#06800332F3920886
(1713559069.374878) can0 17C#08800100116908E4
(1713559069.375469) can0 120#000000000700009B
(1713559069.375710) can0 121#000000000000008B
(1713559069.375953) can0 129#000000010000008F
(1713559069.376201) can0 12D#00000000000000BE
(1713559069.376445) can0 12F#F8200220000000B8
(1713559069.376695) can0 140#0000030000000000
(1713559069.376941) can0 290#00000002000000B6
(1713559069.377181) can0 410#2880008B9F6E8BC0
(1713559069.380396) can0 400#2880000000000040
(1713559069.383536) can0 551#000000000004C000
(1713559069.383781) can0 5D1#9958000200000000
(1713559069.384359) can0 174#F27F00492F79095B
(1713559069.384594) can0 178#02800433F89209E4
(1713559069.384832) can0 17C#028001001669091B
(1713559069.385609) can0 12F#F8200220000000D2
(1713559069.385843) can0 128#1388030000EC78C9
(1713559069.386087) can0 12D#00000000000000D4
(1713559069.386331) can0 12E#000000000000C0CF
(1713559069.386578) can0 290#00000002000000DC
(1713559069.386815) can0 410#2880008B9F6E8B21
(1713559069.390400) can0 400#2880000000000075
(1713559069.393527) can0 541#0440E800007FFFB3
(1713559069.394410) can0 174#F27F004929790A79
(1713559069.394649) can0 178#FA7F0531FF920A76
(1713559069.394883) can0 17C#F67F010024690ADE
