(1713559656.767184) can0 174#EE7F005C4A79086B
(1713559656.767427) can0 178#02800062069308AD
(1713559656.767642) can0 17C#00800100466908C4
(1713559656.767882) can0 541#0440E800007FFFB3
(1713559656.768620) can0 410#2880008B9F6E8B21
(1713559656.768935) can0 120#00000008070000D1
(1713559656.769180) can0 121#00000000000000D4
(1713559656.769439) can0 129#00000001000000D0
(1713559656.769672) can0 6B9#0020400000000000
(1713559656.769916) can0 5A2#1410140000000000
(1713559656.770428) can0 12F#F8200320000000BF
(1713559656.770668) can0 12D#00000000000000BE
(1713559656.770912) can0 290#00000002000000B6
(1713559656.773810) can0 400#28800000000000CB
(1713559656.777120) can0 174#F07F005C487909CD
(1713559656.777353) can0 178#FC7F01480993090C
(1713559656.777590) can0 17C#02800100376909A4
(1713559656.777840) can0 140#0000030000000000
(1713559656.778091) can0 551#000000000004C000
(1713559656.778338) can0 5D1#9958000200000000
(1713559656.778574) can0 410#2880008B9F6E8B4B
(1713559656.780144) can0 12F#F8100320000000C8
(1713559656.780377) can0 128#1388030000EC78C9
(1713559656.780623) can0 12D#00000000000000D4
(1713559656.780865) can0 12E#000000000000C0CF
(1713559656.781111) can0 290#00100002000000D7
(1713559656.783876) can0 400#288000000000002A
(1713559656.784526) can0 540#0000001040009F00
(1713559656.784766) can0 5B0#6342000000000077
(1713559656.787148) can0 174#F07F005C46790AE3
(1713559656.787384) can0 178#F47F00000A930A17
(1713559656.787621) can0 17C#068001002D690AFD
(1713559656.787862) can0 541#0440E800007FFFD9
(1713559656.788116) can0 552#00FFFFFFFFFFFFA5
(1713559656.788360) can0 450#0055C0001B004A00
(1713559656.788600) can0 410#2880008B9F6E8B7E
(1713559656.789038) can0 120#0000000807000030
(1713559656.789286) can0 121#0000000000000035
(1713559656.789532) can0 129#0000000100000031
(1713559656.790514) can0 12F#F810032000000029
(1713559656.790758) can0 12D#0000000000000035
(1713559656.791001) can0 290#0010000200000036
(1713559656.793938) can0 400#2880000000000040
(1713559656.797159) can0 174#EE7F005C43790BCF
(1713559656.797392) can0 178#F27F00000D930B53
(1713559656.797631) can0 17C#0A80010029690B5D
(1713559656.797876) can0 551#000000000004C000
(1713559656.798126) can0 5D1#9958000200000000
(1713559656.798376) can0 140#0000030000000000
(1713559656.798616) can0 410#2880008B9F6E8B9F
(1713559656.800164) can0 12F#F810032000000043
(1713559656.800400) can0 128#1388030000EC7828
(1713559656.800650) can0 12D#000000000000005F
(1713559656.800895) can0 12E#000000000000C02E
(1713559656.801141) can0 290#0000000200000057
(1713559656.803986) can0 400#2880000000000075
(1713559656.807177) can0 174#EA7F005C42790C7A
(1713559656.807417) can0 178#F47F000D0F930C9F
(1713559656.807656) can0 17C#0C8001001C690C7C
(1713559656.807899) can0 541#0440E800007FFF38
(1713559656.808506) can0 410#2880008B9F6E8BAA
(1713559656.809126) can0 120#000000080700005A
(1713559656.809374) can0 121#000000000000005F
(1713559656.809618) can0 129#000000010000005B
(1713559656.809863) can0 550#48000C000100007C
(1713559656.810407) can0 12F#F82003200000006B
(1713559656.810641) can0 12A#1428701C60580098
(1713559656.810888) can0 12D#000000000000006A
(1713559656.811135) can0 290#0000000200000062
(1713559656.814052) can0 400#2880000000000094
(1713559656.814833) can0 5D0#9958010200000000
(1713559656.815071) can0 5B1#008A9A68000000C9
(1713559656.815306) can0 5CF#7444540000000000
(1713559656.817185) can0 174#E47F005C42790D66
(1713559656.817422) can0 178#F87F00000D930D75
(1713559656.817667) can0 17C#0E80010017690D5B
(1713559656.817909) can0 551#000000000004C000
(1713559656.818156) can0 5D1#9958000200000000
(1713559656.818509) can0 410#2880008B9F6E8BC0
(1713559656.818901) can0 140#0000030000000000
(1713559656.820202) can0 12F#F810032000000097
(1713559656.820432) can0 128#1388030000EC7842
(1713559656.820679) can0 12D#000000000000008B
(1713559656.820922) can0 12E#000000000000C044
(1713559656.821174) can0 290#0000000200000083
(1713559656.823103) can0 4EA#0000000000000000
(1713559656.823349) can0 5B2#0800000000000000
(1713559656.823594) can0 310#FFFFFFFF7D7D0000
(1713559656.824044) can0 400#28800000000000A1
(1713559656.827140) can0 174#E47F005C42790E41
(1713559656.827375) can0 178#FA7F01360F930E87
(1713559656.827610) can0 17C#0C80010021690EEB
(1713559656.828405) can0 410#2880008B9F6E8B21
(1713559656.829243) can0 120#000000080700006F
(1713559656.829494) can0 121#000000000000006A
(1713559656.829743) can0 129#000000010000006E
(1713559656.829985) can0 541#0440E800007FFF52
(1713559656.830339) can0 12F#F8100320000000A2
(1713559656.830588) can0 12D#00000000000000BE
(1713559656.830833) can0 290#00000002000000B6
(1713559656.834150) can0 400#28800000000000CB
(1713559656.837188) can0 174#E87F005C3B790F2C
(1713559656.837420) can0 178#FC7F023014930F06
(1713559656.837660) can0 17C#088001002A690F1F
(1713559656.837911) can0 551#000000000004C000
(1713559656.838160) can0 552#00FFFFFFFFFFFFCF
(1713559656.838406) can0 5D1#9958000200000000
(1713559656.838644) can0 410#2880008B9F6E8B4B
(1713559656.838882) can0 5D2#7444540000000000
(1713559656.839126) can0 450#0055C0001B004A00
(1713559656.839428) can0 140#0000030000000000
(1713559656.840292) can0 12F#F8100320000000C8
(1713559656.840527) can0 128#1388030000EC7877
(1713559656.840771) can0 12D#00000000000000D4
(1713559656.841019) can0 12E#000000000000C071
(1713559656.841267) can0 290#00000002000000DC
(1713559656.844145) can0 400#288000000000002A
(1713559656.847155) can0 174#EA7F005C35790024
(1713559656.847393) can0 178#00800331159300DE
(1713559656.847632) can0 17C#02800100246900C5
(1713559656.847874) can0 541#0440E800007FFF67
(1713559656.848461) can0 410#2880008B9F6E8B7E
(1713559656.849292) can0 120#000000080700008E
(1713559656.849584) can0 121#000000000000008B
(1713559656.849827) can0 129#000000010000008F
(1713559656.850347) can0 12F#F820032000000034
(1713559656.850593) can0 12D#0000000000000035
(1713559656.850843) can0 290#000000020000003D
(1713559656.854248) can0 400#2880000000000040
(1713559656.857213) can0 174#E87F005C35790183
(1713559656.857450) can0 178#008004380F9301DE
(1713559656.857691) can0 17C#FE7F01001C6901E7
(1713559656.857937) can0 551#000000000004C000
(1713559656.858186) can0 5D1#9958000200000000
(1713559656.858509) can0 410#2880008B9F6E8B9F
(1713559656.859588) can0 550#48000C000100009D
(1713559656.859943) can0 140#0000030000000000
(1713559656.860265) can0 12F#F810032000000043
(1713559656.860484) can0 128#1388030000EC7896
(1713559656.860718) can0 12A#1428701C605800AD
(1713559656.860968) can0 12D#000000000000005F
(1713559656.861214) can0 12E#000000000000C090
(1713559656.861460) can0 290#001000020000005C
(1713559656.861698) can0 5A0#0000006244928029
(1713559656.864240) can0 400#2880000000000075
(1713559656.867152) can0 174#E47F005C3D790213
(1713559656.867391) can0 178#FC7F053107930285
(1713559656.867628) can0 17C#FE7F0100246902E4
(1713559656.867870) can0 541#0440E800007FFF86
(1713559656.868457) can0 410#2880008B9F6E8BAA
(1713559656.869155) can0 6B9#0020400000000000
(1713559656.869399) can0 5A2#1410140000000000
(1713559656.869642) can0 120#00000008070000BB
(1713559656.869890) can0 121#00000000000000BE
(1713559656.870191) can0 129#00000001000000BA
(1713559656.870428) can0 12D#000000000000006A
(1713559656.870670) can0 12F#F810032000000076
(1713559656.870914) can0 290#0010000200000069
(1713559656.874349) can0 400#2880000000000094
(1713559656.877204) can0 174#E27F005C42790313
(1713559656.877438) can0 178#FC7F06320793039C
(1713559656.877676) can0 17C#FE7F01003B690367
(1713559656.877922) can0 551#000000000004C000
(1713559656.878172) can0 5D1#9958000200000000
(1713559656.878508) can0 410#2880008B9F6E8BC0
(1713559656.880384) can0 12F#F810032000000097
(1713559656.880612) can0 128#1388030000EC78A3
(1713559656.880860) can0 12D#000000000000008B
(1713559656.881101) can0 12E#000000000000C0A5
(1713559656.881351) can0 140#0000030000000000
(1713559656.881604) can0 290#0000000200000083
(1713559656.884335) can0 400#28800000000000A1
(1713559656.884990) can0 540#0000001040009F00
(1713559656.885232) can0 5B0#6342000000000096
(1713559656.887156) can0 174#E47F005C46790495
(1713559656.887391) can0 178#028007391193043F
(1713559656.887628) can0 17C#00800100536904C9
(1713559656.887870) can0 541#0440E800007FFFB3
(1713559656.888126) can0 552#00FFFFFFFFFFFF2E
(1713559656.888370) can0 450#0055C0001B004A00
(1713559656.888606) can0 410#2880008B9F6E8B21
(1713559656.889482) can0 120#00000008070000D1
(1713559656.889726) can0 121#00000000000000D4
(1713559656.889970) can0 129#00000001000000D0
(1713559656.890293) can0 12F#F8100320000000A2
(1713559656.890541) can0 12D#00000000000000BE
(1713559656.890787) can0 290#00000002000000B6
(1713559656.894439) can0 400#28800000000000CB
(1713559656.897210) can0 174#EC7F005C4D7905DA
(1713559656.897441) can0 178#0680082D1593055A
(1713559656.897677) can0 17C#0480010056690534
(1713559656.897924) can0 551#000000000004C000
(1713559656.898172) can0 5D1#9958000200000000
(1713559656.898506) can0 410#2880008B9F6E8B4B
(1713559656.900317) can0 12F#F8100320000000C8
(1713559656.900552) can0 128#1388030000EC78C9
(1713559656.900795) can0 12D#00000000000000D4
(1713559656.901038) can0 12E#000000000000C0CF
(1713559656.901288) can0 140#0000030000000000
(1713559656.901539) can0 290#00000002000000DC
(1713559656.904437) can0 400#288000000000002A
(1713559656.907167) can0 174#F07F005C517906ED
(1713559656.907401) can0 178#06800930129306F7
(1713559656.907640) can0 17C#0A8001004B69068F
(1713559656.907883) can0 541#0440E800007FFFD9
(1713559656.908461) can0 410#2880008B9F6E8B7E
(1713559656.909531) can0 550#48000C00010000A8
(1713559656.909777) can0 120#0000000807000030
(1713559656.910025) can0 121#0000000000000035
(1713559656.910269) can0 129#0000000100000031
(1713559656.910507) can0 12A#1428701C605800C7
(1713559656.910752) can0 12D#0000000000000035
(1713559656.910994) can0 12F#F820032000000034
(1713559656.911242) can0 290#000000020000003D
(1713559656.914538) can0 400#2880000000000040
(1713559656.914822) can0 5D0#9958010200000000
(1713559656.915057) can0 5B1#008A9A6800000028
(1713559656.915295) can0 5CF#7444540000000000
(1713559656.917219) can0 174#EE7F005C51790748
(1713559656.917455) can0 178#00800A320C9307B1
(1713559656.917695) can0 17C#0C8001003D69070C
(1713559656.917941) can0 551#000000000004C000
(1713559656.918189) can0 5D1#9958000200000000
(1713559656.918509) can0 410#2880008B9F6E8B9F
(1713559656.920384) can0 12F#F810032000000043
(1713559656.920628) can0 128#1388030000EC7828
(1713559656.920871) can0 12D#000000000000005F
(1713559656.921114) can0 12E#000000000000C02E
(1713559656.921359) can0 290#001000020000005C
(1713559656.921609) can0 140#0000030000000000
(1713559656.922947) can0 4EA#0000000000000000
(1713559656.923195) can0 5B2#0800000000000000
(1713559656.923440) can0 310#FFFFFFFF7D7D0000
(1713559656.924528) can0 400#2880000000000075
(1713559656.927169) can0 174#EA7F005C5179089A
(1713559656.927401) can0 178#FA7F0B36049308EA
(1713559656.927636) can0 17C#06800100356908D3
(1713559656.927880) can0 541#0440E800007FFF38
(1713559656.928457) can0 410#2880008B9F6E8BAA
(1713559656.929677) can0 120#000000080700005A
(1713559656.929925) can0 121#000000000000005F
(1713559656.930169) can0 129#000000010000005B
(1713559656.930415) can0 12D#000000000000006A
(1713559656.930660) can0 12F#F810032000000076
(1713559656.930904) can0 290#0010000200000069
(1713559656.934634) can0 400#2880000000000094
(1713559656.937222) can0 174#E67F005C4D79092E
(1713559656.937453) can0 178#FA7F0C3004930995
(1713559656.937686) can0 17C#FC7F01002F690911
(1713559656.937932) can0 551#000000000004C000
(1713559656.938184) can0 552#00FFFFFFFFFFFF44
(1713559656.938430) can0 5D1#9958000200000000
(1713559656.938670) can0 410#2880008B9F6E8BC0
(1713559656.938908) can0 5D2#7444540000000000
(1713559656.939152) can0 450#0055C0001B004A00
(1713559656.940420) can0 12F#F810032000000097
(1713559656.940653) can0 128#1388030000EC7842
(1713559656.940906) can0 12D#000000000000008B
(1713559656.941144) can0 12E#000000000000C044
(1713559656.941395) can0 290#0000000200000083
(1713559656.942041) can0 140#0000030000000000
(1713559656.944676) can0 400#28800000000000A1
(1713559656.947178) can0 174#E47F005C45790ABF
(1713559656.947417) can0 178#FE7F00000A930A7F
(1713559656.947653) can0 17C#F27F01001F690A1F
(1713559656.947895) can0 541#0440E800007FFF52
(1713559656.948391) can0 410#2880008B9F6E8B21
(1713559656.949784) can0 120#000000080700006F
(1713559656.950036) can0 121#000000000000006A
(1713559656.950284) can0 129#000000010000006E
(1713559656.950532) can0 12D#00000000000000BE
(1713559656.950776) can0 12F#F8200320000000BF
(1713559656.951023) can0 290#00000002000000B6
(1713559656.954734) can0 400#28800000000000CB
(1713559656.957242) can0 174#E47F005C40790B2B
(1713559656.957467) can0 178#0080013011930B5E
(1713559656.957704) can0 17C#F07F01001B690BBE
(1713559656.957950) can0 551#000000000004C000
(1713559656.958198) can0 5D1#9958000200000000
(1713559656.958440) can0 410#2880008B9F6E8B4B
(1713559656.959587) can0 550#48000C00010000C2
(1713559656.960390) can0 12F#F8100320000000C8
(1713559656.960624) can0 128#1388030000EC7877
(1713559656.960858) can0 12A#1428701C60580026
(1713559656.961102) can0 12D#00000000000000D4
(1713559656.961358) can0 12E#000000000000C071
(1713559656.961600) can0 290#00000002000000DC
(1713559656.961837) can0 5A0#0000006244928043
(1713559656.962565) can0 140#0000030000000000
(1713559656.964775) can0 400#288000000000002A
(1713559656.967182) can0 174#E67F005C3A790C85
(1713559656.967414) can0 178#FE7F023215930C33
(1713559656.967647) can0 17C#F27F01002C690CF5
(1713559656.967891) can0 541#0440E800007FFF67
(1713559656.968321) can0 410#2880008B9F6E8B7E
(1713559656.969333) can0 6B9#0020400000000000
(1713559656.969576) can0 5A2#1410140000000000
(1713559656.969878) can0 120#000000080700008E
(1713559656.970122) can0 121#000000000000008B
(1713559656.970364) can0 129#000000010000008F
(1713559656.970610) can0 12D#0000000000000035
(1713559656.970852) can0 12F#F810032000000029
(1713559656.971100) can0 290#000000020000003D
(1713559656.974784) can0 400#2880000000000040
(1713559656.977244) can0 174#E87F005C30790D96
(1713559656.977469) can0 178#FC7F033618930D35
(1713559656.977709) can0 17C#F87F010045690D53
(1713559656.977954) can0 551#000000000004C000
(1713559656.978204) can0 5D1#9958000200000000
(1713559656.978444) can0 410#2880008B9F6E8B9F
(1713559656.980392) can0 12F#F810032000000043
(1713559656.980626) can0 128#1388030000EC7896
(1713559656.980874) can0 12D#000000000000005F
(1713559656.981119) can0 12E#000000000000C090
(1713559656.981365) can0 290#0000000200000057
(1713559656.983088) can0 140#0000030000000000
(1713559656.984870) can0 400#2880000000000075
(1713559656.985554) can0 540#0000001040009F00
(1713559656.985795) can0 5B0#63420000000000A3
(1713559656.987239) can0 174#EA7F005C2D790E96
(1713559656.987473) can0 178#FE7F043517930E9F
(1713559656.987708) can0 17C#0080010058690E9B
(1713559656.987951) can0 541#0440E800007FFF86
(1713559656.988202) can0 552#00FFFFFFFFFFFF71
(1713559656.988451) can0 410#2880008B9F6E8BAA
(1713559656.988681) can0 450#0055C0001B004A00
(1713559656.989975) can0 120#00000008070000BB
(1713559656.990221) can0 121#00000000000000BE
(1713559656.990462) can0 129#00000001000000BA
(1713559656.990708) can0 12D#000000000000006A
(1713559656.990950) can0 12F#F82003200000006B
(1713559656.991198) can0 290#0000000200000062
(1713559656.994870) can0 400#2880000000000094
(1713559656.997243) can0 174#EA7F005C37790F9C
(1713559656.997474) can0 178#0480053011930FF6
(1713559656.997723) can0 17C#0480010059690F60
(1713559656.997957) can0 551#000000000004C000
(1713559656.998204) can0 5D1#9958000200000000
(1713559656.998444) can0 410#2880008B9F6E8BC0
(1713559657.000378) can0 12F#F810032000000097
(1713559657.000610) can0 128#1388030000EC78A3
(1713559657.000855) can0 12D#000000000000008B
(1713559657.001100) can0 12E#000000000000C0A5
(1713559657.001354) can0 290#0000000200000083
(1713559657.003613) can0 140#0000030000000000
(1713559657.004972) can0 400#28800000000000A1
(1713559657.007250) can0 174#EC7F005C46790033
(1713559657.007483) can0 178#068006310A93004C
(1713559657.007717) can0 17C#048001004E690049
(1713559657.007959) can0 541#0440E800007FFFB3
(1713559657.008194) can0 410#2880008B9F6E8B21
(1713559657.009529) can0 550#48000C0001000023
(1713559657.010065) can0 120#00000008070000D1
(1713559657.010309) can0 121#00000000000000D4
(1713559657.010551) can0 129#00000001000000D0
(1713559657.010783) can0 12A#1428701C6058004C
(1713559657.011031) can0 12D#00000000000000BE
(1713559657.011272) can0 12F#F8100320000000A2
(1713559657.011519) can0 290#00000002000000B6
(1713559657.014779) can0 5D0#9958010200000000
(1713559657.015025) can0 400#28800000000000CB
(1713559657.015261) can0 5B1#008A9A6800000042
(1713559657.015499) can0 5CF#7444540000000000
(1713559657.017251) can0 174#EC7F005C517901BC
(1713559657.017487) can0 178#00800731069301E2
(1713559657.017723) can0 17C#04800100436901D1
(1713559657.017963) can0 410#2880008B9F6E8B4B
(1713559657.018207) can0 551#000000000004C000
(1713559657.018457) can0 5D1#9958000200000000
(1713559657.020386) can0 12F#F8100320000000C8
(1713559657.020620) can0 128#1388030000EC78C9
(1713559657.020864) can0 12D#00000000000000D4
(1713559657.021108) can0 12E#000000000000C0CF
(1713559657.021354) can0 290#00100002000000D7
(1713559657.022743) can0 4EA#0000000000000000
(1713559657.022991) can0 5B2#0800000000000000
(1713559657.023234) can0 310#FFFFFFFF7D7D0000
(1713559657.024137) can0 140#0000030000000000
(1713559657.025065) can0 400#288000000000002A
(1713559657.027256) can0 174#F07F005C5579029F
(1713559657.027492) can0 178#F47F0831FE9202B8
(1713559657.027727) can0 17C#04800100456902F3
(1713559657.027967) can0 410#2880008B9F6E8B7E
(1713559657.028210) can0 541#0440E800007FFFD9
(1713559657.030150) can0 12F#F820032000000034
(1713559657.030395) can0 120#0000000807000030
(1713559657.030644) can0 121#0000000000000035
(1713559657.030888) can0 129#0000000100000031
(1713559657.031134) can0 12D#0000000000000035
(1713559657.031379) can0 290#0010000200000036
(1713559657.035064) can0 400#2880000000000040
(1713559657.037264) can0 174#F47F005C517903ED
(1713559657.037485) can0 178#E87F0930F692035C
(1713559657.037725) can0 17C#048001005069037F
(1713559657.037966) can0 410#2880008B9F6E8B9F
(1713559657.038212) can0 551#000000000004C000
(1713559657.038465) can0 552#00FFFFFFFFFFFF90
(1713559657.038711) can0 5D1#9958000200000000
(1713559657.038955) can0 5D2#7444540000000000
(1713559657.039199) can0 450#0055C0001B004A00
(1713559657.040457) can0 12F#F810032000000043
(1713559657.040692) can0 128#1388030000EC7828
(1713559657.040942) can0 12D#000000000000005F
(1713559657.041187) can0 12E#000000000000C02E
(1713559657.041433) can0 290#0000000200000057
(1713559657.044668) can0 140#0000030000000000
(1713559657.045176) can0 400#2880000000000075
(1713559657.047268) can0 174#F47F005C4E790420
(1713559657.047495) can0 178#E47F0A38F9920410
(1713559657.047732) can0 17C#04800100556904A5
(1713559657.047968) can0 410#2880008B9F6E8BAA
(1713559657.048213) can0 541#0440E800007FFF38
(1713559657.050149) can0 12F#F810032000000076
(1713559657.050393) can0 120#000000080700005A
(1713559657.050641) can0 121#000000000000005F
(1713559657.050885) can0 129#000000010000005B
(1713559657.051131) can0 12D#000000000000006A
(1713559657.051380) can0 290#0000000200000062
(1713559657.055165) can0 400#2880000000000094
(1713559657.055737) can0 6E2#0544000000000000
(1713559657.057262) can0 174#F27F005C4B790567
(1713559657.057500) can0 178#E47F00000693051F
(1713559657.057742) can0 17C#02800100466905FF
(1713559657.057986) can0 410#2880008B9F6E8BC0
(1713559657.058230) can0 551#000000000004C000
(1713559657.058479) can0 5D1#9958000200000000
(1713559657.059589) can0 550#48000C0001000049
(1713559657.060392) can0 12F#F810032000000097
(1713559657.060627) can0 128#1388030000EC7842
(1713559657.060859) can0 12A#1428701C60580079
(1713559657.061105) can0 12D#000000000000008B
(1713559657.061349) can0 12E#000000000000C044
(1713559657.061602) can0 290#0000000200000083
(1713559657.061839) can0 5A0#0000006244928076
(1713559657.065186) can0 140#0000030000000000
(1713559657.065432) can0 400#28800000000000A1
(1713559657.067267) can0 174#F07F005C48790676
(1713559657.067502) can0 178#E47F0130119306AF
(1713559657.067738) can0 17C#FE7F01002C69069C
(1713559657.067977) can0 410#2880008B9F6E8B21
(1713559657.068217) can0 541#0440E800007FFF52
(1713559657.069489) can0 6B9#0020400000000000
(1713559657.069733) can0 5A2#1410140000000000
(1713559657.070165) can0 12F#F8200320000000BF
(1713559657.070413) can0 120#000000080700006F
(1713559657.070665) can0 121#000000000000006A
(1713559657.070913) can0 129#000000010000006E
(1713559657.071161) can0 12D#00000000000000BE
(1713559657.071408) can0 290#00000002000000B6
(1713559657.075258) can0 400#28800000000000CB
(1713559657.077273) can0 174#EE7F005C467907DA
(1713559657.077504) can0 178#E87F00001593070A
(1713559657.077745) can0 17C#FC7F01001B690799
(1713559657.077983) can0 410#2880008B9F6E8B4B
(1713559657.078230) can0 551#000000000004C000
(1713559657.078480) can0 5D1#9958000200000000
(1713559657.080387) can0 12F#F8100320000000C8
(1713559657.080619) can0 128#1388030000EC7877
(1713559657.080862) can0 12D#00000000000000D4
(1713559657.081111) can0 12E#000000000000C071
(1713559657.081358) can0 290#00000002000000DC
(1713559657.085371) can0 400#288000000000002A
(1713559657.085711) can0 140#0000030000000000
(1713559657.086005) can0 540#0000001040009F00
(1713559657.086245) can0 5B0#63420000000000C9
(1713559657.087276) can0 174#EE7F005C4D7908E1
(1713559657.087508) can0 178#F47F015312930858
(1713559657.087746) can0 17C#F87F01002169086C
(1713559657.087986) can0 410#2880008B9F6E8B7E
(1713559657.088230) can0 541#0440E800007FFF67
(1713559657.088484) can0 552#00FFFFFFFFFFFFA5
(1713559657.088731) can0 450#0055C0001B004A00
(1713559657.090232) can0 12F#F810032000000029
(1713559657.090478) can0 12D#0000000000000035
(1713559657.090724) can0 120#000000080700008E
(1713559657.090968) can0 121#000000000000008B
(1713559657.091210) can0 129#000000010000008F
(1713559657.091460) can0 290#000000020000003D
(1713559657.095356) can0 400#2880000000000040
(1713559657.097282) can0 174#EA7F005C53790984
(1713559657.097511) can0 178#048002431493097B
(1713559657.097749) can0 17C#F47F01003469095B
(1713559657.097989) can0 410#2880008B9F6E8B9F
(1713559657.098237) can0 551#000000000004C000
(1713559657.098484) can0 5D1#9958000200000000
(1713559657.100378) can0 12F#F810032000000043
(1713559657.100610) can0 128#1388030000EC7896
(1713559657.100862) can0 12D#000000000000005F
(1713559657.101106) can0 12E#000000000000C090
(1713559657.101352) can0 290#0000000200000057
(1713559657.105466) can0 400#2880000000000075
(1713559657.106238) can0 140#0000030000000000
(1713559657.107290) can0 174#EA7F005C55790AA6
(1713559657.107519) can0 178#0C8003321C930A8E
(1713559657.107763) can0 17C#F47F01003F690AFC
(1713559657.107997) can0 410#2880008B9F6E8BAA
(1713559657.108241) can0 541#0440E800007FFF86
(1713559657.109533) can0 550#48000C000100007C
(1713559657.110167) can0 12F#F810032000000076
(1713559657.110401) can0 12A#1428701C60580098
(1713559657.110645) can0 120#00000008070000BB
(1713559657.110891) can0 121#00000000000000BE
(1713559657.111134) can0 129#00000001000000BA
(1713559657.111383) can0 12D#000000000000006A
(1713559657.111628) can0 290#0000000200000062
(1713559657.114816) can0 5D0#9958010200000000
(1713559657.115052) can0 5B1#008A9A6800000077
(1713559657.115291) can0 5CF#7444540000000000
(1713559657.115538) can0 400#2880000000000094
(1713559657.117284) can0 174#EA7F005C51790BBD
(1713559657.117517) can0 178#0A8004301D930BE3
(1713559657.117761) can0 17C#F67F010042690B96
(1713559657.117992) can0 410#2880008B9F6E8BC0
(1713559657.118235) can0 551#000000000004C000
(1713559657.118487) can0 5D1#9958000200000000
(1713559657.120381) can0 12F#F810032000000097
(1713559657.120614) can0 128#1388030000EC78A3
(1713559657.120859) can0 12D#000000000000008B
(1713559657.121104) can0 12E#000000000000C0A5
(1713559657.121358) can0 290#0000000200000083
(1713559657.122537) can0 4EA#0000000000000000
(1713559657.122783) can0 5B2#0800000000000000
(1713559657.123028) can0 310#FFFFFFFF7D7D0000
(1713559657.125555) can0 400#28800000000000A1
(1713559657.126763) can0 140#0000030000000000
(1713559657.127287) can0 174#EE7F005C4B790C90
(1713559657.127523) can0 178#0280053014930C8B
(1713559657.127757) can0 17C#0080010045690C3C
(1713559657.127993) can0 410#2880008B9F6E8B21
(1713559657.128235) can0 541#0440E800007FFFB3
(1713559657.130150) can0 12F#F8100320000000A2
(1713559657.130397) can0 12D#00000000000000BE
(1713559657.130643) can0 290#00000002000000B6
(1713559657.130888) can0 120#00000008070000D1
(1713559657.131132) can0 121#00000000000000D4
(1713559657.131376) can0 129#00000001000000D0
(1713559657.135547) can0 400#28800000000000CB
(1713559657.137241) can0 174#F27F005C4A790D00
(1713559657.137478) can0 178#FA7F063206930D66
(1713559657.137709) can0 17C#0880010046690D7F
(1713559657.137946) can0 410#2880008B9F6E8B4B
(1713559657.138193) can0 551#000000000004C000
(1713559657.138449) can0 552#00FFFFFFFFFFFFCF
(1713559657.138738) can0 5D1#9958000200000000
(1713559657.138987) can0 5D2#7444540000000000
(1713559657.139231) can0 450#0055C0001B004A00
(1713559657.140424) can0 12F#F8200320000000D5
(1713559657.140657) can0 128#1388030000EC78C9
(1713559657.140901) can0 12D#00000000000000D4
(1713559657.141145) can0 12E#000000000000C0CF
(1713559657.141393) can0 290#00000002000000DC
(1713559657.145657) can0 400#288000000000002A
(1713559657.147288) can0 140#0000030000000000
(1713559657.147520) can0 174#F27F005C4E790E21
(1713559657.147750) can0 178#F67F0737FE920E8B
(1713559657.147988) can0 17C#0880010042690E5E
(1713559657.148228) can0 410#2880008B9F6E8B7E
(1713559657.148470) can0 541#0440E800007FFFD9
(1713559657.150199) can0 12F#F810032000000029
(1713559657.150445) can0 12D#0000000000000035
(1713559657.150693) can0 290#000000020000003D
(1713559657.150939) can0 120#0000000807000030
(1713559657.151186) can0 121#0000000000000035
(1713559657.151387) can0 129#0000000100000031
(1713559657.155646) can0 400#2880000000000040
(1713559657.157259) can0 174#EE7F005C4B790FB7
(1713559657.157498) can0 178#F87F085FFE920FA9
(1713559657.157735) can0 17C#0C8001003A690F6E
(1713559657.157974) can0 410#2880008B9F6E8B9F
(1713559657.158220) can0 551#000000000004C000
(1713559657.158470) can0 5D1#9958000200000000
(1713559657.159587) can0 550#48000C000100009D
(1713559657.160393) can0 12F#F810032000000043
(1713559657.160629) can0 128#1388030000EC7828
(1713559657.160863) can0 12A#1428701C605800AD
(1713559657.161113) can0 12D#000000000000005F
(1713559657.161357) can0 12E#000000000000C02E
(1713559657.161603) can0 290#0000000200000057
(1713559657.161840) can0 5A0#0000006244928097
(1713559657.165751) can0 400#2880000000000075
(1713559657.167311) can0 174#EA7F005C3F79002B
(1713559657.167551) can0 178#02800930FC920005
(1713559657.167795) can0 17C#0E8001002F6900FE
(1713559657.168042) can0 140#0000030000000000
(1713559657.168274) can0 410#2880008B9F6E8BAA
(1713559657.168518) can0 541#0440E800007FFF38
(1713559657.169732) can0 6B9#0020400000000000
(1713559657.169976) can0 5A2#1410140000000000
(1713559657.170221) can0 12F#F810032000000076
(1713559657.170467) can0 12D#000000000000006A
(1713559657.170715) can0 290#0000000200000062
(1713559657.170959) can0 120#000000080700005A
(1713559657.171207) can0 121#000000000000005F
(1713559657.171454) can0 129#000000010000005B
(1713559657.175743) can0 400#2880000000000094
(1713559657.177266) can0 174#EC7F005C32790160
(1713559657.177505) can0 178#08800A37FE920139
(1713559657.177744) can0 17C#0C8001002969015C
(1713559657.177985) can0 410#2880008B9F6E8BC0
(1713559657.178231) can0 551#000000000004C000
(1713559657.178480) can0 5D1#9958000200000000
(1713559657.180380) can0 12F#F810032000000097
(1713559657.180613) can0 128#1388030000EC7842
(1713559657.180857) can0 12D#000000000000008B
(1713559657.181102) can0 12E#000000000000C044
(1713559657.181351) can0 290#0010000200000088
(1713559657.185859) can0 400#28800000000000A1
(1713559657.186492) can0 540#0000001040009F00
(1713559657.186734) can0 5B0#6342000000000028
(1713559657.187349) can0 174#EE7F005C2A7902E9
(1713559657.187556) can0 178#08800B31069302D5
(1713559657.187794) can0 17C#088001002A69029E
(1713559657.188037) can0 410#2880008B9F6E8B21
(1713559657.188274) can0 541#0440E800007FFF52
(1713559657.188522) can0 140#0000030000000000
(1713559657.188770) can0 552#00FFFFFFFFFFFF2E
(1713559657.189012) can0 450#0055C0001B004A00
(1713559657.190282) can0 12F#F8100320000000A2
(1713559657.190530) can0 12D#00000000000000BE
(1713559657.190776) can0 290#00100002000000BD
(1713559657.191030) can0 120#000000080700006F
(1713559657.191283) can0 121#000000000000006A
(1713559657.191531) can0 129#000000010000006E
(1713559657.195840) can0 400#28800000000000CB
(1713559657.197262) can0 174#F07F005C2C790349
(1713559657.197502) can0 178#048000000D9303C8
(1713559657.197742) can0 17C#048001002F6903B1
(1713559657.197980) can0 410#2880008B9F6E8B4B
(1713559657.198227) can0 551#000000000004C000
(1713559657.198476) can0 5D1#9958000200000000
(1713559657.200371) can0 12F#F8100320000000C8
(1713559657.200606) can0 128#1388030000EC7877
(1713559657.200848) can0 12D#00000000000000D4
(1713559657.201095) can0 12E#000000000000C071
(1713559657.201342) can0 290#00000002000000DC
(1713559657.205945) can0 400#288000000000002A
(1713559657.207315) can0 174#EC7F005C3D79048F
(1713559657.207548) can0 178#FA7F013714930450
(1713559657.207789) can0 17C#008001003569049C
(1713559657.208029) can0 410#2880008B9F6E8B7E
(1713559657.208281) can0 541#0440E800007FFF67
(1713559657.208869) can0 140#0000030000000000
(1713559657.209588) can0 550#48000C00010000A8
(1713559657.210218) can0 12F#F810032000000029
(1713559657.210453) can0 12A#1428701C605800C7
(1713559657.210699) can0 12D#0000000000000035
(1713559657.210948) can0 290#000000020000003D
(1713559657.211196) can0 120#000000080700008E
(1713559657.211440) can0 121#000000000000008B
(1713559657.211680) can0 129#000000010000008F
(1713559657.214807) can0 5D0#9958010200000000
(1713559657.215042) can0 5B1#008A9A6800000096
(1713559657.215280) can0 5CF#7444540000000000
(1713559657.215937) can0 400#2880000000000040
(1713559657.217269) can0 174#E87F005C537905A2
(1713559657.217501) can0 178#F47F022E1A9305DF
(1713559657.217743) can0 17C#028001003A6905BD
(1713559657.217983) can0 410#2880008B9F6E8B9F
(1713559657.218229) can0 551#000000000004C000
(1713559657.218480) can0 5D1#9958000200000000
(1713559657.220424) can0 12F#F82003200000005E
(1713559657.220656) can0 128#1388030000EC7896
(1713559657.220906) can0 12D#000000000000005F
(1713559657.221155) can0 12E#000000000000C090
(1713559657.221398) can0 290#0000000200000057
(1713559657.222334) can0 4EA#0000000000000000
(1713559657.222580) can0 5B2#0800000000000000
(1713559657.222825) can0 310#FFFFFFFF7D7D0000
(1713559657.226042) can0 400#2880000000000075
(1713559657.227344) can0 174#E87F005C5B790689
(1713559657.227551) can0 178#F67F033120930642
(1713559657.227789) can0 17C#0A8001003D6906C2
(1713559657.228025) can0 410#2880008B9F6E8BAA
(1713559657.228268) can0 541#0440E800007FFF86
(1713559657.229389) can0 140#0000030000000000
(1713559657.230204) can0 12F#F810032000000076
(1713559657.230450) can0 12D#000000000000006A
(1713559657.230698) can0 290#0000000200000062
(1713559657.231174) can0 120#00000008070000BB
(1713559657.231439) can0 121#00000000000000BE
(1713559657.231668) can0 129#00000001000000BA
(1713559657.236032) can0 400#2880000000000094
(1713559657.237276) can0 174#E87F005C5179079B
(1713559657.237516) can0 178#FC7F0430209307A1
(1713559657.237759) can0 17C#0E8001003D6907B6
(1713559657.237999) can0 410#2880008B9F6E8BC0
(1713559657.238245) can0 551#000000000004C000
(1713559657.238500) can0 552#00FFFFFFFFFFFF44
(1713559657.238746) can0 5D1#9958000200000000
(1713559657.238987) can0 5D2#7444540000000000
(1713559657.239309) can0 450#0055C0001B004A00
(1713559657.240415) can0 12F#F810032000000097
(1713559657.240650) can0 128#1388030000EC78A3
(1713559657.240896) can0 12D#000000000000008B
(1713559657.241140) can0 12E#000000000000C0A5
(1713559657.241396) can0 290#0000000200000083
(1713559657.246137) can0 400#28800000000000A1
(1713559657.247345) can0 174#E87F005C427908B4
(1713559657.247559) can0 178#FE7F0000179308D8
(1713559657.247799) can0 17C#128001003D69080F
(1713559657.248035) can0 410#2880008B9F6E8B21
(1713559657.248277) can0 541#0440E800007FFFB3
(1713559657.249924) can0 140#0000030000000000
(1713559657.250197) can0 12F#F8100320000000A2
(1713559657.250444) can0 12D#00000000000000BE
(1713559657.250690) can0 290#00000002000000B6
(1713559657.251274) can0 120#00000008070000D1
(1713559657.251518) can0 121#00000000000000D4
(1713559657.251760) can0 129#00000001000000D0
(1713559657.256130) can0 400#28800000000000CB
(1713559657.257278) can0 174#E67F005C347909E5
(1713559657.257511) can0 178#FA7F01380A9309A8
(1713559657.257748) can0 17C#128001003869099B
(1713559657.257986) can0 410#2880008B9F6E8B4B
(1713559657.258233) can0 551#000000000004C000
(1713559657.258483) can0 5D1#9958000200000000
(1713559657.259536) can0 550#48000C00010000C2
(1713559657.260364) can0 12F#F8100320000000C8
(1713559657.260600) can0 128#1388030000EC78C9
(1713559657.260833) can0 12A#1428701C60580026
(1713559657.261077) can0 12D#00000000000000D4
(1713559657.261321) can0 12E#000000000000C0CF
(1713559657.261570) can0 290#00000002000000DC
(1713559657.261836) can0 5A0#00000062449280A2
(1713559657.266238) can0 400#288000000000002A
(1713559657.267347) can0 174#E67F005C2D790A59
(1713559657.267561) can0 178#F47F02320A930A8B
(1713559657.267799) can0 17C#0E80010031690A3D
(1713559657.268036) can0 410#2880008B9F6E8B7E
(1713559657.268279) can0 541#0440E800007FFFD9
(1713559657.269923) can0 6B9#0020400000000000
(1713559657.270166) can0 5A2#1410140000000000
(1713559657.270413) can0 12D#0000000000000035
(1713559657.270661) can0 12F#F810032000000029
(1713559657.270907) can0 140#0000030000000000
(1713559657.271152) can0 290#000000020000003D
(1713559657.271407) can0 120#0000000807000030
(1713559657.271653) can0 121#0000000000000035
(1713559657.271897) can0 129#0000000100000031
(1713559657.276230) can0 400#2880000000000040
(1713559657.277291) can0 174#E47F005C2F790BFD
(1713559657.277521) can0 178#F67F03320D930BCC
(1713559657.277758) can0 17C#0A80010031690B49
(1713559657.277999) can0 410#2880008B9F6E8B9F
(1713559657.278244) can0 551#000000000004C000
(1713559657.278470) can0 6AB#ACC2A57596A3C162
(1713559657.278710) can0 5D1#9958000200000000
(1713559657.280323) can0 12F#F810032000000043
(1713559657.280560) can0 128#1388030000EC7828
(1713559657.280811) can0 12D#000000000000005F
(1713559657.281055) can0 12E#000000000000C02E
(1713559657.281301) can0 290#001000020000005C
(1713559657.286331) can0 400#2880000000000075
(1713559657.286981) can0 540#0000001040009F00
(1713559657.287223) can0 5B0#6342000000000042
(1713559657.287456) can0 174#E67F005C35790C03
(1713559657.287684) can0 178#FE7F04350D930CB2
(1713559657.287924) can0 17C#0680010037690CA4
(1713559657.288160) can0 410#2880008B9F6E8BAA
(1713559657.288406) can0 541#0440E800007FFF38
(1713559657.288656) can0 552#00FFFFFFFFFFFF71
(1713559657.288900) can0 450#0055C0001B004A00
(1713559657.290280) can0 12F#F810032000000076
(1713559657.290526) can0 12D#000000000000006A
(1713559657.290771) can0 290#0010000200000069
(1713559657.291028) can0 140#0000030000000000
(1713559657.291465) can0 120#000000080700005A
(1713559657.291710) can0 121#000000000000005F
(1713559657.291954) can0 129#000000010000005B
(1713559657.296323) can0 400#2880000000000094
(1713559657.297294) can0 174#EA7F005C38790D20
(1713559657.297534) can0 178#048000000A930DE4
(1713559657.297774) can0 17C#008001003B690D60
(1713559657.298014) can0 410#2880008B9F6E8BC0
(1713559657.298260) can0 551#000000000004C000
(1713559657.298511) can0 5D1#9958000200000000
(1713559657.300369) can0 12F#F82003200000008A
(1713559657.300602) can0 128#1388030000EC7842
(1713559657.300848) can0 12D#000000000000008B
(1713559657.301093) can0 12E#000000000000C044
(1713559657.301343) can0 290#0010000200000088
(1713559657.306429) can0 400#28800000000000A1
(1713559657.307348) can0 174#EE7F005C35790EEB
(1713559657.307576) can0 178#0480013204930EE8
(1713559657.307810) can0 17C#FA7F010037690E85
(1713559657.308046) can0 410#2880008B9F6E8B21
(1713559657.309577) can0 550#48000C0001000023
(1713559657.309863) can0 541#0440E800007FFF52
(1713559657.310198) can0 12F#F8100320000000A2
(1713559657.310429) can0 12A#1428701C6058004C
(1713559657.310680) can0 12D#00000000000000BE
(1713559657.310927) can0 290#00100002000000BD
(1713559657.311507) can0 140#0000030000000000
(1713559657.311744) can0 120#000000080700006F
(1713559657.311994) can0 121#000000000000006A
(1713559657.312243) can0 129#000000010000006E
(1713559657.314865) can0 5D0#9958010200000000
(1713559657.315100) can0 5B1#008A9A68000000A3
(1713559657.315338) can0 5CF#7444540000000000
(1713559657.316420) can0 400#28800000000000CB
(1713559657.317299) can0 174#F27F005C35790FF4
(1713559657.317537) can0 178#0480023001930FE5
(1713559657.317773) can0 17C#FA7F010032690F11
(1713559657.318011) can0 410#2880008B9F6E8B4B
(1713559657.318257) can0 551#000000000004C000
(1713559657.318505) can0 5D1#9958000200000000
(1713559657.320350) can0 12F#F8100320000000C8
(1713559657.320585) can0 128#1388030000EC7877
(1713559657.320829) can0 12D#00000000000000D4
(1713559657.321076) can0 12E#000000000000C071
(1713559657.321324) can0 290#00000002000000DC
(1713559657.322129) can0 4EA#0000000000000000
(1713559657.322375) can0 5B2#0800000000000000
(1713559657.322620) can0 310#FFFFFFFF7D7D0000
(1713559657.326531) can0 400#288000000000002A
(1713559657.327380) can0 174#F27F005C347900C0
(1713559657.327594) can0 178#00800332069300F0
(1713559657.327834) can0 17C#FA7F01002D690034
(1713559657.328075) can0 410#2880008B9F6E8B7E
(1713559657.328319) can0 541#0440E800007FFF67
(1713559657.330196) can0 12F#F810032000000029
(1713559657.330441) can0 12D#0000000000000035
(1713559657.330689) can0 290#000000020000003D
(1713559657.331670) can0 120#000000080700008E
(1713559657.331909) can0 121#000000000000008B
(1713559657.332151) can0 129#000000010000008F
(1713559657.332409) can0 140#0000030000000000
(1713559657.336519) can0 400#2880000000000040
(1713559657.337308) can0 174#EE7F005C347901DF
(1713559657.337542) can0 178#008004330A930171
(1713559657.337780) can0 17C#FA7F0100266901A9
(1713559657.338020) can0 410#2880008B9F6E8B9F
(1713559657.338266) can0 551#000000000004C000
(1713559657.338520) can0 552#00FFFFFFFFFFFF90
(1713559657.338766) can0 5D1#9958000200000000
(1713559657.339010) can0 5D2#7444540000000000
(1713559657.339300) can0 450#0055C0001B004A00
(1713559657.340375) can0 12F#F810032000000043
(1713559657.340608) can0 128#1388030000EC7896
(1713559657.340859) can0 12D#000000000000005F
(1713559657.341105) can0 12E#000000000000C090
(1713559657.341350) can0 290#0000000200000057
(1713559657.346566) can0 400#2880000000000075
(1713559657.347313) can0 174#E67F005C377902A6
(1713559657.347550) can0 178#FA7F053107930256
(1713559657.347793) can0 17C#FE7F0100226902E1
(1713559657.348075) can0 410#2880008B9F6E8BAA
(1713559657.348316) can0 541#0440E800007FFF86
(1713559657.350201) can0 12F#F810032000000076
(1713559657.350446) can0 12D#000000000000006A
(1713559657.350694) can0 290#0000000200000062
(1713559657.351771) can0 120#00000008070000BB
(1713559657.352015) can0 121#00000000000000BE
(1713559657.352256) can0 129#00000001000000BA
(1713559657.352550) can0 140#0000030000000000
(1713559657.356673) can0 400#2880000000000094
(1713559657.357345) can0 410#2880008B9F6E8BC0
(1713559657.357573) can0 174#E27F005C3B7903D8
(1713559657.357807) can0 178#F27F0630FC9203FE
(1713559657.358045) can0 17C#04800100216903B8
(1713559657.358291) can0 551#000000000004C000
(1713559657.358541) can0 5D1#9958000200000000
(1713559657.359588) can0 550#48000C0001000049
(1713559657.360387) can0 12F#F810032000000097
(1713559657.360575) can0 128#1388030000EC78A3
(1713559657.360808) can0 12A#1428701C60580079
(1713559657.361053) can0 12D#000000000000008B
(1713559657.361297) can0 12E#000000000000C0A5
(1713559657.361543) can0 290#0020000200000095
(1713559657.361779) can0 5A0#00000062449280C8
(1713559657.366675) can0 400#28800000000000A1
(1713559657.367265) can0 410#2880008B9F6E8B21
(1713559657.367497) can0 174#E07F005C45790470
(1713559657.367730) can0 178#F07F0731F1920465
(1713559657.367972) can0 17C#088001001769047D
(1713559657.368262) can0 541#0440E800007FFFB3
(1713559657.370106) can0 6B9#0020400000000000
(1713559657.370353) can0 12D#00000000000000BE
(1713559657.370593) can0 12F#F8100320000000A2
(1713559657.370839) can0 290#00200002000000A0
(1713559657.371083) can0 5A2#1410140000000000
(1713559657.371869) can0 120#00000008070000D1
(1713559657.372110) can0 121#00000000000000D4
(1713559657.372352) can0 129#00000001000000D0
(1713559657.373072) can0 140#0000030000000000
(1713559657.376764) can0 400#28800000000000CB
(1713559657.377001) can0 410#2880008B9F6E8B4B
(1713559657.377374) can0 174#E07F005C53790570
(1713559657.377605) can0 178#F47F0838EE9205F2
(1713559657.377844) can0 17C#06800100166905EE
(1713559657.378090) can0 551#000000000004C000
(1713559657.378340) can0 5D1#9958000200000000
(1713559657.380387) can0 12F#F8200320000000D5
(1713559657.380611) can0 128#1388030000EC78C9
(1713559657.380853) can0 12D#00000000000000D4
(1713559657.381098) can0 12E#000000000000C0CF
(1713559657.381346) can0 290#00000002000000DC
(1713559657.386761) can0 400#288000000000002A
(1713559657.387001) can0 410#2880008B9F6E8B7E
(1713559657.387337) can0 174#E47F005C5B790632
(1713559657.387564) can0 178#FA7F0000F6920644
(1713559657.387806) can0 17C#028001001F690623
(1713559657.388052) can0 540#0000001040009F00
(1713559657.388295) can0 541#0440E800007FFFD9
(1713559657.388582) can0 5B0#6342000000000077
(1713559657.388826) can0 552#00FFFFFFFFFFFFA5
(1713559657.389070) can0 450#0055C0001B004A00
(1713559657.390286) can0 12F#F810032000000029
(1713559657.390528) can0 12D#0000000000000035
(1713559657.390775) can0 290#000000020000003D
(1713559657.391966) can0 120#0000000807000030
(1713559657.392211) can0 121#0000000000000035
(1713559657.392456) can0 129#0000000100000031
(1713559657.393598) can0 140#0000030000000000
(1713559657.396864) can0 400#2880000000000040
(1713559657.397110) can0 410#2880008B9F6E8B9F
(1713559657.397380) can0 174#E87F005C5579079D
(1713559657.397621) can0 178#F87F000004930724
(1713559657.397859) can0 17C#FE7F010029690708
(1713559657.398107) can0 551#000000000004C000
(1713559657.398354) can0 5D1#9958000200000000
(1713559657.400374) can0 12F#F810032000000043
(1713559657.400609) can0 128#1388030000EC7828
(1713559657.400859) can0 12D#000000000000005F
(1713559657.401055) can0 12E#000000000000C02E
(1713559657.401302) can0 290#0000000200000057
(1713559657.406836) can0 410#2880008B9F6E8BAA
(1713559657.407082) can0 400#2880000000000075
(1713559657.407335) can0 174#EA7F005C4B79088D
(1713559657.407558) can0 178#F47F01521593084F
(1713559657.407796) can0 17C#FA7F0100356908C8
(1713559657.408040) can0 541#0440E800007FFF38
(1713559657.409581) can0 550#48000C000100007C
(1713559657.410218) can0 12F#F810032000000076
(1713559657.410451) can0 12A#1428701C60580098
(1713559657.410700) can0 12D#000000000000006A
(1713559657.410945) can0 290#0000000200000062
(1713559657.412068) can0 120#000000080700005A
(1713559657.412313) can0 121#000000000000005F
(1713559657.412558) can0 129#000000010000005B
(1713559657.414124) can0 140#0000030000000000
(1713559657.414890) can0 5D0#9958010200000000
(1713559657.415125) can0 5B1#008A9A68000000C9
(1713559657.415384) can0 5CF#7444540000000000
(1713559657.416863) can0 410#2880008B9F6E8BC0
(1713559657.417108) can0 400#2880000000000094
(1713559657.417414) can0 551#000000000004C000
(1713559657.417636) can0 174#EA7F005C4D790995
(1713559657.417865) can0 178#EE7F026F1A93099B
(1713559657.418101) can0 17C#F67F0100406909AF
(1713559657.418340) can0 5D1#9958000200000000
(1713559657.420386) can0 12F#F810032000000097
(1713559657.420615) can0 128#1388030000EC7842
(1713559657.420861) can0 12D#000000000000008B
(1713559657.421105) can0 12E#000000000000C044
(1713559657.421309) can0 290#0000000200000083
(1713559657.421925) can0 4EA#0000000000000000
(1713559657.422169) can0 5B2#0800000000000000
(1713559657.422415) can0 310#FFFFFFFF7D7D0000
(1713559657.426784) can0 410#2880008B9F6E8B21
(1713559657.427029) can0 400#28800000000000A1
(1713559657.427356) can0 541#0440E800007FFF52
(1713559657.427586) can0 174#EE7F005C4E790A57
(1713559657.427814) can0 178#EC7F036211930AA3
(1713559657.428054) can0 17C#FA7F010048690A3F
(1713559657.430191) can0 12F#F8100320000000A2
(1713559657.430439) can0 12D#00000000000000BE
(1713559657.430687) can0 290#00000002000000B6
(1713559657.432169) can0 120#000000080700006F
(1713559657.432418) can0 121#000000000000006A
(1713559657.432666) can0 129#000000010000006E
(1713559657.434649) can0 140#0000030000000000
(1713559657.436807) can0 410#2880008B9F6E8B4B
(1713559657.437057) can0 400#28800000000000CB
(1713559657.437399) can0 174#F67F005C4E790B21
(1713559657.437637) can0 178#E87F046503930B33
(1713559657.437868) can0 17C#0280010050690B44
(1713559657.438111) can0 551#000000000004C000
(1713559657.438365) can0 552#00FFFFFFFFFFFFCF
(1713559657.438611) can0 5D1#9958000200000000
(1713559657.438856) can0 5D2#7444540000000000
(1713559657.439100) can0 450#0055C0001B004A00
(1713559657.440414) can0 12F#F8100320000000C8
(1713559657.440648) can0 128#1388030000EC7877
(1713559657.440890) can0 12D#00000000000000D4
(1713559657.441138) can0 12E#000000000000C071
(1713559657.441386) can0 290#00000002000000DC
(1713559657.446734) can0 410#2880008B9F6E8B7E
(1713559657.447053) can0 400#288000000000002A
(1713559657.447351) can0 541#0440E800007FFF67
(1713559657.447583) can0 174#FA7F005C4E790CC9
(1713559657.447816) can0 178#DC7F0572F9920CAF
(1713559657.448049) can0 17C#0880010056690C7A
(1713559657.450192) can0 12F#F810032000000029
(1713559657.450441) can0 12D#0000000000000035
(1713559657.450686) can0 290#000000020000003D
(1713559657.452264) can0 120#000000080700008E
(1713559657.452506) can0 121#000000000000008B
(1713559657.452748) can0 129#000000010000008F
(1713559657.455175) can0 140#0000030000000000
(1713559657.456756) can0 410#2880008B9F6E8B9F
(1713559657.457160) can0 400#2880000000000040
(1713559657.457406) can0 551#000000000004C000
(1713559657.457639) can0 174#FC7F005C4B790D8E
(1713559657.457882) can0 178#D67F0674F8920D82
(1713559657.458110) can0 17C#0A80010053690D54
(1713559657.458349) can0 5D1#9958000200000000
(1713559657.459587) can0 550#48000C000100009D
(1713559657.460397) can0 12F#F82003200000005E
(1713559657.460630) can0 128#1388030000EC7896
(1713559657.460865) can0 12A#1428701C605800AD
(1713559657.461115) can0 12D#000000000000005F
(1713559657.461361) can0 12E#000000000000C090
(1713559657.461607) can0 290#0000000200000057
(1713559657.461798) can0 5A0#0000006244928029
(1713559657.466677) can0 410#2880008B9F6E8BAA
(1713559657.467146) can0 400#2880000000000075
(1713559657.467389) can0 541#0440E800007FFF86
(1713559657.467619) can0 174#FA7F005C3D790E37
(1713559657.467855) can0 178#DC7F0720FF920ED2
(1713559657.468089) can0 17C#088001004A690E52
(1713559657.470214) can0 12F#F810032000000076
(1713559657.470459) can0 12D#000000000000006A
(1713559657.470713) can0 290#0000000200000062
(1713559657.470955) can0 6B9#0020400000000000
(1713559657.471200) can0 5A2#1410140000000000
(1713559657.472359) can0 120#00000008070000BB
(1713559657.472603) can0 121#00000000000000BE
(1713559657.472845) can0 129#00000001000000BA
(1713559657.475703) can0 140#0000030000000000
(1713559657.476701) can0 410#2880008B9F6E8BC0
(1713559657.477255) can0 400#2880000000000094
(1713559657.477484) can0 174#FA7F005C34790FA9
(1713559657.477717) can0 178#EA7F084209930F8E
(1713559657.477963) can0 17C#048001003F690F35
(1713559657.478203) can0 551#000000000004C000
(1713559657.478451) can0 5D1#9958000200000000
(1713559657.480370) can0 12F#F810032000000097
(1713559657.480604) can0 128#1388030000EC78A3
(1713559657.480849) can0 12D#000000000000008B
(1713559657.481093) can0 12E#000000000000C0A5
(1713559657.481346) can0 290#0000000200000083
(1713559657.486623) can0 410#2880008B9F6E8B21
(1713559657.487244) can0 400#28800000000000A1
(1713559657.487476) can0 174#FA7F005C3579009D
(1713559657.487708) can0 178#F27F096F0F930034
(1713559657.487952) can0 17C#048001003F69008E
(1713559657.488200) can0 540#0000001040009F00
(1713559657.488440) can0 541#0440E800007FFFB3
(1713559657.488682) can0 5B0#6342000000000096
(1713559657.488929) can0 552#00FFFFFFFFFFFF2E
(1713559657.489173) can0 450#0055C0001B004A00
(1713559657.490287) can0 12F#F8100320000000A2
(1713559657.490535) can0 12D#00000000000000BE
(1713559657.490783) can0 290#00000002000000B6
(1713559657.492457) can0 120#00000008070000D1
(1713559657.492697) can0 121#00000000000000D4
(1713559657.492940) can0 129#00000001000000D0
(1713559657.496226) can0 140#0000030000000000
(1713559657.496686) can0 410#2880008B9F6E8B4B
(1713559657.497347) can0 400#28800000000000CB
(1713559657.497580) can0 174#F87F005C3A7901BC
(1713559657.497810) can0 178#F67F0A730993010C
(1713559657.498057) can0 17C#04800100436901D1
(1713559657.498295) can0 551#000000000004C000
(1713559657.498541) can0 5D1#9958000200000000
(1713559657.500372) can0 12F#F8100320000000C8
(1713559657.500605) can0 128#1388030000EC78C9
(1713559657.500849) can0 12D#00000000000000D4
(1713559657.501093) can0 12E#000000000000C0CF
(1713559657.501341) can0 290#00000002000000DC
(1713559657.506600) can0 410#2880008B9F6E8B7E
(1713559657.507346) can0 541#0440E800007FFFD9
(1713559657.507566) can0 174#F47F005C3A790220
(1713559657.507801) can0 178#00800B63FB9202D0
(1713559657.508040) can0 17C#04800100456902F3
(1713559657.508288) can0 400#288000000000002A
(1713559657.509580) can0 550#48000C00010000A8
(1713559657.510214) can0 12F#F810032000000029
(1713559657.510452) can0 12A#1428701C605800C7
(1713559657.510695) can0 12D#0000000000000035
(1713559657.510945) can0 290#000000020000003D
(1713559657.512551) can0 120#0000000807000030
(1713559657.512803) can0 121#0000000000000035
(1713559657.513045) can0 129#0000000100000031
(1713559657.514870) can0 5D0#9958010200000000
(1713559657.515105) can0 5B1#008A9A6800000028
(1713559657.515355) can0 5CF#7444540000000000
(1713559657.516620) can0 410#2880008B9F6E8B9F
(1713559657.516869) can0 140#0000030000000000
(1713559657.517417) can0 174#F07F005C3A790354
(1713559657.517653) can0 178#0A800C68F1920387
(1713559657.517896) can0 17C#08800100426903DF
(1713559657.518152) can0 400#2880000000000040
(1713559657.518392) can0 551#000000000004C000
(1713559657.518642) can0 5D1#9958000200000000
(1713559657.520376) can0 12F#F810032000000043
(1713559657.520614) can0 128#1388030000EC7828
(1713559657.520864) can0 12D#000000000000005F
(1713559657.521108) can0 12E#000000000000C02E
(1713559657.521354) can0 290#0000000200000057
(1713559657.521767) can0 4EA#0000000000000000
(1713559657.521995) can0 5B2#0800000000000000
(1713559657.522211) can0 310#FFFFFFFF7D7D0000
(1713559657.526543) can0 410#2880008B9F6E8BAA
(1713559657.527347) can0 541#0440E800007FFF38
(1713559657.527570) can0 174#EC7F005C3D79048F
(1713559657.527806) can0 178#0C800D20EE9204FB
(1713559657.528046) can0 17C#0C8001003B69042E
(1713559657.528293) can0 400#2880000000000075
(1713559657.530200) can0 12F#F810032000000076
(1713559657.530447) can0 12D#000000000000006A
(1713559657.530693) can0 290#0000000200000062
(1713559657.532645) can0 120#000000080700005A
(1713559657.532889) can0 121#000000000000005F
(1713559657.533134) can0 129#000000010000005B
(1713559657.536569) can0 410#2880008B9F6E8BC0
(1713559657.537276) can0 140#0000030000000000
(1713559657.537505) can0 174#EA7F005C3B790544
(1713559657.537739) can0 178#06800E47F092050B
(1713559657.537977) can0 17C#0E8001002F690597
(1713559657.538224) can0 400#2880000000000094
(1713559657.538478) can0 551#000000000004C000
(1713559657.538724) can0 552#00FFFFFFFFFFFF44
(1713559657.538971) can0 55A#0017160000000000
(1713559657.539216) can0 5D1#9958000200000000
(1713559657.539464) can0 5D2#7444540000000000
(1713559657.539712) can0 450#0055C0001B004A00
(1713559657.540402) can0 12F#F810032000000097
(1713559657.540637) can0 128#1388030000EC7842
(1713559657.540883) can0 12D#000000000000008B
(1713559657.541126) can0 12E#000000000000C044
(1713559657.541378) can0 290#0000000200000083
(1713559657.546490) can0 410#2880008B9F6E8B21
(1713559657.547329) can0 541#0440E800007FFF52
(1713559657.547561) can0 174#EA7F005C387906EF
(1713559657.547793) can0 178#FE7F0F6DF9920646
(1713559657.548033) can0 17C#0E8001002F6906B0
(1713559657.548279) can0 400#28800000000000A1
(1713559657.550225) can0 12F#F8100320000000A2
(1713559657.550474) can0 12D#00000000000000BE
(1713559657.550719) can0 290#00000002000000B6
(1713559657.552742) can0 120#000000080700006F
(1713559657.552996) can0 121#000000000000006A
(1713559657.553241) can0 129#000000010000006E
(1713559657.556515) can0 410#2880008B9F6E8B4B
(1713559657.557383) can0 551#000000000004C000
(1713559657.557612) can0 174#E87F005C38790748
(1713559657.557862) can0 140#0000030000000000
(1713559657.558096) can0 178#FC7F00620D930737
(1713559657.558341) can0 17C#0A800100376907D0
(1713559657.558586) can0 400#28800000000000CB
(1713559657.558827) can0 5D1#9958000200000000
(1713559657.559593) can0 550#48000C00010000C2
(1713559657.560392) can0 12F#F8100320000000C8
(1713559657.560619) can0 128#1388030000EC7877
(1713559657.560852) can0 12A#1428701C60580026
(1713559657.561096) can0 12D#00000000000000D4
(1713559657.561344) can0 12E#000000000000C071
(1713559657.561594) can0 290#00000002000000DC
(1713559657.561830) can0 5A0#0000006244928043
(1713559657.566413) can0 410#2880008B9F6E8B7E
(1713559657.567332) can0 541#0440E800007FFF67
(1713559657.567563) can0 174#E47F005C3F7908C2
(1713559657.567798) can0 178#FA7F014822930872
(1713559657.568034) can0 17C#0480010035690869
(1713559657.568282) can0 400#288000000000002A
(1713559657.570159) can0 12F#F810032000000029
(1713559657.570405) can0 12D#0000000000000035
(1713559657.570653) can0 290#000000020000003D
(1713559657.570901) can0 6B9#0020400000000000
(1713559657.571145) can0 5A2#1410140000000000
(1713559657.572833) can0 120#000000080700008E
(1713559657.573073) can0 121#000000000000008B
(1713559657.573317) can0 129#000000010000008F
(1713559657.576453) can0 410#2880008B9F6E8B9F
(1713559657.577379) can0 551#000000000004C000
(1713559657.577608) can0 174#E07F005C48790974
(1713559657.577842) can0 178#FA7F00002D93098B
(1713559657.578079) can0 17C#02800100296909B5
(1713559657.578326) can0 400#2880000000000040
(1713559657.578577) can0 140#0000030000000000
(1713559657.578817) can0 5D1#9958000200000000
(1713559657.580377) can0 12F#F810032000000043
(1713559657.580616) can0 128#1388030000EC7896
(1713559657.580861) can0 12D#000000000000005F
(1713559657.581105) can0 12E#000000000000C090
(1713559657.581352) can0 290#0000000200000057
(1713559657.586396) can0 410#2880008B9F6E8BAA
(1713559657.587345) can0 541#0440E800007FFF86
(1713559657.587579) can0 174#E07F005C50790A47
(1713559657.587816) can0 178#FA7F000028930A25
(1713559657.588055) can0 17C#FE7F010026690A0F
(1713559657.588302) can0 400#2880000000000075
(1713559657.588548) can0 540#0000001040009F00
(1713559657.588792) can0 552#00FFFFFFFFFFFF71
(1713559657.589034) can0 5B0#63420000000000A3
(1713559657.589272) can0 450#0055C0001B004A00
(1713559657.590246) can0 12F#F810032000000076
(1713559657.590493) can0 12D#000000000000006A
(1713559657.590741) can0 290#0000000200000062
(1713559657.592928) can0 120#00000008070000BB
(1713559657.593170) can0 121#00000000000000BE
(1713559657.593412) can0 129#00000001000000BA
(1713559657.596452) can0 410#2880008B9F6E8BC0
(1713559657.597442) can0 174#E47F005C55790BBA
(1713559657.597678) can0 178#FE7F000D1F930BBC
(1713559657.597919) can0 17C#FA7F010031690BE9
(1713559657.598162) can0 400#2880000000000094
(1713559657.598408) can0 551#000000000004C000
(1713559657.598658) can0 5D1#9958000200000000
(1713559657.598908) can0 140#0000030000000000
(1713559657.600368) can0 12F#F810032000000097
(1713559657.600602) can0 128#1388030000EC78A3
(1713559657.600856) can0 12D#000000000000008B
(1713559657.601094) can0 12E#000000000000C0A5
(1713559657.601345) can0 290#0000000200000083
(1713559657.606397) can0 410#2880008B9F6E8B21
(1713559657.607328) can0 541#0440E800007FFFB3
(1713559657.607555) can0 174#EA7F005C58790C6D
(1713559657.607793) can0 178#008000001A930C88
(1713559657.608033) can0 17C#F87F010040690CC7
(1713559657.608279) can0 400#28800000000000A1
(1713559657.609531) can0 550#48000C0001000023
(1713559657.610161) can0 12F#F8100320000000A2
(1713559657.610394) can0 12A#1428701C6058004C
(1713559657.610642) can0 12D#00000000000000BE
(1713559657.610888) can0 290#00000002000000B6
(1713559657.613025) can0 120#00000008070000D1
(1713559657.613264) can0 121#00000000000000D4
(1713559657.613506) can0 129#00000001000000D0
(1713559657.614910) can0 5D0#9958010200000000
(1713559657.615145) can0 5B1#008A9A6800000042
(1713559657.615386) can0 5CF#7444540000000000
(1713559657.616445) can0 410#2880008B9F6E8B4B
(1713559657.617379) can0 551#000000000004C000
(1713559657.617609) can0 174#EC7F005C56790DAA
(1713559657.617844) can0 178#0080013618930DFA
(1713559657.618082) can0 17C#FC7F010048690DBF
(1713559657.618330) can0 400#28800000000000CB
(1713559657.618568) can0 5D1#9958000200000000
(1713559657.619412) can0 140#0000030000000000
(1713559657.620375) can0 12F#F8100320000000C8
(1713559657.620610) can0 128#1388030000EC78C9
(1713559657.620854) can0 12D#00000000000000D4
(1713559657.621105) can0 12E#000000000000C0CF
(1713559657.621348) can0 290#00000002000000DC
(1713559657.621595) can0 4EA#0000000000000000
(1713559657.621841) can0 5B2#0800000000000000
(1713559657.622087) can0 310#FFFFFFFF7D7D0000
(1713559657.626400) can0 410#2880008B9F6E8B7E
(1713559657.627329) can0 541#0440E800007FFFD9
(1713559657.627554) can0 174#EC7F005C56790E8D
(1713559657.627789) can0 178#0080023018930E0A
(1713559657.628027) can0 17C#0080010046690E8A
(1713559657.628277) can0 400#288000000000002A
(1713559657.630142) can0 12F#F810032000000029
(1713559657.630388) can0 12D#0000000000000035
(1713559657.630636) can0 290#000000020000003D
(1713559657.633060) can0 120#0000000807000030
(1713559657.633307) can0 121#0000000000000035
(1713559657.633551) can0 129#0000000100000031
(1713559657.636448) can0 410#2880008B9F6E8B9F
(1713559657.637397) can0 551#000000000004C000
(1713559657.637625) can0 174#EC7F005C59790F16
(1713559657.637861) can0 178#008003311F930F6A
(1713559657.638102) can0 17C#028001003D690FE5
(1713559657.638349) can0 400#2880000000000040
(1713559657.638595) can0 552#00FFFFFFFFFFFF90
(1713559657.638842) can0 5D1#9958000200000000
(1713559657.639086) can0 5D2#7444540000000000
(1713559657.639351) can0 450#0055C0001B004A00
(1713559657.639904) can0 140#0000030000000000
(1713559657.640417) can0 12F#F810032000000043
(1713559657.640656) can0 128#1388030000EC7828
(1713559657.640906) can0 12D#000000000000005F
(1713559657.641151) can0 12E#000000000000C02E
(1713559657.641396) can0 290#001000020000005C
(1713559657.646457) can0 410#2880008B9F6E8BAA
(1713559657.647398) can0 541#0440E800007FFF38
(1713559657.647604) can0 174#EE7F005C5B790014
(1713559657.647840) can0 178#FC7F0438239300E2
(1713559657.648078) can0 17C#02800100326900D8
(1713559657.648324) can0 400#2880000000000075
(1713559657.650198) can0 12F#F810032000000076
(1713559657.650396) can0 12D#000000000000006A
(1713559657.650646) can0 290#0010000200000069
(1713559657.653162) can0 120#000000080700005A
(1713559657.653407) can0 121#000000000000005F
(1713559657.653651) can0 129#000000010000005B
(1713559657.656400) can0 410#2880008B9F6E8BC0
(1713559657.657328) can0 551#000000000004C000
(1713559657.657560) can0 174#F07F005C5B7901B1
(1713559657.657792) can0 178#FA7F0531229301C8
(1713559657.658078) can0 17C#02800100226901DD
(1713559657.658325) can0 400#2880000000000094
(1713559657.658565) can0 5D1#9958000200000000
(1713559657.659591) can0 550#48000C0001000049
(1713559657.660391) can0 12F#F810032000000097
(1713559657.660625) can0 128#1388030000EC7842
(1713559657.660857) can0 12A#1428701C60580079
(1713559657.661103) can0 12D#000000000000008B
(1713559657.661347) can0 12E#000000000000C044
(1713559657.661599) can0 140#0000030000000000
(1713559657.661843) can0 290#0020000200000095
(1713559657.662081) can0 5A0#0000006244928076
(1713559657.666445) can0 410#2880008B9F6E8B21
(1713559657.667403) can0 541#0440E800007FFF52
(1713559657.667608) can0 174#F07F005C59790295
(1713559657.667845) can0 178#FE7F06321F93022F
(1713559657.668082) can0 17C#028001001169025E
(1713559657.668328) can0 400#28800000000000A1
(1713559657.670205) can0 12F#F8100320000000A2
(1713559657.670404) can0 12D#00000000000000BE
(1713559657.670651) can0 290#00200002000000A0
(1713559657.670898) can0 6B9#0020400000000000
(1713559657.671142) can0 5A2#1410140000000000
(1713559657.673256) can0 120#000000080700006F
(1713559657.673507) can0 121#000000000000006A
(1713559657.673756) can0 129#000000010000006E
(1713559657.676398) can0 410#2880008B9F6E8B4B
(1713559657.677328) can0 551#000000000004C000
(1713559657.677560) can0 174#F07F005C53790387
(1713559657.677792) can0 178#028007391D930366
(1713559657.678032) can0 17C#0680010013690329
(1713559657.678278) can0 400#28800000000000CB
(1713559657.678518) can0 5D1#9958000200000000
(1713559657.680371) can0 12F#F8100320000000C8
(1713559657.680603) can0 128#1388030000EC7877
(1713559657.680847) can0 12D#00000000000000D4
(1713559657.681095) can0 12E#000000000000C071
(1713559657.681345) can0 140#0000030000000000
(1713559657.681593) can0 290#00000002000000DC
(1713559657.686446) can0 410#2880008B9F6E8B7E
(1713559657.687396) can0 541#0440E800007FFF67
(1713559657.687626) can0 174#F27F005C4B79047A
(1713559657.687854) can0 178#FE7F082D1C9304B6
(1713559657.688092) can0 17C#0A8001001E690444
(1713559657.688340) can0 400#288000000000002A
(1713559657.688584) can0 552#00FFFFFFFFFFFFA5
(1713559657.688829) can0 450#0055C0001B004A00
(1713559657.689075) can0 540#0000001040009F00
(1713559657.689315) can0 5B0#63420000000000C9
(1713559657.690285) can0 12F#F810032000000029
(1713559657.690530) can0 12D#0000000000000035
(1713559657.690778) can0 290#000000020000003D
(1713559657.693349) can0 120#000000080700008E
(1713559657.693592) can0 121#000000000000008B
(1713559657.693835) can0 129#000000010000008F
(1713559657.696370) can0 410#2880008B9F6E8B9F
(1713559657.697325) can0 551#000000000004C000
(1713559657.697561) can0 174#F27F005C4379056B
(1713559657.697796) can0 178#F87F0930119305FD
(1713559657.698035) can0 17C#08800100226905C1
(1713559657.698275) can0 5D1#9958000200000000
(1713559657.698524) can0 400#2880000000000040
(1713559657.700378) can0 12F#F810032000000043
(1713559657.700612) can0 128#1388030000EC7896
(1713559657.700861) can0 12D#000000000000005F
(1713559657.701107) can0 12E#000000000000C090
(1713559657.701353) can0 290#0000000200000057
(1713559657.701603) can0 140#0000030000000000
(1713559657.706388) can0 410#2880008B9F6E8BAA
(1713559657.707396) can0 541#0440E800007FFF86
(1713559657.707599) can0 174#F67F005C3779066B
(1713559657.707834) can0 178#F47F0A320693066A
(1713559657.708067) can0 17C#06800100246906E2
(1713559657.708364) can0 400#2880000000000075
(1713559657.709576) can0 550#48000C000100007C
(1713559657.710207) can0 12F#F810032000000076
(1713559657.710442) can0 12A#1428701C60580098
(1713559657.710688) can0 12D#000000000000006A
(1713559657.710935) can0 290#0000000200000062
(1713559657.713446) can0 120#00000008070000BB
(1713559657.713690) can0 121#00000000000000BE
(1713559657.713932) can0 129#00000001000000BA
(1713559657.714867) can0 5D0#9958010200000000
(1713559657.715103) can0 5B1#008A9A6800000077
(1713559657.715347) can0 5CF#7444540000000000
(1713559657.716315) can0 410#2880008B9F6E8BC0
(1713559657.717321) can0 551#000000000004C000
(1713559657.717565) can0 174#F87F005C307907FD
(1713559657.717800) can0 178#F07F0B36039307B3
(1713559657.718041) can0 17C#0680010027690773
(1713559657.718279) can0 5D1#9958000200000000
(1713559657.718526) can0 400#2880000000000094
(1713559657.720382) can0 12F#F810032000000097
(1713559657.720627) can0 128#1388030000EC78A3
(1713559657.720862) can0 12D#000000000000008B
(1713559657.721105) can0 12E#000000000000C0A5
(1713559657.721357) can0 290#0000000200000083
(1713559657.721606) can0 4EA#0000000000000000
(1713559657.721852) can0 5B2#0800000000000000
(1713559657.722102) can0 140#0000030000000000
(1713559657.722348) can0 310#FFFFFFFF7D7D0000
(1713559657.726335) can0 410#2880008B9F6E8B21
(1713559657.727406) can0 541#0440E800007FFFB3
(1713559657.727607) can0 174#F87F005C32790845
(1713559657.727840) can0 178#F07F0C30069308E3
(1713559657.728088) can0 17C#028001002D6908AE
(1713559657.728469) can0 400#28800000000000A1
(1713559657.730227) can0 12F#F8100320000000A2
(1713559657.730475) can0 12D#00000000000000BE
(1713559657.730721) can0 290#00000002000000B6
(1713559657.733541) can0 120#00000008070000D1
(1713559657.733784) can0 121#00000000000000D4
(1713559657.734027) can0 129#00000001000000D0
(1713559657.736260) can0 410#2880008B9F6E8B4B
(1713559657.737343) can0 551#000000000004C000
(1713559657.737573) can0 174#F67F005C3479095C
(1713559657.737809) can0 178#F27F0000049309EA
(1713559657.738046) can0 17C#FA7F0100376909D6
(1713559657.738292) can0 552#00FFFFFFFFFFFFCF
(1713559657.738538) can0 400#28800000000000CB
(1713559657.738778) can0 5D1#9958000200000000
(1713559657.739022) can0 5D2#7444540000000000
(1713559657.739283) can0 450#0055C0001B004A00
(1713559657.740425) can0 12F#F8100320000000C8
(1713559657.740655) can0 128#1388030000EC78C9
(1713559657.740904) can0 12D#00000000000000D4
(1713559657.741142) can0 12E#000000000000C0CF
(1713559657.741390) can0 290#00000002000000DC
(1713559657.742531) can0 140#0000030000000000
(1713559657.746285) can0 410#2880008B9F6E8B7E
(1713559657.747376) can0 541#0440E800007FFFD9
(1713559657.747597) can0 174#F07F005C37790A24
(1713559657.747832) can0 178#F87F013001930A29
(1713559657.748070) can0 17C#FA7F010038690A77
(1713559657.748597) can0 400#288000000000002A
(1713559657.750192) can0 12F#F810032000000029
(1713559657.750436) can0 12D#0000000000000035
(1713559657.750687) can0 290#000000020000003D
(1713559657.753642) can0 120#0000000807000030
(1713559657.753890) can0 121#0000000000000035
(1713559657.754134) can0 129#0000000100000031
(1713559657.755905) can0 410#2880008B9F6E8B9F
(1713559657.757328) can0 551#000000000004C000
(1713559657.757562) can0 174#EC7F005C3A790BBE
(1713559657.757794) can0 178#FC7F023201930BC4
(1713559657.758034) can0 17C#0080010031690B21
(1713559657.758275) can0 5D1#9958000200000000
(1713559657.758556) can0 400#2880000000000040
(1713559657.759539) can0 550#48000C000100009D
(1713559657.760390) can0 12F#F810032000000043
(1713559657.760629) can0 128#1388030000EC7828
(1713559657.760863) can0 12A#1428701C605800AD
(1713559657.761113) can0 12D#000000000000005F
(1713559657.761362) can0 12E#000000000000C02E
(1713559657.761604) can0 290#0000000200000057
(1713559657.761839) can0 5A0#0000006244928097
(1713559657.763059) can0 140#0000030000000000
(1713559657.765924) can0 410#2880008B9F6E8BAA
(1713559657.767384) can0 541#0440E800007FFF38
(1713559657.767594) can0 174#EC7F005C38790CEE
(1713559657.767828) can0 178#FE7F033604930C80
(1713559657.768066) can0 17C#068001002C690C3C
(1713559657.768672) can0 400#2880000000000075
(1713559657.770234) can0 12F#F810032000000076
(1713559657.770478) can0 12D#000000000000006A
(1713559657.770727) can0 290#0000000200000062
(1713559657.770975) can0 6B9#0020400000000000
(1713559657.771218) can0 5A2#1410140000000000
(1713559657.773739) can0 120#000000080700005A
(1713559657.773984) can0 121#000000000000005F
(1713559657.774227) can0 129#000000010000005B
(1713559657.775851) can0 410#2880008B9F6E8BC0
(1713559657.777320) can0 551#000000000004C000
(1713559657.777550) can0 174#EC7F005C34790DF9
(1713559657.777788) can0 178#FC7F043507930D1A
(1713559657.778025) can0 17C#0680010034690D35
(1713559657.778265) can0 5D1#9958000200000000
(1713559657.778651) can0 400#2880000000000094
(1713559657.780374) can0 12F#F810032000000097
(1713559657.780603) can0 128#1388030000EC7842
(1713559657.780849) can0 12D#000000000000008B
(1713559657.781094) can0 12E#000000000000C044
(1713559657.781346) can0 290#0000000200000083
(1713559657.783590) can0 140#0000030000000000
(1713559657.785866) can0 410#2880008B9F6E8B21
(1713559657.787516) can0 174#EA7F005C30790E0B
(1713559657.787744) can0 178#FA7F05300D930E58
(1713559657.787982) can0 17C#0680010037690E9E
(1713559657.788760) can0 400#28800000000000A1
(1713559657.789440) can0 540#0000001040009F00
(1713559657.789681) can0 5B0#6342000000000028
(1713559657.789923) can0 541#0440E800007FFF52
(1713559657.790179) can0 552#00FFFFFFFFFFFF2E
(1713559657.790426) can0 12D#00000000000000BE
(1713559657.790667) can0 12F#F8100320000000A2
(1713559657.790913) can0 290#00000002000000B6
(1713559657.791151) can0 450#0055C0001B004A00
(1713559657.793886) can0 120#000000080700006F
(1713559657.794136) can0 121#000000000000006A
(1713559657.794384) can0 129#000000010000006E
(1713559657.795794) can0 410#2880008B9F6E8B4B
(1713559657.797321) can0 551#000000000004C000
(1713559657.797552) can0 174#E67F005C2C790FBF
(1713559657.797784) can0 178#0280063114930F8F
(1713559657.798022) can0 17C#068001002C690F1B
(1713559657.798262) can0 5D1#9958000200000000
(1713559657.798747) can0 400#28800000000000CB
(1713559657.800453) can0 12F#F8100320000000C8
(1713559657.800684) can0 128#1388030000EC7877
(1713559657.800927) can0 12D#00000000000000D4
(1713559657.801175) can0 12E#000000000000C071
(1713559657.801423) can0 290#00000002000000DC
(1713559657.804111) can0 140#0000030000000000
(1713559657.805817) can0 410#2880008B9F6E8B7E
(1713559657.807395) can0 541#0440E800007FFF67
(1713559657.807601) can0 174#E67F005C27790084
(1713559657.807832) can0 178#0C800731119300D6
(1713559657.808073) can0 17C#068001001E69008B
(1713559657.808866) can0 400#288000000000002A
(1713559657.809582) can0 550#48000C00010000A8
(1713559657.810253) can0 12F#F810032000000029
(1713559657.810489) can0 12A#1428701C605800C7
(1713559657.810735) can0 12D#0000000000000035
(1713559657.810984) can0 290#000000020000003D
(1713559657.813932) can0 120#000000080700008E
(1713559657.814175) can0 121#000000000000008B
(1713559657.814417) can0 129#000000010000008F
(1713559657.814856) can0 5D0#9958010200000000
(1713559657.815092) can0 5B1#008A9A6800000096
(1713559657.815331) can0 5CF#7444540000000000
(1713559657.815768) can0 410#2880008B9F6E8B9F
(1713559657.817316) can0 551#000000000004C000
(1713559657.817548) can0 174#E27F005C34790164
(1713559657.817785) can0 178#0C800831039301AC
(1713559657.818023) can0 17C#0280010027690154
(1713559657.818263) can0 5D1#9958000200000000
(1713559657.818845) can0 400#2880000000000040
(1713559657.820388) can0 12F#F810032000000043
(1713559657.820618) can0 128#1388030000EC7896
(1713559657.820868) can0 12D#000000000000005F
(1713559657.821114) can0 12E#000000000000C090
(1713559657.821360) can0 290#0000000200000057
(1713559657.821609) can0 4EA#0000000000000000
(1713559657.821856) can0 5B2#0800000000000000
(1713559657.822100) can0 310#FFFFFFFF7D7D0000
(1713559657.824633) can0 140#0000030000000000
(1713559657.825769) can0 410#2880008B9F6E8BAA
(1713559657.827401) can0 541#0440E800007FFF86
(1713559657.827605) can0 174#E27F005C43790281
(1713559657.827840) can0 178#0A800930F89202EB
(1713559657.828081) can0 17C#008001003D6902DE
(1713559657.828965) can0 400#2880000000000075
(1713559657.830193) can0 12F#F810032000000076
(1713559657.830437) can0 12D#000000000000006A
(1713559657.830685) can0 290#0000000200000062
(1713559657.834027) can0 120#00000008070000BB
(1713559657.834271) can0 121#00000000000000BE
(1713559657.834514) can0 129#00000001000000BA
(1713559657.835690) can0 410#2880008B9F6E8BC0
(1713559657.837340) can0 551#000000000004C000
(1713559657.837572) can0 174#E27F005C4B790390
(1713559657.837808) can0 178#04800A38FC9203D3
(1713559657.838048) can0 17C#008001004A690301
(1713559657.838293) can0 552#00FFFFFFFFFFFF44
(1713559657.838538) can0 5D1#9958000200000000
(1713559657.838784) can0 5D2#7444540000000000
(1713559657.839029) can0 400#2880000000000094
(1713559657.839268) can0 450#0055C0001B004A00
(1713559657.840365) can0 12F#F810032000000097
(1713559657.840650) can0 128#1388030000EC78A3
(1713559657.840896) can0 12D#000000000000008B
(1713559657.841140) can0 12E#000000000000C0A5
(1713559657.841393) can0 290#0000000200000083
(1713559657.845159) can0 140#0000030000000000
(1713559657.845707) can0 410#2880008B9F6E8B21
(1713559657.847403) can0 541#0440E800007FFFB3
(1713559657.847599) can0 174#E47F005C4B790410
(1713559657.847835) can0 178#FC7F0000099304EF
(1713559657.848071) can0 17C#FE7F01004E6904F5
(1713559657.849051) can0 400#28800000000000A1
(1713559657.850193) can0 12F#F8100320000000A2
(1713559657.850442) can0 12D#00000000000000BE
(1713559657.850685) can0 290#00000002000000B6
(1713559657.854124) can0 120#00000008070000D1
(1713559657.854367) can0 121#00000000000000D4
(1713559657.854609) can0 129#00000001000000D0
(1713559657.855634) can0 410#2880008B9F6E8B4B
(1713559657.857320) can0 551#000000000004C000
(1713559657.857554) can0 174#E67F005C4A790538
(1713559657.857790) can0 178#F87F01301193058A
(1713559657.858028) can0 17C#FC7F01004A690554
(1713559657.858268) can0 5D1#9958000200000000
(1713559657.859037) can0 400#28800000000000CB
(1713559657.859538) can0 550#48000C00010000C2
(1713559657.860339) can0 12F#F8100320000000C8
(1713559657.860575) can0 128#1388030000EC78C9
(1713559657.860809) can0 12A#1428701C60580026
(1713559657.861104) can0 12D#00000000000000D4
(1713559657.861346) can0 12E#000000000000C0CF
(1713559657.861594) can0 290#00000002000000DC
(1713559657.861832) can0 5A0#00000062449280A2
(1713559657.865680) can0 140#0000030000000000
(1713559657.865917) can0 410#2880008B9F6E8B7E
(1713559657.867384) can0 541#0440E800007FFFD9
(1713559657.867594) can0 174#EA7F005C507906B3
(1713559657.867831) can0 178#F87F000014930621
(1713559657.868069) can0 17C#FC7F01003A69063B
(1713559657.869156) can0 400#288000000000002A
(1713559657.870213) can0 12F#F810032000000029
(1713559657.870454) can0 12D#0000000000000035
(1713559657.870700) can0 290#000000020000003D
(1713559657.871083) can0 6B9#0020400000000000
(1713559657.871345) can0 5A2#1410140000000000
(1713559657.874224) can0 120#0000000807000030
(1713559657.874470) can0 121#0000000000000035
(1713559657.874714) can0 129#0000000100000031
(1713559657.875609) can0 410#2880008B9F6E8B9F
(1713559657.877318) can0 551#000000000004C000
(1713559657.877550) can0 174#EE7F005C63790763
(1713559657.877782) can0 178#FA7F015315930768
(1713559657.878023) can0 17C#028001002769071A
(1713559657.878263) can0 5D1#9958000200000000
(1713559657.879141) can0 400#2880000000000040
(1713559657.880322) can0 12F#F810032000000043
(1713559657.880560) can0 128#1388030000EC7828
(1713559657.880810) can0 12D#000000000000005F
(1713559657.881054) can0 12E#000000000000C02E
(1713559657.881300) can0 290#0000000200000057
(1713559657.885630) can0 410#2880008B9F6E8BAA
(1713559657.886201) can0 140#0000030000000000
(1713559657.887393) can0 541#0440E800007FFF38
(1713559657.887620) can0 174#F07F005C6979086F
(1713559657.887853) can0 178#FA7F02431A9308CE
(1713559657.888093) can0 17C#0C80010019690881
(1713559657.888337) can0 552#00FFFFFFFFFFFF71
(1713559657.888583) can0 450#0055C0001B004A00
(1713559657.889245) can0 400#2880000000000075
(1713559657.889890) can0 540#0000001040009F00
(1713559657.890132) can0 5B0#6342000000000042
(1713559657.890378) can0 12D#000000000000006A
(1713559657.890629) can0 12F#F810032000000076
(1713559657.890872) can0 290#0000000200000062
(1713559657.894369) can0 120#000000080700005A
(1713559657.894566) can0 121#000000000000005F
(1713559657.894811) can0 129#000000010000005B
(1713559657.895556) can0 410#2880008B9F6E8BC0
(1713559657.897317) can0 551#000000000004C000
(1713559657.897548) can0 174#F07F005C587909D5
(1713559657.897781) can0 178#FA7F033227930972
(1713559657.898019) can0 17C#168001001969094D
(1713559657.898259) can0 5D1#9958000200000000
(1713559657.899231) can0 400#2880000000000094
(1713559657.900362) can0 12F#F810032000000097
(1713559657.900596) can0 128#1388030000EC7842
(1713559657.900842) can0 12D#000000000000008B
(1713559657.901085) can0 12E#000000000000C044
(1713559657.901337) can0 290#0000000200000083
(1713559657.905573) can0 410#2880008B9F6E8B21
(1713559657.906722) can0 140#0000030000000000
(1713559657.907387) can0 541#0440E800007FFF52
(1713559657.907591) can0 174#F27F005C45790AD5
(1713559657.907827) can0 178#FC7F043030930A38
(1713559657.908064) can0 17C#1880010021690A4F
(1713559657.909342) can0 400#28800000000000A1
(1713559657.909585) can0 550#48000C0001000023
(1713559657.910204) can0 12F#F8100320000000A2
(1713559657.910437) can0 12A#1428701C6058004C
(1713559657.910686) can0 12D#00000000000000BE
(1713559657.910938) can0 290#00000002000000B6
(1713559657.914477) can0 120#000000080700006F
(1713559657.914724) can0 121#000000000000006A
(1713559657.914925) can0 129#000000010000006E
(1713559657.915161) can0 5B1#008A9A68000000A3
(1713559657.915403) can0 5D0#9958010200000000
(1713559657.915640) can0 410#2880008B9F6E8B4B
(1713559657.915880) can0 5CF#7444540000000000
(1713559657.917311) can0 551#000000000004C000
(1713559657.917542) can0 174#F27F005C45790BC8
(1713559657.917775) can0 178#F87F05302D930BBB
(1713559657.918013) can0 17C#0E80010021690B38
(1713559657.918253) can0 5D1#9958000200000000
(1713559657.919330) can0 400#28800000000000CB
(1713559657.920326) can0 12F#F8100320000000C8
(1713559657.920559) can0 128#1388030000EC7877
(1713559657.920803) can0 12D#00000000000000D4
(1713559657.921052) can0 12E#000000000000C071
(1713559657.921300) can0 290#00000002000000DC
(1713559657.921549) can0 4EA#0000000000000000
(1713559657.921795) can0 5B2#0800000000000000
(1713559657.922040) can0 310#FFFFFFFF7D7D0000
(1713559657.925527) can0 410#2880008B9F6E8B7E
(1713559657.927249) can0 140#0000030000000000
(1713559657.927494) can0 541#0440E800007FFF67
(1713559657.927724) can0 174#F47F005C51790C56
(1713559657.927955) can0 178#F07F06321C930C04
(1713559657.928191) can0 17C#048001001B690C24
(1713559657.929442) can0 400#288000000000002A
(1713559657.930191) can0 12F#F810032000000029
(1713559657.930438) can0 12D#0000000000000035
(1713559657.930686) can0 290#000000020000003D
(1713559657.934577) can0 120#000000080700008E
(1713559657.934812) can0 121#000000000000008B
(1713559657.935053) can0 129#000000010000008F
(1713559657.935545) can0 410#2880008B9F6E8B9F
(1713559657.937385) can0 551#000000000004C000
(1713559657.937617) can0 174#FA7F005C58790DC9
(1713559657.937845) can0 178#E87F073709930D5A
(1713559657.938083) can0 17C#FE7F010019690DF2
(1713559657.938329) can0 552#00FFFFFFFFFFFF90
(1713559657.938528) can0 5D1#9958000200000000
(1713559657.938772) can0 5D2#7444540000000000
(1713559657.939015) can0 450#0055C0001B004A00
(1713559657.939428) can0 400#2880000000000040
(1713559657.940368) can0 12F#F810032000000043
(1713559657.940602) can0 128#1388030000EC7896
(1713559657.940852) can0 12D#000000000000005F
(1713559657.941098) can0 12E#000000000000C090
(1713559657.941343) can0 290#0000000200000057
(1713559657.945411) can0 410#2880008B9F6E8BAA
(1713559657.947383) can0 541#0440E800007FFF86
(1713559657.947595) can0 174#0080005C50790E2A
(1713559657.947844) can0 140#0000030000000000
(1713559657.948074) can0 178#E27F085F01930E27
(1713559657.948316) can0 17C#FE7F010014690E50
(1713559657.949528) can0 400#2880000000000075
(1713559657.950193) can0 12F#F810032000000076
(1713559657.950437) can0 12D#000000000000006A
(1713559657.950684) can0 290#0000000200000062
(1713559657.954663) can0 120#00000008070000BB
(1713559657.954908) can0 121#00000000000000BE
(1713559657.955149) can0 129#00000001000000BA
(1713559657.955586) can0 410#2880008B9F6E8BC0
(1713559657.957367) can0 551#000000000004C000
(1713559657.957602) can0 174#0280005C40790F95
(1713559657.957832) can0 178#E47F093001930F35
(1713559657.958068) can0 17C#048001000B690F1B
(1713559657.958308) can0 5D1#9958000200000000
(1713559657.959523) can0 400#2880000000000094
(1713559657.959767) can0 550#48000C0001000049
(1713559657.960322) can0 12F#F810032000000097
(1713559657.960559) can0 128#1388030000EC78A3
(1713559657.960792) can0 12A#1428701C60580079
(1713559657.961037) can0 12D#000000000000008B
(1713559657.961281) can0 12E#000000000000C0A5
(1713559657.961533) can0 290#0000000200000083
(1713559657.961769) can0 5A0#00000062449280C8
(1713559657.965411) can0 410#2880008B9F6E8B21
(1713559657.967308) can0 541#0440E800007FFFB3
(1713559657.967547) can0 174#0080005C327900DF
(1713559657.967778) can0 178#E67F0A370793007B
(1713559657.968018) can0 17C#0A800100096900A2
(1713559657.968268) can0 140#0000030000000000
(1713559657.969627) can0 400#28800000000000A1
(1713559657.970227) can0 12F#F8100320000000A2
(1713559657.970474) can0 12D#00000000000000BE
(1713559657.970720) can0 290#00000002000000B6
(1713559657.971256) can0 6B9#0020400000000000
(1713559657.971505) can0 5A2#1410140000000000
(1713559657.974759) can0 120#00000008070000D1
(1713559657.975003) can0 121#00000000000000D4
(1713559657.975245) can0 129#00000001000000D0
(1713559657.975641) can0 410#2880008B9F6E8B4B
(1713559657.977359) can0 551#000000000004C000
(1713559657.977593) can0 174#FA7F005C2779019B
(1713559657.977822) can0 178#EE7F0B310C930137
(1713559657.978061) can0 17C#04800100136901A9
(1713559657.978302) can0 5D1#9958000200000000
(1713559657.979671) can0 400#28800000000000CB
(1713559657.980366) can0 12F#F8100320000000C8
(1713559657.980602) can0 128#1388030000EC78C9
(1713559657.980847) can0 12D#00000000000000D4
(1713559657.981091) can0 12E#000000000000C0CF
(1713559657.981305) can0 290#00000002000000DC
(1713559657.985415) can0 410#2880008B9F6E8B7E
(1713559657.987343) can0 541#0440E800007FFFD9
(1713559657.987572) can0 174#F67F005C1F790223
(1713559657.987816) can0 178#F87F00000A930244
(1713559657.988055) can0 17C#FA7F01001B690223
(1713559657.988299) can0 552#00FFFFFFFFFFFFA5
(1713559657.988545) can0 450#0055C0001B004A00
(1713559657.988796) can0 140#0000030000000000
(1713559657.989726) can0 400#288000000000002A
(1713559657.990234) can0 12F#F810032000000029
(1713559657.990482) can0 12D#0000000000000035
(1713559657.990728) can0 290#000000020000003D
(1713559657.990974) can0 540#0000001040009F00
(1713559657.991214) can0 5B0#6342000000000077
(1713559657.994857) can0 120#0000000807000030
(1713559657.995105) can0 121#0000000000000035
(1713559657.995374) can0 129#0000000100000031
(1713559657.995644) can0 410#2880008B9F6E8B9F
(1713559657.997359) can0 551#000000000004C000
(1713559657.997599) can0 174#F47F005C1F790384
(1713559657.997841) can0 178#FE7F013706930371
(1713559657.998075) can0 17C#FA7F01001E6903B7
(1713559657.998314) can0 5D1#9958000200000000
(1713559657.999769) can0 400#2880000000000040
(1713559658.000418) can0 12F#F810032000000043
(1713559658.000656) can0 128#1388030000EC7828
(1713559658.000906) can0 12D#000000000000005F
(1713559658.001150) can0 12E#000000000000C02E
(1713559658.001396) can0 290#0000000200000057
(1713559658.005410) can0 410#2880008B9F6E8BAA
(1713559658.007312) can0 541#0440E800007FFF38
(1713559658.007549) can0 174#F47F005C257904F0
(1713559658.007786) can0 178#0080022EFF92045E
(1713559658.008025) can0 17C#04800100276904EE
(1713559658.009353) can0 140#0000030000000000
(1713559658.009594) can0 550#48000C000100007C
(1713559658.009855) can0 400#2880000000000075
(1713559658.010216) can0 12F#F810032000000076
(1713559658.010446) can0 12A#1428701C60580098
(1713559658.010692) can0 12D#000000000000006A
(1713559658.010937) can0 290#0000000200000062
(1713559658.014910) can0 5D0#9958010200000000
(1713559658.015151) can0 120#000000080700005A
(1713559658.015400) can0 121#000000000000005F
(1713559658.015643) can0 129#000000010000005B
(1713559658.015883) can0 410#2880008B9F6E8BC0
(1713559658.016119) can0 5B1#008A9A68000000C9
(1713559658.016357) can0 5CF#7444540000000000
(1713559658.017361) can0 551#000000000004C000
(1713559658.017596) can0 174#F07F005C2C790507
(1713559658.017832) can0 178#FE7F0331F99205C0
(1713559658.018074) can0 17C#08800100386905D6
(1713559658.018312) can0 5D1#9958000200000000
(1713559658.019862) can0 400#2880000000000094
(1713559658.020381) can0 12F#F810032000000097
(1713559658.020613) can0 128#1388030000EC7842
(1713559658.020858) can0 12D#000000000000008B
(1713559658.021103) can0 12E#000000000000C044
(1713559658.021354) can0 290#0000000200000083
(1713559658.021604) can0 4EA#0000000000000000
(1713559658.021802) can0 5B2#0800000000000000
(1713559658.022048) can0 310#FFFFFFFF7D7D0000
(1713559658.025411) can0 410#2880008B9F6E8B21
(1713559658.027312) can0 541#0440E800007FFF52
(1713559658.027548) can0 174#EC7F005C34790636
(1713559658.027776) can0 178#F67F0430F4920626
(1713559658.028013) can0 17C#028001004A6906D2
(1713559658.029876) can0 140#0000030000000000
(1713559658.030121) can0 400#28800000000000A1
(1713559658.030369) can0 12D#00000000000000BE
(1713559658.030609) can0 12F#F8100320000000A2
(1713559658.030855) can0 290#00000002000000B6
(1713559658.035059) can0 120#000000080700006F
(1713559658.035308) can0 121#000000000000006A
(1713559658.035558) can0 129#000000010000006E
(1713559658.035794) can0 410#2880008B9F6E8B4B
(1713559658.037378) can0 551#000000000004C000
(1713559658.037616) can0 174#E87F005C3D7907C1
(1713559658.037852) can0 178#F27F0000F3920702
(1713559658.038090) can0 17C#FC7F0100516907F6
(1713559658.038345) can0 552#00FFFFFFFFFFFFCF
(1713559658.038584) can0 5D1#9958000200000000
(1713559658.038826) can0 5D2#7444540000000000
(1713559658.039070) can0 450#0055C0001B004A00
(1713559658.039961) can0 400#28800000000000CB
(1713559658.040413) can0 12F#F8100320000000C8
(1713559658.040646) can0 128#1388030000EC7877
(1713559658.040890) can0 12D#00000000000000D4
(1713559658.041139) can0 12E#000000000000C071
(1713559658.041386) can0 290#00000002000000DC
(1713559658.045414) can0 410#2880008B9F6E8B7E
(1713559658.047307) can0 541#0440E800007FFF67
(1713559658.047545) can0 174#E47F005C3F7908C2
(1713559658.047777) can0 178#F67F0138FB920845
(1713559658.048013) can0 17C#FC7F0100506908C2
(1713559658.049962) can0 400#288000000000002A
(1713559658.050209) can0 12D#0000000000000035
(1713559658.050449) can0 12F#F810032000000029
(1713559658.050699) can0 140#0000030000000000
(1713559658.050947) can0 290#000000020000003D
(1713559658.055156) can0 120#000000080700008E
(1713559658.055400) can0 121#000000000000008B
(1713559658.055641) can0 129#000000010000008F
(1713559658.055880) can0 410#2880008B9F6E8B9F
(1713559658.056126) can0 6E2#0544000000000000
(1713559658.057362) can0 551#000000000004C000
(1713559658.057599) can0 174#DE7F005C407909AF
(1713559658.057832) can0 178#FA7F023209930921
(1713559658.058069) can0 17C#FC7F0100486909CB
(1713559658.058309) can0 5D1#9958000200000000
(1713559658.059587) can0 550#48000C000100009D
(1713559658.060067) can0 400#2880000000000040
(1713559658.060430) can0 12F#F810032000000043
(1713559658.060660) can0 128#1388030000EC7896
(1713559658.060894) can0 12A#1428701C605800AD
(1713559658.061144) can0 12D#000000000000005F
(1713559658.061390) can0 12E#000000000000C090
(1713559658.061637) can0 290#0000000200000057
(1713559658.061874) can0 5A0#0000006244928029
(1713559658.065393) can0 410#2880008B9F6E8BAA
(1713559658.067303) can0 541#0440E800007FFF86
(1713559658.067557) can0 174#DA7F005C46790AE4
(1713559658.067787) can0 178#FE7F033217930A14
(1713559658.068023) can0 17C#FC7F01003B690A28
(1713559658.070056) can0 400#2880000000000075
(1713559658.070302) can0 12D#000000000000006A
(1713559658.070545) can0 12F#F810032000000076
(1713559658.070793) can0 290#0000000200000062
(1713559658.071044) can0 140#0000030000000000
(1713559658.071384) can0 6B9#0020400000000000
(1713559658.071675) can0 5A2#1410140000000000
(1713559658.075250) can0 120#00000008070000BB
(1713559658.075496) can0 121#00000000000000BE
(1713559658.075737) can0 129#00000001000000BA
(1713559658.075976) can0 410#2880008B9F6E8BC0
(1713559658.077609) can0 174#DC7F005C48790B23
(1713559658.077840) can0 178#0080043517930B57
(1713559658.078081) can0 17C#FC7F010035690B3C
(1713559658.078326) can0 551#000000000004C000
(1713559658.078579) can0 5D1#9958000200000000
(1713559658.080170) can0 400#2880000000000094
(1713559658.080403) can0 12F#F810032000000097
(1713559658.080637) can0 128#1388030000EC78A3
(1713559658.080883) can0 12D#000000000000008B
(1713559658.081130) can0 12E#000000000000C0A5
(1713559658.081380) can0 290#0000000200000083
(1713559658.085338) can0 410#2880008B9F6E8B21
(1713559658.087328) can0 541#0440E800007FFFB3
(1713559658.087558) can0 174#E27F005C4A790CA4
(1713559658.087800) can0 178#008000000F930C19
(1713559658.088038) can0 17C#FA7F010032690C36
(1713559658.088284) can0 552#00FFFFFFFFFFFF2E
(1713559658.088528) can0 450#0055C0001B004A00
(1713559658.090153) can0 400#28800000000000A1
(1713559658.090401) can0 12D#00000000000000BE
(1713559658.090640) can0 12F#F8100320000000A2
(1713559658.090886) can0 290#00000002000000B6
(1713559658.091133) can0 540#0000001040009F00
(1713559658.091376) can0 5B0#6342000000000096
(1713559658.091673) can0 140#0000030000000000
(1713559658.095348) can0 120#00000008070000D1
(1713559658.095587) can0 121#00000000000000D4
(1713559658.095828) can0 129#00000001000000D0
(1713559658.096066) can0 410#2880008B9F6E8B4B
(1713559658.097354) can0 551#000000000004C000
(1713559658.097604) can0 5D1#9958000200000000
(1713559658.097832) can0 174#E27F005C4D790D33
(1713559658.098062) can0 178#0480013211930D5E
(1713559658.098301) can0 17C#FA7F01002A690D3F
(1713559658.100264) can0 400#28800000000000CB
(1713559658.100500) can0 12D#00000000000000D4
(1713559658.100735) can0 128#1388030000EC78C9
(1713559658.100979) can0 12E#000000000000C0CF
(1713559658.101220) can0 12F#F8100320000000C8
(1713559658.101468) can0 290#00000002000000DC
(1713559658.105338) can0 410#2880008B9F6E8B7E
(1713559658.107307) can0 541#0440E800007FFFD9
(1713559658.107570) can0 174#E47F005C53790ED6
(1713559658.107803) can0 178#0A8002301C930E64
(1713559658.108044) can0 17C#FE7F01001E690E5F
(1713559658.109532) can0 550#48000C00010000A8
(1713559658.110158) can0 12F#F810032000000029
(1713559658.110395) can0 12A#1428701C605800C7
(1713559658.110641) can0 12D#0000000000000035
(1713559658.110888) can0 290#000000020000003D
(1713559658.111136) can0 400#288000000000002A
(1713559658.111976) can0 140#0000030000000000
(1713559658.114915) can0 5D0#9958010200000000
(1713559658.115151) can0 5B1#008A9A6800000028
(1713559658.115395) can0 410#2880008B9F6E8B9F
(1713559658.115638) can0 120#0000000807000030
(1713559658.115888) can0 121#0000000000000035
(1713559658.116133) can0 129#0000000100000031
(1713559658.116368) can0 5CF#7444540000000000
(1713559658.117355) can0 551#000000000004C000
(1713559658.117602) can0 5D1#9958000200000000
(1713559658.117830) can0 174#EA7F005C56790F43
(1713559658.118063) can0 178#0680033228930FA1
(1713559658.118300) can0 17C#0080010021690F4D
(1713559658.120358) can0 400#2880000000000040
(1713559658.120600) can0 128#1388030000EC7828
(1713559658.120845) can0 12D#000000000000005F
(1713559658.121087) can0 12E#000000000000C02E
(1713559658.121331) can0 12F#F810032000000043
(1713559658.121577) can0 290#001000020000005C
(1713559658.121826) can0 4EA#0000000000000000
(1713559658.122072) can0 5B2#0800000000000000
(1713559658.122317) can0 310#FFFFFFFF7D7D0000
(1713559658.124909) can0 410#2880008B9F6E8BAA
(1713559658.127311) can0 541#0440E800007FFF38
(1713559658.127591) can0 174#F07F005C5079002C
(1713559658.127824) can0 178#FE7F04332A9300FD
(1713559658.128064) can0 17C#FE7F010035690049
(1713559658.130140) can0 12F#F810032000000076
(1713559658.130386) can0 12D#000000000000006A
(1713559658.130631) can0 290#0010000200000069
(1713559658.130877) can0 400#2880000000000075
(1713559658.132500) can0 140#0000030000000000
(1713559658.134934) can0 410#2880008B9F6E8BC0
(1713559658.135538) can0 120#000000080700005A
(1713559658.135783) can0 121#000000000000005F
(1713559658.136027) can0 129#000000010000005B
(1713559658.137374) can0 551#000000000004C000
(1713559658.137629) can0 552#00FFFFFFFFFFFF44
(1713559658.137872) can0 174#F47F005C50790158
(1713559658.138101) can0 178#F87F05311D9301DC
(1713559658.138335) can0 17C#FC7F0100436901A3
(1713559658.138574) can0 5D1#9958000200000000
(1713559658.138818) can0 5D2#7444540000000000
(1713559658.139062) can0 450#0055C0001B004A00
(1713559658.140413) can0 12F#F810032000000097
(1713559658.140644) can0 128#1388030000EC7842
(1713559658.140899) can0 12D#000000000000008B
(1713559658.141136) can0 12E#000000000000C044
(1713559658.141385) can0 290#0010000200000088
(1713559658.141631) can0 400#2880000000000094
(1713559658.144855) can0 410#2880008B9F6E8B21
(1713559658.147301) can0 541#0440E800007FFF52
(1713559658.147577) can0 174#F67F005C587902C9
(1713559658.147811) can0 178#F47F06300C9302F4
(1713559658.148050) can0 17C#0080010046690216
(1713559658.150141) can0 12F#F8100320000000A2
(1713559658.150389) can0 12D#00000000000000BE
(1713559658.150635) can0 290#00100002000000BD
(1713559658.150882) can0 400#28800000000000A1
(1713559658.153025) can0 140#0000030000000000
(1713559658.154880) can0 410#2880008B9F6E8B4B
(1713559658.155638) can0 120#000000080700006F
(1713559658.155888) can0 121#000000000000006A
(1713559658.156136) can0 129#000000010000006E
(1713559658.157356) can0 551#000000000004C000
(1713559658.157606) can0 5D1#9958000200000000
(1713559658.157840) can0 174#FA7F005C5B7903E3
(1713559658.158075) can0 178#F07F0731099303FE
(1713559658.158311) can0 17C#0680010045690354
(1713559658.159587) can0 550#48000C00010000C2
(1713559658.160388) can0 12F#F8100320000000C8
(1713559658.160619) can0 128#1388030000EC7877
(1713559658.160853) can0 12A#1428701C60580026
(1713559658.161104) can0 12D#00000000000000D4
(1713559658.161347) can0 12E#000000000000C071
(1713559658.161594) can0 290#00000002000000DC
(1713559658.161840) can0 400#28800000000000CB
(1713559658.162078) can0 5A0#0000006244928043
(1713559658.164855) can0 410#2880008B9F6E8B7E
(1713559658.167301) can0 541#0440E800007FFF67
(1713559658.167589) can0 174#FA7F005C5879043C
(1713559658.167823) can0 178#E87F0838119304AF
(1713559658.168064) can0 17C#0A8001003F6904FB
(1713559658.170159) can0 12F#F810032000000029
(1713559658.170405) can0 12D#0000000000000035
(1713559658.170653) can0 290#000000020000003D
(1713559658.170902) can0 400#288000000000002A
(1713559658.171555) can0 6B9#0020400000000000
(1713559658.171798) can0 5A2#1410140000000000
(1713559658.173544) can0 140#0000030000000000
(1713559658.174829) can0 410#2880008B9F6E8B9F
(1713559658.175732) can0 120#000000080700008E
(1713559658.175974) can0 121#000000000000008B
(1713559658.176216) can0 129#000000010000008F
(1713559658.177354) can0 551#000000000004C000
(1713559658.177604) can0 5D1#9958000200000000
(1713559658.177838) can0 174#F87F005C51790518
(1713559658.178073) can0 178#E87F00001A9305B6
(1713559658.178312) can0 17C#0E8001003B690589
(1713559658.180371) can0 12F#F810032000000043
(1713559658.180603) can0 128#1388030000EC7896
(1713559658.180853) can0 12D#000000000000005F
(1713559658.181102) can0 12E#000000000000C090
(1713559658.181345) can0 290#0000000200000057
(1713559658.181593) can0 400#2880000000000040
(1713559658.184805) can0 410#2880008B9F6E8BAA
(1713559658.187405) can0 541#0440E800007FFF86
(1713559658.187622) can0 552#00FFFFFFFFFFFF71
(1713559658.187852) can0 174#F67F005C4D79062C
(1713559658.188086) can0 178#EE7F00001C930647
(1713559658.188324) can0 17C#128001003B6906AC
(1713559658.188563) can0 450#0055C0001B004A00
(1713559658.190193) can0 12F#F810032000000076
(1713559658.190438) can0 12D#000000000000006A
(1713559658.190686) can0 290#0000000200000062
(1713559658.190932) can0 400#2880000000000075
(1713559658.191357) can0 540#0000001040009F00
(1713559658.191598) can0 5B0#63420000000000A3
(1713559658.194024) can0 140#0000030000000000
(1713559658.194725) can0 410#2880008B9F6E8BC0
(1713559658.195781) can0 120#00000008070000BB
(1713559658.196025) can0 121#00000000000000BE
(1713559658.196316) can0 129#00000001000000BA
(1713559658.197350) can0 551#000000000004C000
(1713559658.197599) can0 5D1#9958000200000000
(1713559658.197834) can0 174#F87F005C3F79077B
(1713559658.198064) can0 178#F27F015215930727
(1713559658.198303) can0 17C#128001004669077C
(1713559658.200413) can0 12F#F810032000000097
(1713559658.200646) can0 128#1388030000EC78A3
(1713559658.200892) can0 12D#000000000000008B
(1713559658.201137) can0 12E#000000000000C0A5
(1713559658.201389) can0 290#0000000200000083
(1713559658.201635) can0 400#2880000000000094
(1713559658.204748) can0 410#2880008B9F6E8B21
(1713559658.207350) can0 541#0440E800007FFFB3
(1713559658.207647) can0 174#FA7F005C2F790862
(1713559658.207879) can0 178#F07F026F119308BE
(1713559658.208116) can0 17C#0E8001004E6908C9
(1713559658.209532) can0 550#48000C0001000023
(1713559658.210160) can0 12F#F8100320000000A2
(1713559658.210392) can0 12A#1428701C6058004C
(1713559658.210640) can0 12D#00000000000000BE
(1713559658.210886) can0 290#00000002000000B6
(1713559658.211132) can0 400#28800000000000A1
(1713559658.214548) can0 140#0000030000000000
(1713559658.214785) can0 410#2880008B9F6E8B4B
(1713559658.215022) can0 5B1#008A9A6800000042
(1713559658.215263) can0 5D0#9958010200000000
(1713559658.215502) can0 5CF#7444540000000000
(1713559658.215877) can0 120#00000008070000D1
(1713559658.216120) can0 121#00000000000000D4
(1713559658.216410) can0 129#00000001000000D0
(1713559658.217348) can0 551#000000000004C000
(1713559658.217611) can0 5D1#9958000200000000
(1713559658.217831) can0 174#FA7F005C247909FF
(1713559658.218064) can0 178#EC7F03620D930996
(1713559658.218298) can0 17C#0680010045690986
(1713559658.220335) can0 4EA#0000000000000000
(1713559658.220569) can0 128#1388030000EC78C9
(1713559658.220812) can0 12D#00000000000000D4
(1713559658.221057) can0 12E#000000000000C0CF
(1713559658.221296) can0 12F#F8100320000000C8
(1713559658.221544) can0 290#00000002000000DC
(1713559658.221790) can0 400#28800000000000CB
(1713559658.222036) can0 5B2#0800000000000000
(1713559658.222284) can0 310#FFFFFFFF7D7D0000
(1713559658.224694) can0 410#2880008B9F6E8B7E
(1713559658.227381) can0 541#0440E800007FFFD9
(1713559658.227657) can0 174#FA7F005C22790ADD
(1713559658.227884) can0 178#EC7F046509930A48
(1713559658.228123) can0 17C#0080010032690AB0
(1713559658.230190) can0 12F#F810032000000029
(1713559658.230436) can0 12D#0000000000000035
(1713559658.230685) can0 290#000000020000003D
(1713559658.230938) can0 400#288000000000002A
(1713559658.234619) can0 410#2880008B9F6E8B9F
(1713559658.235069) can0 140#0000030000000000
(1713559658.235982) can0 120#0000000807000030
(1713559658.236229) can0 121#0000000000000035
(1713559658.236473) can0 129#0000000100000031
(1713559658.237324) can0 551#000000000004C000
(1713559658.237581) can0 552#00FFFFFFFFFFFF90
(1713559658.237808) can0 174#F47F005C2C790BC8
(1713559658.238044) can0 178#F07F057203930BE3
(1713559658.238282) can0 17C#028001002A690B03
(1713559658.238522) can0 5D1#9958000200000000
(1713559658.238787) can0 5D2#7444540000000000
(1713559658.239058) can0 450#0055C0001B004A00
(1713559658.240450) can0 12F#F810032000000043
(1713559658.240686) can0 128#1388030000EC7828
(1713559658.240937) can0 12D#000000000000005F
(1713559658.241181) can0 12E#000000000000C02E
(1713559658.241427) can0 290#0000000200000057
(1713559658.241675) can0 400#2880000000000040
(1713559658.244662) can0 410#2880008B9F6E8BAA
(1713559658.247349) can0 541#0440E800007FFF38
(1713559658.247660) can0 174#EC7F005C37790C68
(1713559658.247894) can0 178#F67F0674FC920CF6
(1713559658.248128) can0 17C#088001002F690CB1
(1713559658.250199) can0 12F#F810032000000076
(1713559658.250446) can0 12D#000000000000006A
(1713559658.250694) can0 290#0000000200000062
(1713559658.250976) can0 400#2880000000000075
(1713559658.254591) can0 410#2880008B9F6E8BC0
(1713559658.255595) can0 140#0000030000000000
(1713559658.256079) can0 120#000000080700005A
(1713559658.256325) can0 121#000000000000005F
(1713559658.256569) can0 129#000000010000005B
(1713559658.257303) can0 551#000000000004C000
(1713559658.257552) can0 5D1#9958000200000000
(1713559658.257782) can0 174#E87F005C3B790D16
(1713559658.258021) can0 178#F87F0720F6920D70
(1713559658.258257) can0 17C#0C8001003A690D54
(1713559658.259593) can0 550#48000C0001000049
(1713559658.260385) can0 12F#F810032000000097
(1713559658.260619) can0 128#1388030000EC7842
(1713559658.260850) can0 12A#1428701C60580079
(1713559658.261096) can0 12D#000000000000008B
(1713559658.261340) can0 12E#000000000000C044
