(1713559027.917027) can0 4EA#0000000000000000
(1713559027.917225) can0 5B2#0800000000000000
(1713559027.917444) can0 310#FFFFFFFF7D7D0000
(1713559028.016771) can0 4EA#0000000000000000
(1713559028.016997) can0 5B2#0800000000000000
(1713559028.017240) can0 310#FFFFFFFF7D7D0000
(1713559028.116558) can0 4EA#0000000000000000
(1713559028.116791) can0 5B2#0800000000000000
(1713559028.117034) can0 310#FFFFFFFF7D7D0000
(1713559028.135403) can0 550#48000C0001000049
(1713559028.185464) can0 550#48000C000100007C
(1713559028.216287) can0 4EA#0000000000000000
(1713559028.216531) can0 5B2#0800000000000000
(1713559028.216776) can0 310#FFFFFFFF7D7D0000
(1713559028.235461) can0 550#48000C000100009D
(1713559028.282197) can0 12F#0000000000000000
(1713559028.282421) can0 128#1388030000EC781D
(1713559028.282668) can0 12D#0000000000000000
(1713559028.282920) can0 12E#0000000000000000
(1713559028.283169) can0 290#0000000000000000
(1713559028.285458) can0 550#48000C00010000A8
(1713559028.292188) can0 12F#0000000000000035
(1713559028.292426) can0 12A#1028103C0058000D
(1713559028.292672) can0 12D#0000000000000035
(1713559028.292920) can0 290#0000000000000035
(1713559028.302256) can0 12F#000000000000005F
(1713559028.302493) can0 128#1388030000EC7828
(1713559028.302740) can0 12D#000000000000005F
(1713559028.302988) can0 12E#0000000000000035
(1713559028.303238) can0 290#000000000000005F
(1713559028.312252) can0 12F#000000000000006A
(1713559028.312497) can0 12D#000000000000006A
(1713559028.312746) can0 290#000000000000006A
(1713559028.316284) can0 4EA#0000000000000000
(1713559028.316525) can0 5B2#0800000000000000
(1713559028.316771) can0 310#FFFFFFFF7D7D0000
(1713559028.322239) can0 12F#000000000000008B
(1713559028.322481) can0 128#1388030000EC7842
(1713559028.322721) can0 12D#000000000000008B
(1713559028.322969) can0 12E#000000000000005F
(1713559028.323217) can0 290#000000000000008B
(1713559028.332235) can0 12F#00000000000000BE
(1713559028.332482) can0 12D#00000000000000BE
(1713559028.332729) can0 290#00000000000000BE
(1713559028.335452) can0 550#48000C00010000C2
(1713559028.342260) can0 12F#00000000000000D4
(1713559028.342492) can0 128#1388030000EC7877
(1713559028.342732) can0 12A#1028103C00580038
(1713559028.342974) can0 12D#00000000000000D4
(1713559028.343220) can0 12E#000000000000006A
(1713559028.343467) can0 290#00000000000000D4
(1713559028.352268) can0 12F#0000000000000035
(1713559028.352512) can0 12D#0000000000000035
(1713559028.352761) can0 290#0000000000000035
(1713559028.357622) can0 174#0C804044117941F0
(1713559028.357852) can0 178#E07F4000BB94411A
(1713559028.358090) can0 17C#0C8041002C6741B6
(1713559028.362434) can0 12F#000000000000005F
(1713559028.362673) can0 128#1388030000EC7896
(1713559028.362918) can0 12D#000000000000005F
(1713559028.363161) can0 12E#000000000000008B
(1713559028.363413) can0 290#000000000000005F
(1713559028.367564) can0 174#1680404453794265
(1713559028.367792) can0 178#D87F4136C79342EE
(1713559028.368030) can0 17C#0A8041006668428E
(1713559028.368847) can0 410#2900008B9E6E9E3C
(1713559028.372373) can0 12F#000000000000006A
(1713559028.372619) can0 12D#000000000000006A
(1713559028.372869) can0 290#000000000000006A
(1713559028.377624) can0 174#1C8040447D794329
(1713559028.377853) can0 178#CA7F423006934308
(1713559028.378091) can0 17C#0080410058694396
(1713559028.378873) can0 410#2900008B9E6E9E56
(1713559028.382401) can0 12F#000000000000008B
(1713559028.382635) can0 128#1388030000EC78A3
(1713559028.382889) can0 12D#000000000000008B
(1713559028.383129) can0 12E#00000000000000BE
(1713559028.383403) can0 290#000000000000008B
(1713559028.385455) can0 550#48000C0001000023
(1713559028.387574) can0 174#208040447A79449D
(1713559028.387802) can0 178#BE7F4331C59244AD
(1713559028.388038) can0 17C#F67F41009E694413
(1713559028.388706) can0 400#6440000000000012
(1713559028.388942) can0 410#2800008B9E6E9E6D
(1713559028.392379) can0 12F#00000000000000BE
(1713559028.392616) can0 12A#1028103C00580052
(1713559028.392865) can0 12D#00000000000000BE
(1713559028.393113) can0 290#00000000000000BE
(1713559028.397629) can0 174#24804044567945D3
(1713559028.397855) can0 178#BE7F4438DB9245AB
(1713559028.398093) can0 17C#FA7F41007C694526
(1713559028.398805) can0 400#6440000000000027
(1713559028.399042) can0 410#2900008B9E6E9E82
(1713559028.402394) can0 12F#00000000000000D4
(1713559028.402627) can0 128#1388030000EC78C9
(1713559028.402871) can0 12D#00000000000000D4
(1713559028.403125) can0 12E#00000000000000D4
(1713559028.403389) can0 290#00000000000000D4
(1713559028.407576) can0 174#2680404424794605
(1713559028.407803) can0 178#C67F4531019346C6
(1713559028.408037) can0 17C#068041004B6946B8
(1713559028.408739) can0 410#2840008B9E6E9DAF
(1713559028.408983) can0 400#644000000000004D
(1713559028.412360) can0 12F#0000000000000035
(1713559028.412605) can0 12D#0000000000000035
(1713559028.412853) can0 290#0000000000000035
(1713559028.416000) can0 4EA#0000000000000000
(1713559028.416245) can0 5B2#0800000000000000
(1713559028.416491) can0 310#FFFFFFFF7D7D0000
(1713559028.417635) can0 174#20804044F8784735
(1713559028.417869) can0 178#CE7F46320F934704
(1713559028.418105) can0 17C#1080410031694788
(1713559028.418771) can0 410#2540008D9E6E9DC4
(1713559028.419014) can0 400#6440000000000078
(1713559028.422384) can0 12F#000000000000005F
(1713559028.422619) can0 128#1388030000EC7828
(1713559028.422869) can0 12D#000000000000005F
(1713559028.423117) can0 12E#0000000000000035
(1713559028.423395) can0 290#000000000000005F
(1713559028.427640) can0 174#16804044E278489C
(1713559028.427865) can0 178#DA7F47390F934823
(1713559028.428099) can0 17C#128041002D69489B
(1713559028.428741) can0 410#2040008F9E6E9D2E
(1713559028.428991) can0 400#6440000000000099
(1713559028.432372) can0 12F#000000000000006A
(1713559028.432617) can0 12D#000000000000006A
(1713559028.432867) can0 290#000000000000006A
(1713559028.435400) can0 550#48000C0001000049
(1713559028.437586) can0 174#0C804044DF7849FD
(1713559028.437816) can0 178#E87F482D0D934946
(1713559028.438056) can0 17C#0A8041003B6949F0
(1713559028.438660) can0 410#1A4000929E6E9D5F
(1713559028.438944) can0 400#64400000000000AC
(1713559028.442394) can0 12F#000000000000008B
(1713559028.442627) can0 128#1388030000EC7842
(1713559028.442866) can0 12A#1028103C00580067
(1713559028.443112) can0 12D#000000000000008B
(1713559028.443388) can0 12E#000000000000005F
(1713559028.443611) can0 290#000000000000008B
(1713559028.447641) can0 174#02804044E0784A75
(1713559028.447873) can0 178#F87F49300A934A52
(1713559028.448107) can0 17C#0280410045694A44
(1713559028.448705) can0 410#144000959E6E9D7D
(1713559028.449043) can0 400#64400000000000C6
(1713559028.452378) can0 12F#00000000000000BE
(1713559028.452625) can0 12D#00000000000000BE
(1713559028.452874) can0 290#00000000000000BE
(1713559028.457586) can0 174#F47F4044DD784BB6
(1713559028.457820) can0 178#06804A3207934BF2
(1713559028.458062) can0 17C#0080410046694B6F
(1713559028.458630) can0 410#0E4000989E6E9D9A
(1713559028.459044) can0 400#6440000000000027
(1713559028.462364) can0 12F#00000000000000D4
(1713559028.462596) can0 128#1388030000EC7877
(1713559028.462840) can0 12D#00000000000000D4
(1713559028.463087) can0 12E#000000000000006A
(1713559028.463346) can0 290#00000000000000D4
(1713559028.467638) can0 174#E67F0044E4780CC1
(1713559028.467873) can0 178#10800B36FF920CAB
(1713559028.468118) can0 17C#0280010042690C0C
(1713559028.468656) can0 410#0840009A9E6E9DB6
(1713559028.469141) can0 400#644000000000004D
(1713559028.472347) can0 12F#0000000000000035
(1713559028.472593) can0 12D#0000000000000035
(1713559028.472841) can0 290#0000000000000035
(1713559028.477592) can0 174#E07F0044F0780D11
(1713559028.477822) can0 178#16800C30F6920D84
(1713559028.478063) can0 17C#FC7F01003D690D7E
(1713559028.478579) can0 410#0640009B9E6E9DD3
(1713559028.479141) can0 400#6440000000000078
(1713559028.482374) can0 12F#000000000000005F
(1713559028.482603) can0 128#1388030000EC7896
(1713559028.482853) can0 12D#000000000000005F
(1713559028.483097) can0 12E#000000000000008B
(1713559028.483351) can0 290#000000000000005F
(1713559028.485457) can0 550#48000C000100007C
(1713559028.487646) can0 174#DC7F0044FB780EDB
(1713559028.487882) can0 178#1C800000F3920EEF
(1713559028.488116) can0 17C#F07F010042690E2C
(1713559028.488638) can0 410#0540009C9E6E9D3C
(1713559028.489241) can0 400#6400000000000080
(1713559028.492403) can0 12F#000000000000006A
(1713559028.492642) can0 12A#1028103C00580086
(1713559028.492888) can0 12D#000000000000006A
(1713559028.493138) can0 290#000000000000006A
(1713559028.497590) can0 174#D47F004406790F55
(1713559028.497828) can0 178#26800130FC920FCF
(1713559028.498062) can0 17C#E87F010058690F4D
(1713559028.498587) can0 410#0440009D9E6E9D5C
(1713559028.499245) can0 400#64000000000000B5
(1713559028.502385) can0 12F#000000000000008B
(1713559028.502619) can0 128#1388030000EC78A3
(1713559028.502865) can0 12D#000000000000008B
(1713559028.503111) can0 12E#00000000000000BE
(1713559028.503385) can0 290#000000000000008B
(1713559028.504422) can0 120#0000000000000000
(1713559028.504669) can0 121#0000000000000000
(1713559028.504920) can0 129#0000000000000000
(1713559028.507652) can0 174#CE7F00441A79002D
(1713559028.507885) can0 178#2C800232079300C1
(1713559028.508120) can0 17C#EA7F0100676900E2
(1713559028.508626) can0 410#0240009D9E6E9D78
(1713559028.509352) can0 400#64000000000000DF
(1713559028.512588) can0 12F#00000000000000BE
(1713559028.512832) can0 12D#00000000000000BE
(1713559028.513080) can0 290#00000000000000BE
(1713559028.515798) can0 4EA#0000000000000000
(1713559028.516042) can0 5B2#0800000000000000
(1713559028.516288) can0 310#FFFFFFFF7D7D0000
(1713559028.517596) can0 174#CE7F00443B79018F
(1713559028.517832) can0 178#2E8003360D93014D
(1713559028.518066) can0 17C#EE7F010061690193
(1713559028.518586) can0 410#0040009E9E6E9D89
(1713559028.519350) can0 400#640000000000003E
(1713559028.522379) can0 12F#00000000000000D4
(1713559028.522614) can0 128#1388030000EC78C9
(1713559028.522857) can0 12D#00000000000000D4
(1713559028.523103) can0 12E#00000000000000D4
(1713559028.523353) can0 290#00000000000000D4
(1713559028.524518) can0 120#0000000000000035
(1713559028.524766) can0 121#0000000000000035
(1713559028.525012) can0 129#0000000000000035
(1713559028.527650) can0 174#CC7F00445E7902CB
(1713559028.527882) can0 178#288004351593021C
(1713559028.528118) can0 17C#F07F01004B690233
(1713559028.528615) can0 410#0040009F9E6E9DB8
(1713559028.529434) can0 400#6400000000000054
(1713559028.532619) can0 12F#0000000000000035
(1713559028.532860) can0 12D#0000000000000035
(1713559028.533108) can0 290#0000000000000035
(1713559028.535406) can0 550#48000C000100009D
(1713559028.537606) can0 174#CE7F00447C79035F
(1713559028.537844) can0 178#1E8005302093031C
(1713559028.538082) can0 17C#F07F01003769036C
(1713559028.538568) can0 410#004000A09E6E9DCF
(1713559028.539437) can0 400#6400000000000061
(1713559028.540199) can0 551#000000000004C000
(1713559028.540453) can0 552#00FFFFFFFFFFFF1B
(1713559028.540701) can0 55A#0017160000000000
(1713559028.540994) can0 5D1#9958000200000000
(1713559028.541239) can0 5D2#7444540000000000
(1713559028.541487) can0 450#00FFF0001B004A00
(1713559028.542454) can0 12F#000000000000005F
(1713559028.542691) can0 128#1388030000EC7828
(1713559028.542933) can0 12A#1028103C005800B3
(1713559028.543183) can0 12D#000000000000005F
(1713559028.543433) can0 12E#0000000000000035
(1713559028.543682) can0 290#000000000000005F
(1713559028.544618) can0 120#000000000000005F
(1713559028.544866) can0 121#000000000000005F
(1713559028.545114) can0 129#000000000000005F
(1713559028.547662) can0 174#D47F00448A790450
(1713559028.547895) can0 178#168006312A9304B1
(1713559028.548132) can0 17C#F27F01002D690492
(1713559028.548624) can0 410#004000A09E6E9D2E
(1713559028.549531) can0 400#6400000000000080
(1713559028.550397) can0 541#0440E000007FFF00
(1713559028.552592) can0 12F#000000000000006A
(1713559028.552835) can0 12D#000000000000006A
(1713559028.553085) can0 290#000000000000006A
(1713559028.557610) can0 174#E27F0044877905CD
(1713559028.557843) can0 178#0C80073136930505
(1713559028.558079) can0 17C#F67F0100276905E9
(1713559028.558577) can0 410#004000A19E6E9D40
(1713559028.559534) can0 400#64000000000000B5
(1713559028.560206) can0 551#000000000004C000
(1713559028.560455) can0 5D1#9958000200000000
(1713559028.562371) can0 12F#000000000000008B
(1713559028.562607) can0 128#1388030000EC7842
(1713559028.562851) can0 12D#000000000000008B
(1713559028.563100) can0 12E#000000000000005F
(1713559028.563359) can0 290#000000000000008B
(1713559028.564711) can0 120#000000000000006A
(1713559028.564963) can0 121#000000000000006A
(1713559028.565209) can0 129#000000000000006A
(1713559028.567668) can0 174#EE7F0044827906D8
(1713559028.567907) can0 178#0080083141930627
(1713559028.568149) can0 17C#F87F0100216906CA
(1713559028.568619) can0 410#004000A19E6E9D75
(1713559028.569639) can0 400#64000000000000DF
(1713559028.570245) can0 541#0440E000007FFF35
(1713559028.572628) can0 12F#00000000000000BE
(1713559028.572873) can0 12D#00000000000000BE
(1713559028.573122) can0 290#00000000000000BE
(1713559028.577619) can0 174#F67F0044847907AB
(1713559028.577855) can0 178#F47F093041930704
(1713559028.578095) can0 17C#F47F010019690748
(1713559028.578571) can0 410#004000A29E6E9D98
(1713559028.579633) can0 400#640000000000003E
(1713559028.580222) can0 540#000000103F009A00
(1713559028.580468) can0 551#000000000004C000
(1713559028.580720) can0 5B0#604200000000000F
(1713559028.580960) can0 5D1#9958000200000000
(1713559028.582416) can0 12F#00000000000000D4
(1713559028.582646) can0 128#1388030000EC7877
(1713559028.582889) can0 12D#00000000000000D4
(1713559028.583135) can0 12E#000000000000006A
(1713559028.583411) can0 290#00000000000000D4
(1713559028.584806) can0 120#000000000000008B
(1713559028.585050) can0 121#000000000000008B
(1713559028.585294) can0 129#000000000000008B
(1713559028.585538) can0 550#48000C00010000A8
(1713559028.587679) can0 174#FC7F00448279087D
(1713559028.587909) can0 178#E87F0A3838930854
(1713559028.588144) can0 17C#F27F01001169082C
(1713559028.588620) can0 410#004000A29E6E9DAD
(1713559028.589725) can0 400#6400000000000054
(1713559028.590266) can0 541#0440E000007FFF5F
(1713559028.590519) can0 552#00FFFFFFFFFFFF2E
(1713559028.590767) can0 450#0054E0001B004A00
(1713559028.592655) can0 12F#0000000000000035
(1713559028.592891) can0 12A#1028103C005800D9
(1713559028.593137) can0 12D#0000000000000035
(1713559028.593385) can0 290#0000000000000035
(1713559028.597626) can0 174#048000447679099C
(1713559028.597859) can0 178#DE7F00002E930901
(1713559028.598097) can0 17C#F87F01001369095A
(1713559028.598571) can0 410#004000A39E6E9DC3
(1713559028.599728) can0 400#6400000000000061
(1713559028.600212) can0 551#000000000004C000
(1713559028.600461) can0 5D1#9958000200000000
(1713559028.602401) can0 12F#000000000000005F
(1713559028.602635) can0 128#1388030000EC7896
(1713559028.602884) can0 12D#000000000000005F
(1713559028.603128) can0 12E#000000000000008B
(1713559028.603402) can0 290#000000000000005F
(1713559028.604907) can0 120#00000000000000BE
(1713559028.605153) can0 121#00000000000000BE
(1713559028.605401) can0 129#00000000000000BE
(1713559028.607679) can0 174#0E8000445E790AEF
(1713559028.607909) can0 178#D47F013028930A4E
(1713559028.608144) can0 17C#FE7F010017690AA8
(1713559028.608617) can0 410#004000A49E6E9D3E
(1713559028.609835) can0 400#6400000000000080
(1713559028.610313) can0 541#0440E000007FFF6A
(1713559028.612600) can0 12F#000000000000006A
(1713559028.612843) can0 12D#000000000000006A
(1713559028.613093) can0 290#000000000000006A
(1713559028.615605) can0 4EA#0000000000000000
(1713559028.615849) can0 5B2#0800000000000000
(1713559028.616095) can0 310#FFFFFFFF7D7D0000
(1713559028.617645) can0 174#1680004446790B8D
(1713559028.617879) can0 178#D27F000020930B89
(1713559028.618117) can0 17C#0680010017690BC7
(1713559028.618537) can0 410#004000A49E6E9D54
(1713559028.619831) can0 400#64000000000000B5
(1713559028.620226) can0 551#000000000004C000
(1713559028.620475) can0 5D1#9958000200000000
(1713559028.622388) can0 12F#000000000000008B
(1713559028.622625) can0 128#1388030000EC78A3
(1713559028.622872) can0 12D#000000000000008B
(1713559028.623117) can0 12E#00000000000000BE
(1713559028.623387) can0 290#000000000000008B
(1713559028.624992) can0 120#00000000000000D4
(1713559028.625235) can0 121#00000000000000D4
(1713559028.625477) can0 129#00000001000000D0
(1713559028.627692) can0 174#1E8000443A790C4E
(1713559028.627918) can0 178#D67F01531C930CF0
(1713559028.628152) can0 17C#0C8001001B690CF6
(1713559028.628616) can0 410#004000A59E6E9D65
(1713559028.629926) can0 400#64000000000000DF
(1713559028.630280) can0 541#0440E000007FFF8B
(1713559028.632781) can0 12F#00000000000000BE
(1713559028.633027) can0 12D#00000000000000BE
(1713559028.633274) can0 290#00000000000000BE
(1713559028.635406) can0 550#48000C00010000C2
(1713559028.637652) can0 174#228000443A790D3E
(1713559028.637880) can0 178#DA7F024318930DCB
(1713559028.638117) can0 17C#0A8001002C690D9A
(1713559028.638509) can0 410#004000A59E6E9D84
(1713559028.639929) can0 400#640000000000003E
(1713559028.640300) can0 551#000000000004C000
(1713559028.640553) can0 552#00FFFFFFFFFFFF44
(1713559028.640799) can0 5D1#9958000200000000
(1713559028.641041) can0 5D2#7444540000000000
(1713559028.641289) can0 450#0054E0001B004A00
(1713559028.642446) can0 12F#00000000000000D4
(1713559028.642681) can0 128#1388030000EC78C9
(1713559028.642921) can0 12A#1028103C00580038
(1713559028.643163) can0 12D#00000000000000D4
(1713559028.643412) can0 12E#00000000000000D4
(1713559028.643656) can0 290#00000000000000D4
(1713559028.645098) can0 120#0000000000000035
(1713559028.645346) can0 121#0000000000000035
(1713559028.645591) can0 129#0000000100000031
(1713559028.647696) can0 174#2080004440790EE4
(1713559028.647924) can0 178#D87F033215930EDF
(1713559028.648165) can0 17C#028001003F690EFB
(1713559028.648533) can0 410#004000A59E6E9DB1
(1713559028.650021) can0 400#6400000000000054
(1713559028.650269) can0 541#0440E000007FFFBE
(1713559028.652604) can0 12F#0000000000000035
(1713559028.652848) can0 12D#0000000000000035
(1713559028.653095) can0 290#0000000000000035
(1713559028.657652) can0 174#1680004438790FB8
(1713559028.657883) can0 178#D87F043011930FE8
(1713559028.658121) can0 17C#FE7F010045690FBA
(1713559028.658441) can0 410#004000A69E6E9DD7
(1713559028.660024) can0 400#6400000000000061
(1713559028.660270) can0 551#000000000004C000
(1713559028.660517) can0 5D1#9958000200000000
(1713559028.660767) can0 140#0000030000000000
(1713559028.662414) can0 12F#000000000000005F
(1713559028.662652) can0 128#1388030000EC7828
(1713559028.662904) can0 12D#000000000000005F
(1713559028.663150) can0 12E#0000000000000035
(1713559028.663402) can0 290#000000000000005F
(1713559028.665188) can0 120#000000000000005F
(1713559028.665437) can0 121#000000000000005F
(1713559028.665680) can0 129#000000010000005B
(1713559028.667717) can0 174#0A8000441F7900BB
(1713559028.667949) can0 178#DA7F05300C93001E
(1713559028.668187) can0 17C#FC7F0100456900BB
(1713559028.668451) can0 410#004000A69E6E9D36
(1713559028.670119) can0 400#6400000000000080
(1713559028.670363) can0 541#0440E000007FFFD4
(1713559028.672604) can0 12F#000000000000006A
(1713559028.672847) can0 12D#000000000000006A
(1713559028.673097) can0 290#000000000000006A
(1713559028.673330) can0 4E8#550145E200FA2250
(1713559028.675312) can0 4E9#5A01010000000000
(1713559028.677665) can0 174#00800044FE78019D
(1713559028.677899) can0 178#E07F0632099301AD
(1713559028.678137) can0 17C#FE7F010048690199
(1713559028.678375) can0 410#004000A69E6E9D5C
(1713559028.680124) can0 400#64000000000000B5
(1713559028.680368) can0 551#000000000004C000
(1713559028.680610) can0 4E8#5502FFF659FFD0EB
(1713559028.680854) can0 540#000000103F009A00
(1713559028.681098) can0 5B0#604200000000003A
(1713559028.681348) can0 140#0000030000000000
(1713559028.681639) can0 5D1#9958000200000000
(1713559028.682432) can0 12F#000000000000008B
(1713559028.682665) can0 128#1388030000EC7842
(1713559028.682913) can0 12D#000000000000008B
(1713559028.683163) can0 12E#000000000000005F
(1713559028.683412) can0 290#000000000000008B
(1713559028.685242) can0 4E9#5A02010000000000
(1713559028.685490) can0 120#000000000000006A
(1713559028.685742) can0 121#000000000000006A
(1713559028.685989) can0 129#000000010000006E
(1713559028.686232) can0 550#48000C0001000023
(1713559028.687718) can0 174#FC7F0044E87802BC
(1713559028.687948) can0 178#E47F0737069302DC
(1713559028.688184) can0 17C#0280010055690238
(1713559028.688419) can0 410#004000A79E6E9D6D
(1713559028.690218) can0 400#64000000000000DF
(1713559028.690461) can0 541#0440E000007FFF35
(1713559028.690698) can0 4E8#55030A2442360000
(1713559028.690941) can0 552#00FFFFFFFFFFFF71
(1713559028.691189) can0 450#0054E0001B004A00
(1713559028.692686) can0 12F#00000000000000BE
(1713559028.692922) can0 12A#1028103C00580052
(1713559028.693170) can0 12D#00000000000000BE
(1713559028.693417) can0 290#00000000000000BE
(1713559028.695180) can0 4E9#5A03010000000000
(1713559028.697671) can0 174#FA7F0044E278037D
(1713559028.697904) can0 178#EE7F085F0393031E
(1713559028.698142) can0 17C#00800100676903B4
(1713559028.698376) can0 410#004000A79E6E9D8C
(1713559028.700221) can0 400#640000000000003E
(1713559028.700467) can0 551#000000000004C000
(1713559028.700718) can0 4E8#5601000000000000
(1713559028.700959) can0 5D1#9958000200000000
(1713559028.701777) can0 140#0000030000000000
(1713559028.702379) can0 12F#00000000000000D4
(1713559028.702613) can0 128#1388030000EC7877
(1713559028.702857) can0 12D#00000000000000D4
(1713559028.703105) can0 12E#000000000000006A
(1713559028.703352) can0 290#00000000000000D4
(1713559028.705378) can0 120#000000000000008B
(1713559028.705621) can0 121#000000000000008B
(1713559028.705863) can0 129#000000010000008F
(1713559028.707710) can0 174#F47F0044EF7804AA
(1713559028.707943) can0 178#FA7F0930FC920403
(1713559028.708178) can0 17C#FC7F0100716904E1
(1713559028.708412) can0 410#004000A79E6E9DB9
(1713559028.710312) can0 400#6400000000000054
(1713559028.712587) can0 12F#0000000000000035
(1713559028.712828) can0 12D#0000000000000035
(1713559028.713076) can0 290#0000000000000035
(1713559028.713320) can0 541#0440E000007FFF5F
(1713559028.717665) can0 174#EC7F004505790592
(1713559028.717902) can0 178#04800A37F69205FA
(1713559028.718138) can0 17C#F67F010069690580
(1713559028.718372) can0 410#004000A79E6E9DD3
(1713559028.720194) can0 551#000000000004C000
(1713559028.720439) can0 400#6400000000000061
(1713559028.720663) can0 4E9#A501574DE1CAB98A
(1713559028.720903) can0 5D1#9958000200000000
(1713559028.721359) can0 4EA#0000000000000000
(1713559028.721605) can0 5B2#0800000000000000
(1713559028.721853) can0 310#FFFFFFFF7D7D0000
(1713559028.722311) can0 140#0000030000000000
(1713559028.722543) can0 128#1388030000EC7896
(1713559028.722793) can0 12D#000000000000005F
(1713559028.723037) can0 12E#000000000000008B
(1713559028.723287) can0 12F#000000000000005F
(1713559028.723537) can0 290#000000000000005F
(1713559028.725480) can0 120#00000000000000BE
(1713559028.725726) can0 121#00000000000000BE
(1713559028.725968) can0 129#00000001000000BA
(1713559028.727719) can0 174#E27F00441979063B
(1713559028.727952) can0 178#0C800B31F1920686
(1713559028.728186) can0 17C#EC7F01006169067A
(1713559028.728420) can0 410#004000A79E6E9D32
(1713559028.730312) can0 541#0440E000007FFF6A
(1713559028.730569) can0 400#6400000000000080
(1713559028.730907) can0 4E8#5602000000000000
(1713559028.732592) can0 12F#000000000000006A
(1713559028.732835) can0 12D#000000000000006A
(1713559028.733085) can0 290#000000000000006A
(1713559028.735083) can0 4E9#A50267988D6CD244
(1713559028.735399) can0 550#48000C0001000049
(1713559028.737668) can0 174#DE7F0045257907F4
(1713559028.737906) can0 178#10800000F092072D
(1713559028.738141) can0 17C#E87F01005969072A
(1713559028.738377) can0 410#004000A79E6E9D58
(1713559028.738621) can0 5B1#008A9A680000001D
(1713559028.738867) can0 5D0#0058010200000000
(1713559028.739115) can0 5CF#0000000000000000
(1713559028.740210) can0 551#000000000004C000
(1713559028.740462) can0 400#64000000000000B5
(1713559028.740708) can0 552#00FFFFFFFFFFFF90
(1713559028.740955) can0 4E8#5603000000000000
(1713559028.741194) can0 5D1#9958000200000000
(1713559028.741438) can0 5D2#7444540000000000
(1713559028.741686) can0 450#0054E0001B004A00
(1713559028.742429) can0 12F#000000000000008B
(1713559028.742665) can0 128#1388030000EC78A3
(1713559028.742905) can0 12A#1028103C00580067
(1713559028.743152) can0 12D#000000000000008B
(1713559028.743400) can0 12E#00000000000000BE
(1713559028.743649) can0 140#0000030000000000
(1713559028.743895) can0 290#000000000000008B
(1713559028.745128) can0 4E9#A50346EBDF4F0000
(1713559028.745575) can0 120#00000000000000D4
(1713559028.745819) can0 121#00000000000000D4
(1713559028.746062) can0 129#00000001000000D0
(1713559028.747726) can0 174#E07F00442D790809
(1713559028.747959) can0 178#14800137F4920808
(1713559028.748192) can0 17C#F27F0100466908DE
(1713559028.748426) can0 410#004000A79E6E9D6D
(1713559028.750246) can0 541#0440E000007FFF8B
(1713559028.750508) can0 400#64000000000000DF
(1713559028.752637) can0 12F#00000000000000BE
(1713559028.752876) can0 12D#00000000000000BE
(1713559028.753123) can0 290#00000000000000BE
(1713559028.757679) can0 174#E47F0044307909E0
(1713559028.757914) can0 178#1E80022EFF920967
(1713559028.758150) can0 17C#FE7F01002C690927
(1713559028.758388) can0 410#004000A79F6E9D95
(1713559028.760257) can0 551#000000000004C000
(1713559028.760511) can0 400#640000000000003E
(1713559028.760751) can0 5D1#9958000200000000
(1713559028.762329) can0 12F#00000000000000D4
(1713559028.762565) can0 128#1388030000EC78C9
(1713559028.762810) can0 12D#00000000000000D4
(1713559028.763056) can0 12E#00000000000000D4
(1713559028.763301) can0 290#00000000000000D4
(1713559028.763552) can0 140#0000030000000000
(1713559028.765660) can0 120#0000000000000035
(1713559028.765906) can0 121#0000000000000035
(1713559028.766150) can0 129#0000000100000031
(1713559028.767726) can0 174#E47F004438790ACB
(1713559028.767954) can0 178#288003310C930A2A
(1713559028.768197) can0 17C#008001001F690A05
(1713559028.768435) can0 410#004000A69F6E9DA4
(1713559028.770235) can0 541#0440E000007FFFBE
(1713559028.770605) can0 400#6400000000000054
(1713559028.772582) can0 12F#0000000000000035
(1713559028.772827) can0 12D#0000000000000035
(1713559028.773074) can0 290#0000000000000035
(1713559028.777682) can0 174#E07F00444B790B7B
(1713559028.777915) can0 178#2A8004301A930B06
(1713559028.778153) can0 17C#F87F010022690BC7
(1713559028.778391) can0 410#004000A39F6E9DDA
(1713559028.780192) can0 551#000000000004C000
(1713559028.780441) can0 5D1#9958000200000000
(1713559028.780688) can0 400#6400000000000061
(1713559028.781186) can0 540#000000103F009A00
(1713559028.781428) can0 5B0#6342000000000042
(1713559028.782358) can0 12F#000000000000005F
(1713559028.782596) can0 128#1388030000EC7828
(1713559028.782847) can0 12D#000000000000005F
(1713559028.783094) can0 12E#0000000000000035
(1713559028.783346) can0 290#000000000000005F
(1713559028.783859) can0 140#0000030000000000
(1713559028.785466) can0 550#48000C000100007C
(1713559028.785753) can0 120#000000000700004F
(1713559028.786001) can0 121#000000000000005F
(1713559028.786245) can0 129#000000010000005B
(1713559028.787734) can0 174#DE7F004561790C5D
(1713559028.787968) can0 178#2480000028930CA5
(1713559028.788202) can0 17C#F27F010032690CE4
(1713559028.788440) can0 410#004000A09F6E9D37
(1713559028.788813) can0 6B9#0000000000000000
(1713559028.789061) can0 5A2#0000000000000000
(1713559028.790319) can0 541#0440E000007FFFD4
(1713559028.790572) can0 552#00FFFFFFFFFFFFA5
(1713559028.790820) can0 400#6400000000000080
(1713559028.791062) can0 450#0054E0001B004A00
(1713559028.792638) can0 12F#000000000000006A
(1713559028.792880) can0 12A#1028103C00580086
(1713559028.793124) can0 12D#000000000000006A
(1713559028.793375) can0 290#000000000000006A
(1713559028.797687) can0 174#DE7F00446B790DD2
(1713559028.797920) can0 178#1C80013830930D31
(1713559028.798158) can0 17C#F27F01003F690D7C
(1713559028.798394) can0 410#0340009D9F6E9D5A
(1713559028.800199) can0 551#000000000004C000
(1713559028.800448) can0 5D1#9958000200000000
(1713559028.800701) can0 400#64000000000000B5
(1713559028.802331) can0 12F#000000000000008B
(1713559028.802565) can0 128#1388030000EC7842
(1713559028.802811) can0 12D#000000000000008B
(1713559028.803062) can0 12E#000000000000005F
(1713559028.803309) can0 290#000000000000008B
(1713559028.804441) can0 140#0000030000000000
(1713559028.805856) can0 120#000000000700007A
(1713559028.806106) can0 121#000000000000006A
(1713559028.806354) can0 129#000000010000006E
(1713559028.807721) can0 410#0B4000999F6E9D65
(1713559028.807948) can0 174#E47F004467790E41
(1713559028.808178) can0 178#148002322D930E5C
(1713559028.808417) can0 17C#F87F01003B690E35
(1713559028.810241) can0 541#0440E000007FFF35
(1713559028.810793) can0 400#64000000000000DF
(1713559028.812585) can0 12F#00000000000000BE
(1713559028.812830) can0 12D#00000000000000BE
(1713559028.813087) can0 290#00000000000000BE
(1713559028.815264) can0 4EA#0000000000000000
(1713559028.815509) can0 5B2#0800000000000000
(1713559028.815754) can0 310#FFFFFFFF7D7D0000
(1713559028.817650) can0 410#114000969F6E9D8A
(1713559028.817885) can0 174#F07F004560790F9B
(1713559028.818116) can0 178#0C80033223930F49
(1713559028.818356) can0 17C#FE7F010031690FF4
(1713559028.820249) can0 551#000000000004C000
(1713559028.820498) can0 5D1#9958000200000000
(1713559028.820788) can0 400#640000000000003E
(1713559028.822350) can0 12F#00000000000000D4
(1713559028.822584) can0 128#1388030000EC7877
(1713559028.822828) can0 12D#00000000000000D4
(1713559028.823075) can0 12E#000000000000006A
(1713559028.823328) can0 290#00000000000000D4
(1713559028.824971) can0 140#0000030000000000
(1713559028.825951) can0 120#000000000700009B
(1713559028.826193) can0 121#000000000000008B
(1713559028.826435) can0 129#000000010000008F
(1713559028.827695) can0 410#184000939F6E9DBF
(1713559028.827927) can0 174#FA7F00455B7900E0
(1713559028.828159) can0 178#0480043518930077
(1713559028.828398) can0 17C#FE7F0100246900DE
(1713559028.830242) can0 541#0440E000007FFF5F
(1713559028.830887) can0 400#6400000000000054
(1713559028.832578) can0 12F#0000000000000035
(1713559028.832822) can0 12D#0000000000000035
(1713559028.833070) can0 290#0000000000000035
(1713559028.835457) can0 550#48000C000100009D
(1713559028.837672) can0 410#1F40008F9F6E9DD0
(1713559028.837908) can0 174#008000455B790135
(1713559028.838150) can0 178#F87F00000F9301EA
(1713559028.838393) can0 17C#FA7F010016690181
(1713559028.838630) can0 5B1#008A9A6800000028
(1713559028.838872) can0 5D0#9958010200000000
(1713559028.839111) can0 5CF#7444540000000000
(1713559028.840207) can0 551#000000000004C000
(1713559028.840461) can0 552#00FFFFFFFFFFFFCF
(1713559028.840707) can0 5D1#9958000200000000
(1713559028.840953) can0 400#6400000000000061
(1713559028.841191) can0 5D2#7444540000000000
(1713559028.841439) can0 450#0054E0001B004A00
(1713559028.842369) can0 12F#000000000000005F
(1713559028.842603) can0 128#1388030000EC7896
(1713559028.842845) can0 12A#1028103C005800B3
(1713559028.843095) can0 12D#000000000000005F
(1713559028.843348) can0 12E#000000000000008B
(1713559028.843590) can0 290#000000000000005F
(1713559028.845452) can0 140#0000030000000000
(1713559028.845988) can0 120#00000000070000AE
(1713559028.846234) can0 121#00000000000000BE
(1713559028.846476) can0 129#00000001000000BA
(1713559028.847641) can0 410#2640008C9F6E9D2A
(1713559028.847874) can0 174#048000445879026A
(1713559028.848106) can0 178#EC7F01320A9302B6
(1713559028.848346) can0 17C#FA7F010017690229
(1713559028.850305) can0 541#0440E000007FFF6A
(1713559028.850989) can0 400#6400000000000080
(1713559028.852576) can0 12F#000000000000006A
(1713559028.852819) can0 12D#000000000000006A
(1713559028.853069) can0 290#000000000000006A
(1713559028.857620) can0 410#2D4000899F6E9D5C
(1713559028.857855) can0 174#08800044507903C0
(1713559028.858086) can0 178#E47F023007930365
(1713559028.858326) can0 17C#FC7F0100296903C6
(1713559028.860242) can0 551#000000000004C000
(1713559028.860490) can0 5D1#9958000200000000
(1713559028.861030) can0 400#64000000000000B5
(1713559028.862301) can0 12F#000000000000008B
(1713559028.862536) can0 128#1388030000EC78A3
(1713559028.862782) can0 12D#000000000000008B
(1713559028.863028) can0 12E#00000000000000BE
(1713559028.863276) can0 290#000000000000008B
(1713559028.865984) can0 140#0000030000000000
(1713559028.866230) can0 120#00000000070000C4
(1713559028.866474) can0 121#00000000000000D4
(1713559028.866716) can0 129#00000001000000D0
(1713559028.867539) can0 410#344000859F6E9D79
(1713559028.867775) can0 174#0C8000444379046E
(1713559028.868009) can0 178#E47F03320C9304FB
(1713559028.868249) can0 17C#FC7F01003B69048E
(1713559028.870233) can0 541#0440E000007FFF8B
(1713559028.871096) can0 400#64000000000000DF
(1713559028.872566) can0 12F#00000000000000BE
(1713559028.872812) can0 12D#00000000000000BE
(1713559028.873060) can0 290#00000000000000BE
(1713559028.877566) can0 410#3B4000829F6E9D81
(1713559028.877801) can0 174#0E8000453779051A
(1713559028.878030) can0 178#EA7F0433159305EA
(1713559028.878268) can0 17C#FE7F01003B690529
(1713559028.880299) can0 551#000000000004C000
(1713559028.880549) can0 5D1#9958000200000000
(1713559028.881130) can0 400#640000000000003E
(1713559028.881709) can0 540#000000103F009A00
(1713559028.881948) can0 5B0#6342000000000077
(1713559028.882332) can0 12F#00000000000000D4
(1713559028.882568) can0 128#1388030000EC78C9
(1713559028.882812) can0 12D#00000000000000D4
(1713559028.883059) can0 12E#00000000000000D4
(1713559028.883304) can0 290#00000000000000D4
(1713559028.885407) can0 550#48000C00010000A8
(1713559028.886185) can0 120#0000000007000025
(1713559028.886433) can0 121#0000000000000035
(1713559028.886677) can0 129#0000000100000031
(1713559028.886927) can0 140#0000030000000000
(1713559028.887520) can0 410#4340007E9F6E9DB7
(1713559028.887760) can0 174#0E800045307906B7
(1713559028.887992) can0 178#F47F0531189306BD
(1713559028.888231) can0 17C#048001002C690654
(1713559028.890252) can0 541#0440E000007FFFBE
(1713559028.890508) can0 552#00FFFFFFFFFFFF2E
(1713559028.890758) can0 450#0054E0001B004A00
(1713559028.891184) can0 400#6400000000000054
(1713559028.892647) can0 12F#0000000000000035
(1713559028.892882) can0 12A#1028103C005800D9
(1713559028.893128) can0 12D#0000000000000035
(1713559028.893376) can0 290#0000000000000035
(1713559028.897551) can0 410#4A40007B9F6E9DDD
(1713559028.897785) can0 174#0A8000452D79075E
(1713559028.898033) can0 178#F87F06301C93073E
(1713559028.898269) can0 17C#088001002969077B
(1713559028.900250) can0 551#000000000004C000
(1713559028.900497) can0 5D1#9958000200000000
(1713559028.901225) can0 400#6400000000000061
(1713559028.902322) can0 12F#000000000000005F
(1713559028.902559) can0 128#1388030000EC7828
(1713559028.902809) can0 12D#000000000000005F
(1713559028.903057) can0 12E#0000000000000035
(1713559028.903307) can0 290#000000000000005F
(1713559028.906280) can0 120#000000000700004F
(1713559028.906528) can0 121#000000000000005F
(1713559028.906772) can0 129#000000010000005B
(1713559028.907056) can0 140#0000030000000000
(1713559028.907545) can0 410#514000779F6E9D30
(1713559028.907776) can0 174#06800045227908D8
(1713559028.908005) can0 178#F47F07311D930846
(1713559028.908243) can0 17C#08800100316908D4
(1713559028.910295) can0 541#0440E000007FFFD4
(1713559028.911289) can0 400#6400000000000080
(1713559028.912576) can0 12F#000000000000006A
(1713559028.912822) can0 12D#000000000000006A
(1713559028.913071) can0 290#000000000000006A
(1713559028.915063) can0 4EA#0000000000000000
(1713559028.915308) can0 5B2#0800000000000000
(1713559028.915554) can0 310#FFFFFFFF7D7D0000
(1713559028.917581) can0 410#584000749F6E9D42
(1713559028.917815) can0 174#008000451479093B
(1713559028.918047) can0 178#F47F08381D930926
(1713559028.918284) can0 17C#068001003A690948
(1713559028.920236) can0 551#000000000004C000
(1713559028.920483) can0 5D1#9958000200000000
(1713559028.921322) can0 400#64000000000000B5
(1713559028.922305) can0 12F#000000000000008B
(1713559028.922539) can0 128#1388030000EC7842
(1713559028.922785) can0 12D#000000000000008B
(1713559028.923035) can0 12E#000000000000005F
(1713559028.923283) can0 290#000000000000008B
(1713559028.926377) can0 120#000000000700007A
(1713559028.926629) can0 121#000000000000006A
(1713559028.926878) can0 129#000000010000006E
(1713559028.927557) can0 410#5D4000729F6E9D6C
(1713559028.927806) can0 140#0000030000000000
(1713559028.928036) can0 174#FA7F004508790AC6
(1713559028.928273) can0 178#F67F00001D930A3F
(1713559028.928513) can0 17C#028001003F690A8F
(1713559028.930237) can0 541#0440E000007FFF35
(1713559028.931386) can0 400#64000000000000DF
(1713559028.932563) can0 12F#00000000000000BE
(1713559028.932811) can0 12D#00000000000000BE
(1713559028.933060) can0 290#00000000000000BE
(1713559028.935455) can0 550#48000C00010000C2
(1713559028.937593) can0 410#5F4000719F6E9D9D
(1713559028.937824) can0 174#F67F004500790B6C
(1713559028.938060) can0 178#FA7F00001A930B13
(1713559028.938298) can0 17C#FA7F01003A690B69
(1713559028.938542) can0 5B1#008A9A6800000042
(1713559028.938778) can0 5D0#9958010200000000
(1713559028.939014) can0 5CF#7444540000000000
(1713559028.940319) can0 551#000000000004C000
(1713559028.940570) can0 552#00FFFFFFFFFFFF44
(1713559028.940817) can0 5D1#9958000200000000
(1713559028.941061) can0 5D2#7444540000000000
(1713559028.941308) can0 450#0054E0001B004A00
(1713559028.941557) can0 400#640000000000003E
(1713559028.942387) can0 12F#00000000000000D4
(1713559028.942601) can0 128#1388030000EC7877
(1713559028.942838) can0 12A#1028103C00580038
(1713559028.943082) can0 12D#00000000000000D4
(1713559028.943330) can0 12E#000000000000006A
(1713559028.943575) can0 290#00000000000000D4
(1713559028.946473) can0 120#000000000700009B
(1713559028.946717) can0 121#000000000000008B
(1713559028.946959) can0 129#000000010000008F
(1713559028.947592) can0 410#614000709F6E9DA4
(1713559028.947827) can0 174#F07F004500790CEC
(1713559028.948059) can0 178#0080015215930CF2
(1713559028.948309) can0 140#0000030000000000
(1713559028.948548) can0 17C#F67F010035690C07
(1713559028.950241) can0 541#0440E000007FFF5F
(1713559028.951484) can0 400#6400000000000054
(1713559028.952578) can0 12F#0000000000000035
(1713559028.952825) can0 12D#0000000000000035
(1713559028.953072) can0 290#0000000000000035
(1713559028.957595) can0 410#6340006F9F6E9DC4
(1713559028.957823) can0 174#EC7F00440E790D67
(1713559028.958056) can0 178#0480026F0F930D0F
(1713559028.958294) can0 17C#F07F010035690DC9
(1713559028.960244) can0 551#000000000004C000
(1713559028.960486) can0 5D1#9958000200000000
(1713559028.961515) can0 400#6400000000000061
(1713559028.962363) can0 12F#000000000000005F
(1713559028.962597) can0 128#1388030000EC7896
(1713559028.962847) can0 12D#000000000000005F
(1713559028.963092) can0 12E#000000000000008B
(1713559028.963349) can0 290#000000000000005F
(1713559028.966572) can0 120#00000000070000AE
(1713559028.966817) can0 121#00000000000000BE
(1713559028.967059) can0 129#00000001000000BA
(1713559028.967551) can0 410#6440006E9F6E9D3E
(1713559028.967778) can0 174#EC7F004522790EE7
(1713559028.968014) can0 178#088003620A930E3F
(1713559028.968250) can0 17C#F47F010035690E87
(1713559028.968648) can0 140#0000030000000000
(1713559028.970239) can0 541#0440E000007FFF6A
(1713559028.971532) can0 400#6400000000000080
(1713559028.972562) can0 12F#000000000000006A
(1713559028.972808) can0 12D#000000000000006A
(1713559028.973059) can0 290#000000000000006A
(1713559028.977553) can0 410#6440006D9F6E9D58
(1713559028.977794) can0 174#EC7F00452F790F7F
(1713559028.978029) can0 178#0C8004650A930FB4
(1713559028.978265) can0 17C#FE7F01003A690F74
(1713559028.980230) can0 551#000000000004C000
(1713559028.980485) can0 5D1#9958000200000000
(1713559028.981614) can0 400#64000000000000B5
(1713559028.982203) can0 540#000000103F009A00
(1713559028.982440) can0 128#1388030000EC78A3
(1713559028.982686) can0 12D#000000000000008B
(1713559028.982932) can0 12E#00000000000000BE
(1713559028.983176) can0 12F#000000000000008B
(1713559028.983434) can0 290#000000000000008B
(1713559028.983667) can0 5B0#6342000000000096
(1713559028.985411) can0 550#48000C0001000023
(1713559028.986667) can0 120#00000000070000C4
(1713559028.986910) can0 121#00000000000000D4
(1713559028.987152) can0 129#00000001000000D0
(1713559028.987625) can0 410#6440006C9F6E9D69
(1713559028.987855) can0 174#EC7F00452D7900C7
(1713559028.988089) can0 178#0E8005721293001A
(1713559028.988325) can0 17C#04800100456900C9
(1713559028.989183) can0 140#0000030000000000
(1713559028.990195) can0 541#0440E800007FFF86
(1713559028.990450) can0 552#00FFFFFFFFFFFF71
(1713559028.990698) can0 450#0054E0001B004A00
(1713559028.991628) can0 400#64000000000000DF
(1713559028.992692) can0 12F#00000000000000BE
(1713559028.992931) can0 12A#1028103C00580052
(1713559028.993179) can0 12D#00000000000000BE
(1713559028.993429) can0 290#00000000000000BE
(1713559028.997550) can0 410#6440006B9F6E9D94
(1713559028.997816) can0 174#EA7F00452979010F
(1713559028.998052) can0 178#108006741C930161
(1713559028.998288) can0 17C#048001004E690154
(1713559029.000745) can0 551#000000000004C000
(1713559029.000986) can0 5D1#9958000200000000
(1713559029.001712) can0 400#640000000000003E
(1713559029.002376) can0 12F#00000000000000D4
(1713559029.002611) can0 128#1388030000EC78C9
(1713559029.002856) can0 12D#00000000000000D4
(1713559029.003102) can0 12E#00000000000000D4
(1713559029.003359) can0 290#00000000000000D4
(1713559029.006767) can0 120#0000000007000025
(1713559029.007014) can0 121#0000000000000035
(1713559029.007258) can0 129#0000000100000031
(1713559029.007648) can0 410#6440006B9F6E9DA1
(1713559029.007878) can0 174#E67F00452C79021A
(1713559029.008115) can0 178#148007202293029B
(1713559029.008355) can0 17C#048001004D6902FF
(1713559029.009719) can0 140#0000030000000000
(1713559029.010177) can0 541#0440E800007FFFB3
(1713559029.011725) can0 400#6400000000000054
(1713559029.012530) can0 12F#0000000000000035
(1713559029.012775) can0 12D#0000000000000035
(1713559029.013023) can0 290#0000000000000035
(1713559029.014860) can0 4EA#0000000000000000
(1713559029.015104) can0 5B2#0800000000000000
(1713559029.015366) can0 310#FFFFFFFF7D7D0000
(1713559029.017535) can0 410#6440006A9F6E9DCF
(1713559029.017816) can0 174#E47F004537790325
(1713559029.018050) can0 178#1480084222930303
(1713559029.018288) can0 17C#0480010042690364
(1713559029.020231) can0 551#000000000004C000
(1713559029.020478) can0 5D1#9958000200000000
(1713559029.021807) can0 400#6400000000000061
(1713559029.022368) can0 12F#000000000000005F
(1713559029.022605) can0 128#1388030000EC7828
(1713559029.022855) can0 12D#000000000000005F
(1713559029.023103) can0 12E#0000000000000035
(1713559029.023378) can0 290#000000000000005F
(1713559029.026861) can0 120#000000000700004F
(1713559029.027109) can0 121#000000000000005F
(1713559029.027354) can0 129#000000010000005B
(1713559029.027587) can0 410#644000699F6E9D22
(1713559029.027821) can0 174#E87F004543790483
(1713559029.028057) can0 178#0E80096F209304ED
(1713559029.028297) can0 17C#048001003B6904FC
(1713559029.030243) can0 541#0440E800007FFFD9
(1713559029.030493) can0 140#0000030000000000
(1713559029.031622) can0 6E2#0544000000000000
(1713559029.031876) can0 400#6400000000000080
(1713559029.032546) can0 12F#000000000000006A
(1713559029.032792) can0 12D#000000000000006A
(1713559029.033042) can0 290#000000000000006A
(1713559029.035455) can0 550#48000C0001000049
(1713559029.037447) can0 410#644000689F6E9D4C
(1713559029.037816) can0 174#EE7F00454D790544
(1713559029.038050) can0 178#0A800A731D93057D
(1713559029.038291) can0 17C#008001003B690588
(1713559029.038526) can0 5B1#008A9A6800000077
(1713559029.038769) can0 5D0#9958010200000000
(1713559029.039007) can0 5CF#7444540000000000
(1713559029.040245) can0 551#000000000004C000
(1713559029.040500) can0 552#00FFFFFFFFFFFF90
(1713559029.040745) can0 5D1#9958000200000000
(1713559029.040989) can0 5D2#7444540000000000
(1713559029.041237) can0 450#0054E0001B004A00
(1713559029.041903) can0 400#64000000000000B5
(1713559029.042421) can0 12F#000000000000008B
(1713559029.042654) can0 128#1388030000EC7842
(1713559029.042893) can0 12A#1028103C00580067
(1713559029.043139) can0 12D#000000000000008B
(1713559029.043392) can0 12E#000000000000005F
(1713559029.043637) can0 290#000000000000008B
(1713559029.046960) can0 120#000000000700007A
(1713559029.047211) can0 121#000000000000006A
(1713559029.047460) can0 129#000000010000006E
(1713559029.047695) can0 410#644000689F6E9D79
(1713559029.047932) can0 174#F27F0045507906FC
(1713559029.048164) can0 178#06800B631A930624
(1713559029.048402) can0 17C#FC7F010032690637
(1713559029.050184) can0 541#0440E800007FFF38
(1713559029.050786) can0 140#0000030000000000
(1713559029.051919) can0 400#64000000000000DF
(1713559029.052515) can0 12F#00000000000000BE
(1713559029.052763) can0 12D#00000000000000BE
(1713559029.053011) can0 290#00000000000000BE
(1713559029.057399) can0 410#644000679F6E9D91
(1713559029.057823) can0 174#F27F0045507907E1
(1713559029.058058) can0 178#04800C681793072B
(1713559029.058300) can0 17C#FC7F0100276907BB
(1713559029.060298) can0 551#000000000004C000
(1713559029.060546) can0 5D1#9958000200000000
(1713559029.062002) can0 400#640000000000003E
(1713559029.062348) can0 12F#00000000000000D4
(1713559029.062580) can0 128#1388030000EC7877
(1713559029.062824) can0 12D#00000000000000D4
(1713559029.063070) can0 12E#000000000000006A
(1713559029.063316) can0 290#00000000000000D4
(1713559029.067055) can0 120#000000000700009B
(1713559029.067298) can0 121#000000000000008B
(1713559029.067541) can0 129#000000010000008F
(1713559029.067776) can0 410#644000669F6E9DA0
(1713559029.068008) can0 174#F47F004550790889
(1713559029.068240) can0 178#0A800D2018930875
(1713559029.068479) can0 17C#02800100296908A8
(1713559029.070169) can0 541#0440E800007FFF52
(1713559029.071328) can0 140#0000030000000000
(1713559029.072015) can0 400#6400000000000054
(1713559029.072552) can0 12F#0000000000000035
(1713559029.072797) can0 12D#0000000000000035
(1713559029.073045) can0 290#0000000000000035
(1713559029.077000) can0 410#644000669F6E9DCA
(1713559029.077824) can0 174#F67F0045517909A1
(1713559029.078058) can0 178#0E800E471D93091C
(1713559029.078298) can0 17C#0A800100326909FF
(1713559029.080230) can0 551#000000000004C000
(1713559029.080478) can0 5D1#9958000200000000
(1713559029.082122) can0 400#6400000000000061
(1713559029.082364) can0 12F#000000000000005F
(1713559029.082596) can0 128#1388030000EC7896
(1713559029.082846) can0 12D#000000000000005F
(1713559029.083090) can0 12E#000000000000008B
(1713559029.083348) can0 290#000000000000005F
(1713559029.083587) can0 540#000000103F009B00
(1713559029.083829) can0 5B0#63420000000000A3
(1713559029.085457) can0 550#48000C000100007C
(1713559029.086923) can0 410#644000659F6E9D27
(1713559029.087175) can0 120#00000000070000AE
(1713559029.087422) can0 121#00000000000000BE
(1713559029.087664) can0 129#00000001000000BA
(1713559029.087897) can0 174#FA7F004550790AB2
(1713559029.088129) can0 178#0A800F6D23930AE8
(1713559029.088368) can0 17C#1080010032690A09
(1713559029.090258) can0 541#0440E800007FFF67
(1713559029.090512) can0 552#00FFFFFFFFFFFFA5
(1713559029.090760) can0 450#0054E0001B004A00
(1713559029.091853) can0 140#0000030000000000
(1713559029.092113) can0 400#6400000000000080
(1713559029.092609) can0 12F#000000000000006A
(1713559029.092850) can0 12A#1028103C00580086
(1713559029.093096) can0 12D#000000000000006A
(1713559029.093347) can0 290#000000000000006A
(1713559029.096945) can0 410#644000649F6E9D49
(1713559029.097833) can0 174#FE7F00454A790BD1
(1713559029.098063) can0 178#FE7F006225930B2D
(1713559029.098299) can0 17C#0E8001002A690BB8
(1713559029.100234) can0 551#000000000004C000
(1713559029.100484) can0 5D1#9958000200000000
(1713559029.102194) can0 400#64000000000000B5
(1713559029.102442) can0 12D#000000000000008B
(1713559029.102676) can0 128#1388030000EC78A3
(1713559029.102922) can0 12E#00000000000000BE
(1713559029.103166) can0 12F#000000000000008B
(1713559029.103417) can0 290#000000000000008B
(1713559029.106867) can0 410#644000649F6E9D7C
(1713559029.107254) can0 120#00000000070000C4
(1713559029.107499) can0 121#00000000000000D4
(1713559029.107741) can0 129#00000001000000D0
(1713559029.107976) can0 174#0280004543790C1A
(1713559029.108209) can0 178#F47F01481D930CA9
(1713559029.108445) can0 17C#088001002C690C3D
(1713559029.110175) can0 541#0440E800007FFF86
(1713559029.112210) can0 400#64000000000000DF
(1713559029.112460) can0 140#0000030000000000
(1713559029.112707) can0 12D#00000000000000BE
(1713559029.112953) can0 12F#00000000000000BE
(1713559029.113201) can0 290#00000000000000BE
(1713559029.114627) can0 4EA#0000000000000000
(1713559029.114873) can0 5B2#0800000000000000
(1713559029.115120) can0 310#FFFFFFFF7D7D0000
(1713559029.116893) can0 410#644000639F6E9D81
(1713559029.117849) can0 174#008000453F790DFF
(1713559029.118082) can0 178#F07F000011930DB5
(1713559029.118319) can0 17C#028001003B690DDA
(1713559029.120287) can0 551#000000000004C000
(1713559029.120535) can0 5D1#9958000200000000
(1713559029.122293) can0 400#640000000000003E
(1713559029.122532) can0 128#1388030000EC78C9
(1713559029.122774) can0 12D#00000000000000D4
(1713559029.123021) can0 12E#00000000000000D4
(1713559029.123264) can0 12F#00000000000000D4
(1713559029.123510) can0 290#00000000000000D4
(1713559029.126814) can0 410#644000639F6E9DB4
(1713559029.127349) can0 120#0000000007000025
(1713559029.127596) can0 121#0000000000000035
(1713559029.127840) can0 129#0000000100000031
(1713559029.128074) can0 174#0080004538790E52
(1713559029.128308) can0 178#EE7F000006930EB8
(1713559029.128544) can0 17C#FA7F01004B690EC7
(1713559029.130172) can0 541#0440E800007FFFB3
(1713559029.132305) can0 400#6400000000000054
(1713559029.132551) can0 12F#0000000000000035
(1713559029.132796) can0 12D#0000000000000035
(1713559029.133046) can0 140#0000030000000000
(1713559029.133294) can0 290#0000000000000035
(1713559029.135464) can0 550#48000C000100009D
(1713559029.136834) can0 410#644000629F6E9DDA
(1713559029.137847) can0 174#008000452C790F51
(1713559029.138081) can0 178#E67F000D04930F3B
(1713559029.138316) can0 17C#F47F010045690FD2
(1713559029.138551) can0 5B1#008A9A6800000096
(1713559029.138793) can0 5D0#9958010200000000
(1713559029.139032) can0 5CF#7444540000000000
(1713559029.140246) can0 551#000000000004C000
(1713559029.140500) can0 552#00FFFFFFFFFFFFCF
(1713559029.140746) can0 5D1#9958000200000000
(1713559029.140990) can0 5D2#7444540000000000
(1713559029.141238) can0 450#0054E0001B004A00
(1713559029.142388) can0 400#6400000000000061
(1713559029.142628) can0 128#1388030000EC7828
(1713559029.142868) can0 12A#1028103C005800B3
(1713559029.143118) can0 12D#000000000000005F
(1713559029.143385) can0 12E#0000000000000035
(1713559029.143615) can0 12F#000000000000005F
(1713559029.143864) can0 290#000000000000005F
(1713559029.146759) can0 410#644000629F6E9D3B
(1713559029.147443) can0 120#000000000700004F
(1713559029.147691) can0 121#000000000000005F
(1713559029.147935) can0 129#000000010000005B
(1713559029.148171) can0 174#008000452179006F
(1713559029.148409) can0 178#E67F000003930045
(1713559029.148651) can0 17C#F07F01002F69005F
(1713559029.150241) can0 541#0440E800007FFFD9
(1713559029.152402) can0 400#6400000000000080
(1713559029.152648) can0 12D#000000000000006A
(1713559029.152894) can0 12F#000000000000006A
(1713559029.153144) can0 290#000000000000006A
(1713559029.153454) can0 140#0000030000000000
(1713559029.156787) can0 410#644000619F6E9D5D
(1713559029.157857) can0 174#008000451C7901DF
(1713559029.158089) can0 178#EE7F0136FE9201A7
(1713559029.158324) can0 17C#F47F01002969012E
(1713559029.160226) can0 551#000000000004C000
(1713559029.160475) can0 5D1#9958000200000000
(1713559029.162349) can0 12F#000000000000008B
(1713559029.162589) can0 128#1388030000EC7842
(1713559029.162830) can0 12D#000000000000008B
(1713559029.163079) can0 12E#000000000000005F
(1713559029.163350) can0 290#000000000000008B
(1713559029.163574) can0 400#64000000000000B5
(1713559029.166703) can0 410#644000619F6E9D68
(1713559029.167542) can0 120#000000000700007A
(1713559029.167793) can0 121#000000000000006A
(1713559029.168041) can0 129#000000010000006E
(1713559029.168273) can0 174#FC7F00451C7902E3
(1713559029.168512) can0 178#F87F0230FF9202B2
(1713559029.168752) can0 17C#FA7F010032690290
(1713559029.170170) can0 541#0440E800007FFF38
(1713559029.172489) can0 400#64000000000000DF
(1713559029.172737) can0 12D#00000000000000BE
(1713559029.172982) can0 12F#00000000000000BE
(1713559029.173231) can0 290#00000000000000BE
(1713559029.174029) can0 140#0000030000000000
(1713559029.176735) can0 410#644000609F6E9D8D
(1713559029.177856) can0 174#F67F00451C790396
(1713559029.178091) can0 178#F87F03310493031C
(1713559029.178335) can0 17C#F87F01003F6903B2
(1713559029.180283) can0 551#000000000004C000
(1713559029.180533) can0 5D1#9958000200000000
(1713559029.182384) can0 12F#00000000000000D4
(1713559029.182625) can0 128#1388030000EC7877
(1713559029.182864) can0 12D#00000000000000D4
(1713559029.183108) can0 12E#000000000000006A
(1713559029.183381) can0 290#00000000000000D4
(1713559029.183603) can0 400#640000000000003E
(1713559029.183848) can0 540#000000103F009B00
(1713559029.184088) can0 5B0#63420000000000C9
(1713559029.185458) can0 550#48000C00010000A8
(1713559029.186653) can0 410#644000609F6E9DB8
(1713559029.187645) can0 120#000000000700009B
(1713559029.187889) can0 121#000000000000008B
(1713559029.188131) can0 129#000000010000008F
(1713559029.188363) can0 174#F47F0045197904F6
(1713559029.188597) can0 178#F47F043807930472
(1713559029.188833) can0 17C#F27F01004A690448
(1713559029.192566) can0 541#0440E800007FFF52
(1713559029.192804) can0 12A#1028103C005800D9
(1713559029.193049) can0 12D#0000000000000035
(1713559029.193295) can0 12F#0000000000000035
(1713559029.193543) can0 290#0000000000000035
(1713559029.193791) can0 400#6400000000000054
(1713559029.194087) can0 552#00FFFFFFFFFFFF2E
(1713559029.194338) can0 450#0054E0001B004A00
(1713559029.194588) can0 140#0000030000000000
(1713559029.196698) can0 410#6440005F9F6E9DCF
(1713559029.197867) can0 174#F87F004517790559
(1713559029.198102) can0 178#F07F05310A9305E8
(1713559029.198337) can0 17C#EC7F0100466905E7
(1713559029.200235) can0 551#000000000004C000
(1713559029.200482) can0 5D1#9958000200000000
(1713559029.202529) can0 12F#000000000000005F
(1713559029.202771) can0 128#1388030000EC7896
(1713559029.203015) can0 12D#000000000000005F
(1713559029.203258) can0 12E#000000000000008B
(1713559029.203508) can0 290#000000000000005F
(1713559029.203754) can0 400#6400000000000061
(1713559029.206629) can0 410#6440005F9F6E9D2E
(1713559029.207735) can0 120#00000000070000AE
(1713559029.207980) can0 121#00000000000000BE
(1713559029.208222) can0 129#00000001000000BA
(1713559029.208458) can0 174#FA7F00451A790641
(1713559029.208692) can0 178#F67F06321293060C
(1713559029.208934) can0 17C#F07F010031690600
(1713559029.210234) can0 541#0440E800007FFF67
(1713559029.212655) can0 12F#000000000000006A
(1713559029.212901) can0 12D#000000000000006A
(1713559029.213150) can0 290#000000000000006A
(1713559029.213398) can0 400#6400000000000080
(1713559029.214453) can0 4EA#0000000000000000
(1713559029.214699) can0 5B2#0800000000000000
(1713559029.214944) can0 310#FFFFFFFF7D7D0000
(1713559029.215194) can0 140#0000030000000000
(1713559029.216650) can0 410#6440005E9F6E9D40
(1713559029.217871) can0 174#F47F0045217907F5
(1713559029.218104) can0 178#0080073918930721
(1713559029.218348) can0 17C#F87F01001F6907F6
(1713559029.220219) can0 551#000000000004C000
(1713559029.220467) can0 5D1#9958000200000000
(1713559029.222452) can0 12F#000000000000008B
(1713559029.222687) can0 128#1388030000EC78A3
(1713559029.222941) can0 12D#000000000000008B
(1713559029.223181) can0 12E#00000000000000BE
(1713559029.223430) can0 290#000000000000008B
(1713559029.223673) can0 400#64000000000000B5
(1713559029.226620) can0 410#6440005E9F6E9D75
(1713559029.227830) can0 120#00000000070000C4
(1713559029.228073) can0 121#00000000000000D4
(1713559029.228316) can0 129#00000001000000D0
(1713559029.228548) can0 174#EC7F004529790829
(1713559029.228780) can0 178#0880082D1D9308D6
(1713559029.229018) can0 17C#FE7F010024690836
(1713559029.230172) can0 541#0440E800007FFF86
(1713559029.232621) can0 12F#00000000000000BE
(1713559029.232868) can0 12D#00000000000000BE
(1713559029.233117) can0 290#00000000000000BE
(1713559029.233366) can0 400#64000000000000DF
(1713559029.235458) can0 550#48000C00010000C2
(1713559029.235708) can0 140#0000030000000000
(1713559029.236594) can0 410#6440005E9F6E9D94
(1713559029.237879) can0 5D0#9958010200000000
(1713559029.238107) can0 174#EA7F00452C79096E
(1713559029.238343) can0 178#0A800930229309DF
(1713559029.238583) can0 17C#0080010032690997
(1713559029.238819) can0 5B1#008A9A68000000A3
(1713559029.239058) can0 5CF#7444540000000000
(1713559029.240304) can0 551#000000000004C000
(1713559029.240556) can0 552#00FFFFFFFFFFFF44
(1713559029.240802) can0 5D1#9958000200000000
(1713559029.241046) can0 5D2#7444540000000000
(1713559029.241294) can0 450#0054E0001B004A00
(1713559029.242536) can0 12F#00000000000000D4
(1713559029.242771) can0 128#1388030000EC78C9
(1713559029.243017) can0 12A#1028103C00580038
(1713559029.243256) can0 12D#00000000000000D4
(1713559029.243501) can0 12E#00000000000000D4
(1713559029.243746) can0 290#00000000000000D4
(1713559029.243993) can0 400#640000000000003E
(1713559029.246568) can0 410#6440005D9F6E9DAD
(1713559029.247826) can0 174#EC7F004527790A1A
(1713559029.248072) can0 120#0000000007000025
(1713559029.248321) can0 121#0000000000000035
(1713559029.248565) can0 129#0000000100000031
(1713559029.248799) can0 178#0A800A3227930AE8
(1713559029.249039) can0 17C#FA7F01003D690AFE
(1713559029.250173) can0 541#0440E800007FFFB3
(1713559029.252652) can0 12F#F81002200000002E
(1713559029.252897) can0 12D#0000000000000035
(1713559029.253146) can0 290#0000000000000035
(1713559029.253394) can0 400#6400000000000054
(1713559029.256160) can0 140#0000030000000000
(1713559029.256558) can0 410#6440005D9F6E9DC7
(1713559029.257882) can0 174#EC7F004525790B04
(1713559029.258112) can0 178#0E800B362A930B3D
(1713559029.258346) can0 17C#F47F010045690BA6
(1713559029.260225) can0 551#000000000004C000
(1713559029.260472) can0 5D1#9958000200000000
(1713559029.262490) can0 12F#F80002200000004F
(1713559029.262732) can0 128#1388010000EC7826
(1713559029.262982) can0 12D#000000000000005F
(1713559029.263226) can0 12E#000000000000C02E
(1713559029.263485) can0 290#000000000000005F
(1713559029.263725) can0 400#6400000000000061
(1713559029.266560) can0 410#6440005D9F6E9D26
(1713559029.267831) can0 174#EC7F00452A790CD1
(1713559029.268063) can0 178#14800C302A930CDD
(1713559029.268309) can0 120#000000000700004F
(1713559029.268557) can0 121#000000000000005F
(1713559029.268801) can0 129#000000010000005B
(1713559029.269037) can0 17C#F27F010048690CA3
(1713559029.270227) can0 541#0440E800007FFFD9
(1713559029.272653) can0 12F#F810012000000078
(1713559029.272898) can0 12D#000000000000006A
(1713559029.273147) can0 290#000000000000006A
(1713559029.273396) can0 400#6400000000000080
(1713559029.276559) can0 410#6440005D9F6E9D4C
(1713559029.276806) can0 140#0000030000000000
(1713559029.277891) can0 174#EE7F004532790D62
(1713559029.278128) can0 178#1680000023930D54
(1713559029.278364) can0 17C#F47F010045690DE8
(1713559029.280218) can0 551#000000000004C000
(1713559029.280464) can0 5D1#9958000200000000
(1713559029.282471) can0 12F#F80002200000009B
(1713559029.282707) can0 128#1388010000EC784C
(1713559029.282953) can0 12D#000000000000008B
(1713559029.283197) can0 12E#000000000000C044
(1713559029.283446) can0 290#000000000000008B
(1713559029.283699) can0 400#64000000000000B5
(1713559029.283939) can0 540#000000103F009B00
(1713559029.284180) can0 5B0#6342000000000028
(1713559029.285454) can0 550#48000C0001000023
(1713559029.286557) can0 410#6440005D9F6E9D79
(1713559029.287845) can0 174#F07F004537790E74
(1713559029.288076) can0 178#1480013014930E6E
(1713559029.288324) can0 120#000000000700007A
(1713559029.288577) can0 121#000000000000006A
(1713559029.288825) can0 129#000000010000006E
(1713559029.289063) can0 17C#F67F010040690EFC
(1713559029.290185) can0 541#0440E800007FFF38
(1713559029.290439) can0 552#00FFFFFFFFFFFF71
(1713559029.290689) can0 450#0054E0001B004A00
(1713559029.292744) can0 12F#F8100220000000A5
(1713559029.292975) can0 12A#1428701C6058004C
(1713559029.293223) can0 12D#00000000000000BE
(1713559029.293471) can0 290#00000000000000BE
(1713559029.293722) can0 400#64000000000000DF
(1713559029.296560) can0 410#6440005D9F6E9D98
(1713559029.297223) can0 140#0000030000000000
(1713559029.297904) can0 174#F27F00453D790FDC
(1713559029.298136) can0 178#0C80023209930F1C
(1713559029.298372) can0 17C#FA7F010045690FD3
(1713559029.300295) can0 551#000000000004C000
(1713559029.300542) can0 5D1#9958000200000000
(1713559029.302477) can0 12F#F8000220000000C4
(1713559029.302714) can0 128#1388010000EC7879
(1713559029.302959) can0 12D#00000000000000D4
(1713559029.303207) can0 12E#000000000000C071
(1713559029.303453) can0 290#00000000000000D4
(1713559029.303702) can0 400#640000000000003E
(1713559029.306564) can0 410#6440005D9F6E9DAD
(1713559029.307900) can0 174#F47F00454A790076
(1713559029.308131) can0 178#0480033609930051
(1713559029.308376) can0 120#000000000700009B
(1713559029.308620) can0 121#000000000000008B
(1713559029.308862) can0 129#000000010000008F
(1713559029.309100) can0 17C#008001004D6900AC
(1713559029.310216) can0 541#0440E800007FFF52
(1713559029.312570) can0 12F#F81002200000002E
(1713559029.312814) can0 12D#0000000000000035
(1713559029.313062) can0 290#0000000000000035
(1713559029.313311) can0 400#6400000000000054
(1713559029.314183) can0 4EA#0000000000000000
(1713559029.314428) can0 5B2#0800000000000000
(1713559029.314674) can0 310#FFFFFFFF7D7D0000
(1713559029.316477) can0 410#6440005D9F6E6EC2
(1713559029.317705) can0 140#0000030000000000
(1713559029.317984) can0 174#F67F00455379014A
(1713559029.318219) can0 178#008004350C93011D
(1713559029.318455) can0 17C#028001004B69010E
(1713559029.320218) can0 551#000000000004C000
(1713559029.320463) can0 5D1#9958000200000000
(1713559029.322419) can0 12F#F810022000000044
(1713559029.322653) can0 128#1388030000EC7896
(1713559029.322903) can0 12D#000000000000005F
(1713559029.323149) can0 12E#000000000000C090
(1713559029.323401) can0 290#000000000000005F
(1713559029.323645) can0 400#6400000000000061
(1713559029.326531) can0 410#6440005E9F6E6E2F
(1713559029.327924) can0 174#F67F00454E7902F0
(1713559029.328154) can0 178#02800530119302A4
(1713559029.328390) can0 17C#02800100426902AA
(1713559029.328636) can0 120#00000000070000AE
(1713559029.328882) can0 121#00000000000000BE
(1713559029.329124) can0 129#00000001000000BA
(1713559029.330283) can0 541#0440E800007FFF67
(1713559029.332567) can0 12F#F80002200000007A
(1713559029.332812) can0 12D#000000000000006A
(1713559029.333062) can0 290#000000000000006A
(1713559029.333316) can0 400#6400000000000080
(1713559029.335407) can0 550#48000C0001000049
(1713559029.336444) can0 410#648000609F6E6E42
(1713559029.337859) can0 174#F67F0045427903E7
(1713559029.338093) can0 178#048006311A9303C9
(1713559029.338343) can0 140#0000030000000000
(1713559029.338583) can0 17C#048001003A690320
(1713559029.338819) can0 5B1#008A9A68000000C9
(1713559029.339061) can0 5D0#9958010200000000
(1713559029.339307) can0 5CF#7444540000000000
(1713559029.340235) can0 551#000000000004C000
(1713559029.340490) can0 552#00FFFFFFFFFFFF90
(1713559029.340739) can0 5D1#9958000200000000
(1713559029.340979) can0 5D2#7444540000000000
(1713559029.341226) can0 450#0054E0001B004A00
(1713559029.342451) can0 12F#F810022000000090
(1713559029.342684) can0 128#1388030000EC78A3
(1713559029.342916) can0 12A#1428701C60580079
(1713559029.343163) can0 12D#000000000000008B
(1713559029.343409) can0 12E#000000000000C0A5
(1713559029.343654) can0 290#0010000000000080
(1713559029.343900) can0 400#64000000000000B5
(1713559029.346564) can0 410#648000649F6E6E67
(1713559029.347916) can0 174#FA7F00453F7904C2
(1713559029.348149) can0 178#04800731229304D4
(1713559029.348385) can0 17C#0480010038690470
(1713559029.348631) can0 120#00000000070000C4
(1713559029.348874) can0 121#00000000000000D4
(1713559029.349117) can0 129#00000001000000D0
(1713559029.350217) can0 541#0440E800007FFF86
(1713559029.352578) can0 12F#F8100120000000AC
(1713559029.352825) can0 12D#00000000000000BE
(1713559029.353071) can0 290#00100000000000B5
(1713559029.353359) can0 400#64000000000000DF
(1713559029.356516) can0 410#648000679F6E6E8A
(1713559029.357867) can0 174#FE7F0045437905F4
(1713559029.358102) can0 178#0280083122930566
(1713559029.358344) can0 17C#FE7F01003F69052F
(1713559029.358764) can0 140#0000030000000000
(1713559029.360282) can0 551#000000000004C000
(1713559029.360530) can0 5D1#9958000200000000
(1713559029.362450) can0 12F#F8000220000000C4
(1713559029.362685) can0 128#1388030000EC78C9
(1713559029.362928) can0 12D#00000000000000D4
(1713559029.363173) can0 12E#000000000000C0CF
(1713559029.363421) can0 290#00000000000000D4
(1713559029.363667) can0 400#640000000000003E
(1713559029.366523) can0 410#6480006A9F6E6EBE
(1713559029.367918) can0 174#FE7F004548790653
(1713559029.368151) can0 178#F87F09301A93065A
(1713559029.368394) can0 17C#F67F010046690611
(1713559029.368637) can0 120#0000000007000025
(1713559029.368884) can0 121#0000000000000035
(1713559029.369128) can0 129#0000000100000031
(1713559029.370208) can0 541#0440E800007FFFB3
(1713559029.372636) can0 12F#F81002200000002E
(1713559029.372882) can0 12D#0000000000000035
(1713559029.373130) can0 290#000000020000003D
(1713559029.373456) can0 400#6400000000000054
(1713559029.375180) can0 6AB#ACC2A57596A3C162
(1713559029.376517) can0 410#6480006C9F6E6ECC
(1713559029.377886) can0 174#FE7F0045437907CE
(1713559029.378122) can0 178#F07F0A381C9307B2
(1713559029.378357) can0 17C#F47F01004B690733
(1713559029.379295) can0 140#0000030000000000
(1713559029.380216) can0 551#000000000004C000
(1713559029.380465) can0 5D1#9958000200000000
(1713559029.382461) can0 12F#F80002200000004F
(1713559029.382697) can0 128#1388030000EC7828
(1713559029.382947) can0 12D#000000000000005F
(1713559029.383192) can0 12E#000000000000C02E
(1713559029.383440) can0 290#0000000200000057
(1713559029.383684) can0 400#6400000000000061
(1713559029.384234) can0 540#000000103F009B00
(1713559029.384476) can0 5B0#6342000000000042
(1713559029.385456) can0 550#48000C000100007C
(1713559029.386557) can0 410#6480006C9F6E6E2D
(1713559029.387926) can0 174#FE7F00453779083B
(1713559029.388163) can0 178#F47F000022930811
(1713559029.388406) can0 17C#FC7F01003D690817
(1713559029.388676) can0 120#000000000700004F
(1713559029.388918) can0 121#000000000000005F
(1713559029.389161) can0 129#000000010000005B
(1713559029.390295) can0 541#0440E800007FFFD9
(1713559029.390549) can0 552#00FFFFFFFFFFFFA5
(1713559029.390800) can0 450#0054E0001B004A00
(1713559029.392734) can0 12F#F810022000000071
(1713559029.392967) can0 12A#1428701C60580098
(1713559029.393213) can0 12D#000000000000006A
(1713559029.393461) can0 290#0000000200000062
(1713559029.393709) can0 400#6400000000000080
(1713559029.396500) can0 410#6480006D9F6E6E43
(1713559029.397874) can0 174#FC7F004527790984
(1713559029.398106) can0 178#FC7F013023930954
(1713559029.398342) can0 17C#02800100296909B5
(1713559029.399828) can0 140#0000030000000000
(1713559029.400191) can0 551#000000000004C000
(1713559029.400438) can0 5D1#9958000200000000
(1713559029.402461) can0 12F#F810022000000090
(1713559029.402701) can0 128#1388030000EC7842
(1713559029.402941) can0 12D#000000000000008B
(1713559029.403185) can0 12E#000000000000C044
(1713559029.403440) can0 290#0000000200000083
(1713559029.403690) can0 400#64000000000000B5
(1713559029.406493) can0 410#6480006E9F6E6E7A
(1713559029.407931) can0 174#F87F004519790AEB
(1713559029.408170) can0 178#008000001C930AC3
(1713559029.408406) can0 17C#0280010026690A14
(1713559029.408770) can0 120#000000000700007A
(1713559029.409022) can0 121#000000000000006A
(1713559029.409270) can0 129#000000010000006E
(1713559029.410222) can0 541#0440E800007FFF38
(1713559029.412691) can0 12F#F8000220000000AE
(1713559029.412935) can0 12D#00000000000000BE
(1713559029.413181) can0 290#00000002000000B6
(1713559029.413701) can0 400#64000000000000DF
(1713559029.414013) can0 4EA#0000000000000000
(1713559029.414210) can0 5B2#0800000000000000
(1713559029.414455) can0 310#FFFFFFFF7D7D0000
(1713559029.416418) can0 410#6480006E9F6E6E9B
(1713559029.417883) can0 174#F67F00451E790B7D
(1713559029.418113) can0 178#FC7F015311930B21
(1713559029.418349) can0 17C#FC7F010031690B3A
(1713559029.420225) can0 551#000000000004C000
(1713559029.420474) can0 140#0000030000000000
(1713559029.420714) can0 5D1#9958000200000000
(1713559029.422460) can0 12F#F8100220000000CF
(1713559029.422694) can0 128#1388030000EC7877
(1713559029.422939) can0 12D#00000000000000D4
(1713559029.423188) can0 12E#000000000000C071
(1713559029.423437) can0 290#00000002000000DC
(1713559029.423761) can0 400#640000000000003E
(1713559029.426439) can0 410#6480006E9F6E6EAE
(1713559029.427941) can0 174#F87F004532790C15
(1713559029.428171) can0 178#F67F02430C930C1C
(1713559029.428403) can0 17C#F67F010042690CC5
(1713559029.428855) can0 120#000000000700009B
(1713559029.429099) can0 121#000000000000008B
(1713559029.429342) can0 129#000000010000008F
(1713559029.430212) can0 541#0440E800007FFF52
(1713559029.432798) can0 12F#F810012000000027
(1713559029.433038) can0 12D#0000000000000035
(1713559029.433284) can0 290#000000020000003D
(1713559029.433794) can0 400#6400000000000054
(1713559029.435457) can0 550#48000C000100009D
(1713559029.436414) can0 410#6480006E9F6E6EC4
(1713559029.437890) can0 174#FC7F004542790D29
(1713559029.438120) can0 178#FC7F03320C930D65
(1713559029.438354) can0 17C#F67F010050690DC3
(1713559029.438730) can0 5D0#9958010200000000
(1713559029.438968) can0 5B1#008A9A6800000028
(1713559029.439206) can0 5CF#7444540000000000
(1713559029.440182) can0 551#000000000004C000
(1713559029.440435) can0 552#00FFFFFFFFFFFFCF
(1713559029.440681) can0 5D1#9958000200000000
(1713559029.440931) can0 140#0000030000000000
(1713559029.441169) can0 5D2#7444540000000000
(1713559029.441417) can0 450#0054E0001B004A00
(1713559029.442473) can0 12F#F80002200000004F
(1713559029.442707) can0 128#1388030000EC7896
(1713559029.442942) can0 12A#1428701C605800AD
(1713559029.443191) can0 12D#000000000000005F
(1713559029.443438) can0 12E#000000000000C090
(1713559029.443683) can0 290#0000000200000057
(1713559029.443930) can0 400#6400000000000061
(1713559029.444218) can0 5A0#0000006244928029
(1713559029.446380) can0 410#6480006E9F6E6E25
(1713559029.447949) can0 174#FC7F004543790E81
(1713559029.448178) can0 178#0480043009930E95
(1713559029.448416) can0 17C#F87F010053690E69
(1713559029.448953) can0 120#00000000070000AE
(1713559029.449199) can0 121#00000000000000BE
(1713559029.449441) can0 129#00000001000000BA
(1713559029.450277) can0 541#0440E800007FFF67
(1713559029.452709) can0 12F#F810022000000071
(1713559029.452960) can0 12D#000000000000006A
(1713559029.453203) can0 290#0000000200000062
(1713559029.453892) can0 400#6400000000000080
(1713559029.455986) can0 410#6480006E9F6E6E4F
(1713559029.457898) can0 174#F87F00453B790FB1
(1713559029.458129) can0 178#0A80053004930F66
(1713559029.458365) can0 17C#FA7F010051690FCD
(1713559029.460162) can0 551#000000000004C000
(1713559029.460409) can0 5D1#9958000200000000
(1713559029.461416) can0 140#0000030000000000
(1713559029.462407) can0 12F#F80002200000009B
(1713559029.462644) can0 128#1388030000EC78A3
(1713559029.462890) can0 12D#000000000000008B
(1713559029.463135) can0 12E#000000000000C0A5
(1713559029.463387) can0 290#0000000200000083
(1713559029.463910) can0 400#64000000000000B5
(1713559029.465958) can0 410#6480006E9F6E6E7A
(1713559029.467949) can0 174#F67F00453479008D
(1713559029.468183) can0 178#0C80063206930094
(1713559029.468421) can0 17C#FA7F01004D690064
(1713559029.469049) can0 120#00000000070000C4
(1713559029.469293) can0 121#00000000000000D4
(1713559029.469535) can0 129#00000001000000D0
(1713559029.470206) can0 541#0440E800007FFF86
(1713559029.472692) can0 12F#F8100220000000A5
(1713559029.472938) can0 12D#00000000000000BE
(1713559029.473191) can0 290#00000002000000B6
(1713559029.474002) can0 400#64000000000000DF
(1713559029.475935) can0 410#6480006E9F6E6E9B
(1713559029.477906) can0 174#F67F004534790190
(1713559029.478134) can0 178#088007370A930153
(1713559029.478376) can0 17C#FA7F0100486901F0
(1713559029.480674) can0 551#000000000004C000
(1713559029.480922) can0 5D1#9958000200000000
(1713559029.481946) can0 140#0000030000000000
(1713559029.482410) can0 12F#F8100220000000CF
(1713559029.482646) can0 128#1388030000EC78C9
(1713559029.482890) can0 12D#00000000000000D4
(1713559029.483135) can0 12E#000000000000C0CF
(1713559029.483385) can0 290#00000002000000DC
(1713559029.484009) can0 400#640000000000003E
(1713559029.484700) can0 540#000000103F009B00
(1713559029.484940) can0 5B0#6342000000000077
(1713559029.485457) can0 550#48000C00010000A8
(1713559029.485902) can0 410#6480006E9F6E6EAE
(1713559029.487965) can0 174#F67F0045407902F9
(1713559029.488198) can0 178#0080085F0A930298
(1713559029.488435) can0 17C#FA7F01004A6902D4
(1713559029.489148) can0 120#0000000007000025
(1713559029.489397) can0 121#0000000000000035
(1713559029.489641) can0 129#0000000100000031
(1713559029.490221) can0 541#0440E800007FFFB3
(1713559029.490475) can0 552#00FFFFFFFFFFFF2E
(1713559029.490723) can0 450#0054E0001B004A00
(1713559029.492801) can0 12F#F800022000000025
(1713559029.493035) can0 12A#1428701C605800C7
(1713559029.493289) can0 12D#0000000000000035
(1713559029.493531) can0 290#000000020000003D
(1713559029.494092) can0 400#6400000000000054
(1713559029.495881) can0 410#6480006E9F6E6EC4
(1713559029.497913) can0 174#F67F004553790370
(1713559029.498150) can0 178#F87F0930099303A7
(1713559029.498388) can0 17C#FA7F0100506903DE
(1713559029.500171) can0 551#000000000004C000
(1713559029.500420) can0 5D1#9958000200000000
(1713559029.502366) can0 12F#F810022000000044
(1713559029.502604) can0 128#1388030000EC7828
(1713559029.502854) can0 12D#000000000000005F
(1713559029.503098) can0 12E#000000000000C02E
(1713559029.503350) can0 140#0000030000000000
(1713559029.503595) can0 290#001000020000005C
(1713559029.504111) can0 400#6400000000000061
(1713559029.505852) can0 410#6480006E9F6E6E25
(1713559029.507965) can0 174#F67F00455979042C
(1713559029.508198) can0 178#F27F0A371293044E
(1713559029.508428) can0 17C#FA7F01004E69049C
(1713559029.509243) can0 120#000000000700004F
(1713559029.509492) can0 121#000000000000005F
(1713559029.509736) can0 129#000000010000005B
(1713559029.510272) can0 541#0440E800007FFFD9
(1713559029.512624) can0 12F#F810012000000078
(1713559029.512868) can0 12D#000000000000006A
(1713559029.513112) can0 290#0010000200000069
(1713559029.513847) can0 4EA#0000000000000000
(1713559029.514086) can0 5B2#0800000000000000
(1713559029.514330) can0 310#FFFFFFFF7D7D0000
(1713559029.514579) can0 400#6400000000000080
(1713559029.515825) can0 410#6480006E9F6E6E4F
(1713559029.517919) can0 174#F87F00455179053C
(1713559029.518148) can0 178#F07F0B311D93056C
(1713559029.518386) can0 17C#FE7F01004369056D
(1713559029.520150) can0 551#000000000004C000
(1713559029.520398) can0 5D1#9958000200000000
(1713559029.522324) can0 12F#F80002200000009B
(1713559029.522558) can0 128#1388030000EC7842
(1713559029.522805) can0 12D#000000000000008B
(1713559029.523048) can0 12E#000000000000C044
(1713559029.523298) can0 140#0000030000000000
(1713559029.523551) can0 290#0000000200000083
(1713559029.524216) can0 400#64000000000000B5
(1713559029.525797) can0 410#6480006E9F6E6E7A
(1713559029.527973) can0 174#FA7F0045457906BF
(1713559029.528209) can0 178#F67F00001F9306A0
(1713559029.528450) can0 17C#06800100386906F0
(1713559029.529348) can0 120#000000000700007A
(1713559029.529600) can0 121#000000000000006A
(1713559029.529848) can0 129#000000010000006E
(1713559029.530226) can0 541#0440E800007FFF38
(1713559029.532614) can0 12F#F8100220000000A5
(1713559029.532861) can0 12D#00000000000000BE
(1713559029.533106) can0 290#00000002000000B6
(1713559029.534307) can0 400#64000000000000DF
(1713559029.535461) can0 550#48000C00010000C2
(1713559029.535771) can0 410#6480006E9F6E6E9B
(1713559029.537971) can0 174#FA7F00453A79076C
(1713559029.538175) can0 178#FE7F01371C930712
(1713559029.538393) can0 17C#0A8001002C690748
(1713559029.538783) can0 5D0#9958010200000000
(1713559029.539019) can0 5B1#008A9A6800000042
(1713559029.539257) can0 5CF#7444540000000000
(1713559029.540242) can0 551#000000000004C000
(1713559029.540495) can0 552#00FFFFFFFFFFFF44
(1713559029.540743) can0 55A#0017160000000000
(1713559029.540989) can0 5D1#9958000200000000
(1713559029.541233) can0 5D2#7444540000000000
(1713559029.541481) can0 450#0054E0001B004A00
(1713559029.542441) can0 12F#F8000220000000C4
(1713559029.542675) can0 128#1388030000EC7877
(1713559029.542909) can0 12A#1428701C60580026
(1713559029.543153) can0 12D#00000000000000D4
(1713559029.543402) can0 12E#000000000000C071
(1713559029.543651) can0 140#0000030000000000
(1713559029.543899) can0 290#00000002000000DC
(1713559029.544138) can0 5A0#0000006244928043
(1713559029.544386) can0 400#640000000000003E
(1713559029.545693) can0 410#6480006E9F6E6EAE
(1713559029.547980) can0 174#F87F004534790864
(1713559029.548211) can0 178#0280022E1C930828
(1713559029.548451) can0 17C#0E8001002169081F
(1713559029.549431) can0 120#000000000700009B
(1713559029.549675) can0 121#000000000000008B
(1713559029.549917) can0 129#000000010000008F
(1713559029.550227) can0 541#0440E800007FFF52
(1713559029.552630) can0 12F#F81002200000002E
(1713559029.552874) can0 12D#0000000000000035
(1713559029.553122) can0 290#000000020000003D
(1713559029.554404) can0 400#6400000000000054
(1713559029.555722) can0 410#6480006E9F6E6EC4
(1713559029.557976) can0 174#F47F00452C7909D6
(1713559029.558206) can0 178#FE7F03311A93090C
(1713559029.558392) can0 17C#1080010024690933
(1713559029.560161) can0 551#000000000004C000
(1713559029.560410) can0 5D1#9958000200000000
(1713559029.562330) can0 12F#F810022000000044
(1713559029.562564) can0 128#1388030000EC7896
(1713559029.562814) can0 12D#000000000000005F
(1713559029.563060) can0 12E#000000000000C090
(1713559029.563306) can0 290#001000020000005C
(1713559029.564073) can0 140#0000030000000000
(1713559029.564408) can0 400#6400000000000061
(1713559029.565643) can0 410#6480006E9F6E6E25
(1713559029.567980) can0 174#F27F004525790AA1
(1713559029.568209) can0 178#FA7F04301C930AD1
(1713559029.568447) can0 17C#0C80010038690A04
(1713559029.569527) can0 120#00000000070000AE
(1713559029.569773) can0 121#00000000000000BE
(1713559029.570015) can0 129#00000001000000BA
(1713559029.570282) can0 541#0440E800007FFF67
(1713559029.572623) can0 12F#F80002200000007A
(1713559029.572868) can0 12D#000000000000006A
(1713559029.573112) can0 290#0010000200000069
(1713559029.574502) can0 400#6400000000000080
(1713559029.575692) can0 410#6480006E9F6E6E4F
(1713559029.577982) can0 174#F27F00451E790B14
(1713559029.578216) can0 178#FC7F00001C930BC5
(1713559029.578435) can0 17C#0480010045690B06
(1713559029.580153) can0 551#000000000004C000
(1713559029.580404) can0 5D1#9958000200000000
(1713559029.582366) can0 12F#F810022000000090
(1713559029.582602) can0 128#1388030000EC78A3
(1713559029.582848) can0 12D#000000000000008B
(1713559029.583092) can0 12E#000000000000C0A5
(1713559029.583348) can0 290#0020000200000095
(1713559029.584513) can0 400#64000000000000B5
(1713559029.584763) can0 140#0000030000000000
(1713559029.585107) can0 540#000000103F009B00
(1713559029.585349) can0 5B0#6342000000000096
(1713559029.585591) can0 550#48000C0001000023
(1713559029.585825) can0 410#6480006E9F6E6E7A
(1713559029.587988) can0 174#F27F004511790CC1
(1713559029.588221) can0 178#068001381D930C48
(1713559029.588460) can0 17C#028001003B690CC7
(1713559029.589624) can0 120#00000000070000C4
(1713559029.589868) can0 121#00000000000000D4
(1713559029.590110) can0 129#00000001000000D0
(1713559029.590353) can0 541#0440E800007FFF86
(1713559029.590605) can0 552#00FFFFFFFFFFFF71
(1713559029.590853) can0 450#0054E0001B004A00
(1713559029.592716) can0 12F#F8100220000000A5
(1713559029.592945) can0 12A#1428701C6058004C
(1713559029.593193) can0 12D#00000000000000BE
(1713559029.593439) can0 290#00200002000000A0
(1713559029.594600) can0 400#64000000000000DF
(1713559029.595640) can0 410#6480006E9F6E6E9B
(1713559029.597988) can0 174#F47F004508790D94
(1713559029.598224) can0 178#128002321F930D83
(1713559029.598460) can0 17C#0280010031690DD5
(1713559029.600229) can0 551#000000000004C000
(1713559029.600478) can0 5D1#9958000200000000
(1713559029.602338) can0 12F#F8000220000000C4
(1713559029.602574) can0 128#1388030000EC78C9
(1713559029.602818) can0 12D#00000000000000D4
(1713559029.603062) can0 12E#000000000000C0CF
(1713559029.603311) can0 290#00000002000000DC
(1713559029.604605) can0 400#640000000000003E
(1713559029.605143) can0 140#0000030000000000
(1713559029.605557) can0 410#6480006E9F6E6EAE
(1713559029.608001) can0 174#F47F00450C790EB5
(1713559029.608231) can0 178#148003321A930E94
(1713559029.608469) can0 17C#0080010037690E4D
(1713559029.609723) can0 120#0000000007000025
(1713559029.609971) can0 121#0000000000000035
(1713559029.610215) can0 129#0000000100000031
(1713559029.610458) can0 541#0440E800007FFFB3
(1713559029.612613) can0 12F#F81002200000002E
(1713559029.612858) can0 12D#0000000000000035
(1713559029.613106) can0 290#000000020000003D
(1713559029.613620) can0 4EA#0000000000000000
(1713559029.613864) can0 5B2#0800000000000000
(1713559029.614110) can0 310#FFFFFFFF7D7D0000
(1713559029.614695) can0 400#6400000000000054
(1713559029.615587) can0 410#6480006E9F6E6EC4
(1713559029.617999) can0 174#F47F004517790F30
(1713559029.618231) can0 178#148004350D930FE4
(1713559029.618473) can0 17C#008001003F690F5C
(1713559029.620150) can0 551#000000000004C000
(1713559029.620399) can0 5D1#9958000200000000
(1713559029.622333) can0 12F#F80002200000004F
(1713559029.622571) can0 128#1388030000EC7828
(1713559029.622821) can0 12D#000000000000005F
(1713559029.623065) can0 12E#000000000000C02E
(1713559029.623311) can0 290#0000000200000057
(1713559029.624700) can0 400#6400000000000061
(1713559029.625506) can0 410#6480006E9F6E6E25
(1713559029.625756) can0 140#0000030000000000
(1713559029.628006) can0 174#F27F00451E7900DB
(1713559029.628246) can0 178#1080000003930036
(1713559029.628484) can0 17C#FE7F0100346900C6
(1713559029.629823) can0 120#000000000700004F
(1713559029.630069) can0 121#000000000000005F
(1713559029.630313) can0 129#000000010000005B
(1713559029.630555) can0 541#0440E800007FFFD9
(1713559029.632631) can0 12F#F810022000000071
(1713559029.632869) can0 12D#000000000000006A
(1713559029.633117) can0 290#0000000200000062
(1713559029.634791) can0 400#6400000000000080
(1713559029.635460) can0 550#48000C0001000049
(1713559029.635690) can0 410#6480006E9F6E6E4F
(1713559029.638008) can0 174#F27F0046197901F6
(1713559029.638242) can0 178#0C800132FE92014A
(1713559029.638482) can0 17C#F87F010022690115
(1713559029.638803) can0 5D0#9958010200000000
(1713559029.639040) can0 5B1#008A9A6800000077
(1713559029.639278) can0 5CF#7444540000000000
(1713559029.640168) can0 551#000000000004C000
(1713559029.640424) can0 552#00FFFFFFFFFFFF90
(1713559029.640670) can0 5D1#9958000200000000
(1713559029.640914) can0 5D2#7444540000000000
(1713559029.641162) can0 450#0054E0001B004A00
(1713559029.642388) can0 12F#F810022000000090
(1713559029.642622) can0 128#1388030000EC7842
(1713559029.642854) can0 12A#1428701C60580079
(1713559029.643100) can0 12D#000000000000008B
(1713559029.643346) can0 12E#000000000000C044
(1713559029.643596) can0 290#0000000200000083
(1713559029.643834) can0 5A0#0000006244928076
(1713559029.644802) can0 400#64000000000000B5
(1713559029.645423) can0 410#6480006E9F6E6E7A
(1713559029.646217) can0 140#0000030000000000
(1713559029.648019) can0 174#EC7F004514790256
(1713559029.648251) can0 178#08800230FF920212
(1713559029.648491) can0 17C#EE7F010022690258
(1713559029.649918) can0 120#000000000700007A
(1713559029.650170) can0 121#000000000000006A
(1713559029.650418) can0 129#000000010000006E
(1713559029.650662) can0 541#0440E800007FFF38
(1713559029.652630) can0 12F#F8100220000000A5
(1713559029.652876) can0 12D#00000000000000BE
(1713559029.653122) can0 290#00000002000000B6
(1713559029.654884) can0 400#64000000000000DF
(1713559029.655453) can0 410#6480006E9F6E6E9B
(1713559029.658012) can0 174#E47F00451C790395
(1713559029.658245) can0 178#008003320393035E
(1713559029.658481) can0 17C#EA7F01002D6903AA
(1713559029.660220) can0 551#000000000004C000
(1713559029.660468) can0 5D1#9958000200000000
(1713559029.662338) can0 12F#F8000220000000C4
(1713559029.662572) can0 128#1388030000EC7877
(1713559029.662816) can0 12D#00000000000000D4
(1713559029.663065) can0 12E#000000000000C071
(1713559029.663313) can0 290#00000002000000DC
(1713559029.664879) can0 400#640000000000003E
(1713559029.665370) can0 410#6480006E9F6E6EAE
(1713559029.666804) can0 140#0000030000000000
(1713559029.668011) can0 174#E27F00452F7904B1
(1713559029.668244) can0 178#FA7F04330993045C
(1713559029.668484) can0 17C#EC7F01003A6904B8
(1713559029.670014) can0 120#000000000700009B
(1713559029.670258) can0 121#000000000000008B
(1713559029.670501) can0 129#000000010000008F
(1713559029.672597) can0 12F#F81002200000002E
(1713559029.672841) can0 12D#0000000000000035
(1713559029.673089) can0 290#000000020000003D
(1713559029.673331) can0 541#0440E800007FFF52
(1713559029.674995) can0 400#6400000000000054
(1713559029.675445) can0 410#6480006E9F6E6EC4
(1713559029.678028) can0 174#E47F00453D790564
(1713559029.678259) can0 178#FC7F05310D9305D9
(1713559029.678495) can0 17C#F07F0100426905E3
(1713559029.680150) can0 551#000000000004C000
(1713559029.680399) can0 5D1#9958000200000000
(1713559029.682351) can0 12F#F81001200000004D
(1713559029.682585) can0 128#1388030000EC7896
(1713559029.682835) can0 12D#000000000000005F
(1713559029.683081) can0 12E#000000000000C090
(1713559029.683329) can0 290#001000020000005C
(1713559029.684977) can0 400#6400000000000061
(1713559029.685319) can0 410#6480006E9F6E6E25
(1713559029.685562) can0 550#48000C000100007C
(1713559029.685808) can0 540#000000103F009B00
(1713559029.686050) can0 5B0#63420000000000A3
(1713559029.687350) can0 140#0000030000000000
(1713559029.688023) can0 174#EC7F00454A790653
(1713559029.688259) can0 178#0680063011930607
(1713559029.688493) can0 17C#F27F0100456906F4
(1713559029.690109) can0 120#00000000070000AE
(1713559029.690355) can0 121#00000000000000BE
(1713559029.690598) can0 129#00000001000000BA
(1713559029.690842) can0 541#0440E800007FFF67
(1713559029.691114) can0 552#00FFFFFFFFFFFFA5
(1713559029.691384) can0 450#0054E0001B004A00
(1713559029.692746) can0 12F#F810022000000071
(1713559029.692979) can0 12A#1428701C60580098
(1713559029.693224) can0 12D#000000000000006A
(1713559029.693468) can0 290#0010000200000069
(1713559029.695091) can0 400#6400000000000080
(1713559029.695350) can0 410#6480006E9F6E6E4F
(1713559029.698037) can0 174#F07F0045537907D7
(1713559029.698273) can0 178#0C80073118930706
(1713559029.698509) can0 17C#F67F01004E690700
(1713559029.700160) can0 551#000000000004C000
(1713559029.700409) can0 5D1#9958000200000000
(1713559029.702333) can0 12F#F80002200000009B
(1713559029.702569) can0 128#1388030000EC78A3
(1713559029.702815) can0 12D#000000000000008B
(1713559029.703059) can0 12E#000000000000C0A5
(1713559029.703311) can0 290#0000000200000083
(1713559029.705065) can0 400#64000000000000B5
(1713559029.705299) can0 410#6480006E9F6E6E7A
(1713559029.707876) can0 140#0000030000000000
(1713559029.708106) can0 174#F47F00455B790809
(1713559029.708340) can0 178#0A8008381F930899
(1713559029.708576) can0 17C#FC7F01005C6908C8
(1713559029.710199) can0 541#0440E800007FFF86
(1713559029.710445) can0 120#00000000070000C4
(1713559029.710689) can0 121#00000000000000D4
(1713559029.710931) can0 129#00000001000000D0
(1713559029.712608) can0 12F#F8100220000000A5
(1713559029.712853) can0 12D#00000000000000BE
(1713559029.713099) can0 290#00000002000000B6
(1713559029.713348) can0 4EA#0000000000000000
(1713559029.713595) can0 5B2#0800000000000000
(1713559029.713840) can0 310#FFFFFFFF7D7D0000
(1713559029.715166) can0 400#64000000000000DF
(1713559029.715407) can0 410#6480006E9F6E6E9B
(1713559029.718026) can0 174#FA7F00455B790915
(1713559029.718265) can0 178#028000001C93095E
(1713559029.718502) can0 17C#0080010063690960
(1713559029.720208) can0 551#000000000004C000
(1713559029.720456) can0 5D1#9958000200000000
(1713559029.722339) can0 12F#F8100220000000CF
(1713559029.722575) can0 128#1388030000EC78C9
(1713559029.722818) can0 12D#00000000000000D4
(1713559029.723062) can0 12E#000000000000C0CF
(1713559029.723310) can0 290#00000002000000DC
(1713559029.725165) can0 400#640000000000003E
(1713559029.725399) can0 410#6480006E9F6E6EAE
(1713559029.728031) can0 174#FE7F004555790A52
(1713559029.728265) can0 178#FA7F000012930A02
(1713559029.728515) can0 140#0000030000000000
(1713559029.728751) can0 17C#008001005E690AEA
(1713559029.730199) can0 541#0440E800007FFFB3
(1713559029.730447) can0 120#0000000007000025
(1713559029.730695) can0 121#0000000000000035
(1713559029.730939) can0 129#0000000100000031
(1713559029.732700) can0 12F#F81002200000002E
(1713559029.732944) can0 12D#0000000000000035
(1713559029.733192) can0 290#000000020000003D
(1713559029.735270) can0 400#6400000000000054
(1713559029.735502) can0 410#6480006E9F6E6EC4
(1713559029.735741) can0 550#48000C000100009D
(1713559029.738034) can0 174#068000454D790B29
(1713559029.738271) can0 178#F47F01520D930B7C
(1713559029.738506) can0 17C#028001005B690BC4
(1713559029.738846) can0 5D0#9958010200000000
(1713559029.739081) can0 5B1#008A9A6800000096
(1713559029.739271) can0 5CF#7444540000000000
(1713559029.740165) can0 551#000000000004C000
(1713559029.740419) can0 552#00FFFFFFFFFFFFCF
(1713559029.740665) can0 5D1#9958000200000000
(1713559029.740909) can0 5D2#7444540000000000
(1713559029.741157) can0 450#0054E0001B004A00
(1713559029.742401) can0 12F#F80002200000004F
(1713559029.742639) can0 128#1388030000EC7828
(1713559029.742873) can0 12A#1428701C605800AD
(1713559029.743123) can0 12D#000000000000005F
(1713559029.743369) can0 12E#000000000000C02E
(1713559029.743613) can0 290#001000020000005C
(1713559029.743849) can0 5A0#0000006244928097
(1713559029.745272) can0 400#6400000000000061
(1713559029.745508) can0 410#6480006E9F6E6E25
(1713559029.748045) can0 174#088000453D790C33
(1713559029.748271) can0 178#F27F026F0C930CED
(1713559029.748506) can0 17C#068001005C690C74
(1713559029.748944) can0 140#0000030000000000
(1713559029.750264) can0 541#0440E800007FFFD9
(1713559029.750511) can0 120#000000000700004F
(1713559029.750759) can0 121#000000000000005F
(1713559029.751003) can0 129#000000010000005B
(1713559029.752643) can0 12F#F810022000000071
(1713559029.752887) can0 12D#000000000000006A
(1713559029.753131) can0 290#0010000200000069
(1713559029.755396) can0 400#6400000000000080
(1713559029.755584) can0 410#6480006E9F6E6E4F
(1713559029.758043) can0 174#068000452D790D37
(1713559029.758277) can0 178#F27F03620F930D59
(1713559029.758511) can0 17C#0480010058690DD5
(1713559029.760148) can0 551#000000000004C000
(1713559029.760397) can0 5D1#9958000200000000
(1713559029.762327) can0 12F#F810012000000099
(1713559029.762561) can0 128#1388030000EC7842
(1713559029.762807) can0 12D#000000000000008B
(1713559029.763052) can0 12E#000000000000C044
(1713559029.763304) can0 290#0000000200000083
(1713559029.765288) can0 410#6480006E9F6E6E7A
(1713559029.765535) can0 400#64000000000000B5
(1713559029.768047) can0 174#FE7F004525790E6E
(1713559029.768275) can0 178#EE7F04650F930E83
(1713559029.768512) can0 17C#008001004E690E86
(1713559029.769479) can0 140#0000030000000000
(1713559029.770194) can0 541#0440E800007FFF38
(1713559029.770499) can0 120#000000000700007A
(1713559029.770751) can0 121#000000000000006A
(1713559029.770999) can0 129#000000010000006E
(1713559029.772626) can0 12F#F8100220000000A5
(1713559029.772871) can0 12D#00000000000000BE
(1713559029.773117) can0 290#00000002000000B6
(1713559029.775313) can0 410#6480006E9F6E6E9B
(1713559029.775564) can0 400#64000000000000DF
(1713559029.778058) can0 174#F87F004624790F95
(1713559029.778283) can0 178#EE7F05720F930F25
(1713559029.778522) can0 17C#0080010050690F8A
(1713559029.780256) can0 551#000000000004C000
(1713559029.780504) can0 5D1#9958000200000000
(1713559029.782338) can0 12F#F8000220000000C4
(1713559029.782572) can0 128#1388030000EC7877
(1713559029.782816) can0 12D#00000000000000D4
(1713559029.783064) can0 12E#000000000000C071
(1713559029.783312) can0 290#00000002000000DC
(1713559029.785235) can0 410#6480006E9F6E6EAE
(1713559029.785479) can0 550#48000C00010000A8
(1713559029.785727) can0 400#640000000000003E
(1713559029.786049) can0 540#000000103F009B00
(1713559029.786289) can0 5B0#63420000000000C9
(1713559029.788000) can0 174#F67F00452179001C
(1713559029.788236) can0 178#F67F067409930027
(1713559029.788474) can0 17C#048001005E690051
(1713559029.790011) can0 140#0000030000000000
(1713559029.790252) can0 541#0440E800007FFF52
(1713559029.790506) can0 552#00FFFFFFFFFFFF2E
(1713559029.790752) can0 120#000000000700009B
(1713559029.790999) can0 121#000000000000008B
(1713559029.791239) can0 129#000000010000008F
(1713559029.791482) can0 450#0054E0001B004A00
(1713559029.792718) can0 12F#F81002200000002E
(1713559029.792953) can0 12A#1428701C605800C7
(1713559029.793199) can0 12D#0000000000000035
(1713559029.793447) can0 290#000000020000003D
(1713559029.795259) can0 410#6480006E9F6E6EC4
(1713559029.795552) can0 400#6400000000000054
(1713559029.798058) can0 174#F87F00451E7901AE
(1713559029.798296) can0 178#FC7F0720FE920189
(1713559029.798534) can0 17C#088001006F690150
(1713559029.800209) can0 551#000000000004C000
(1713559029.800456) can0 5D1#9958000200000000
(1713559029.802350) can0 12F#F810022000000044
(1713559029.802583) can0 128#1388030000EC7896
(1713559029.802834) can0 12D#000000000000005F
(1713559029.803080) can0 12E#000000000000C090
(1713559029.803328) can0 290#0000000200000057
(1713559029.805183) can0 410#6480006E9F6E6E25
(1713559029.805536) can0 400#6400000000000061
(1713559029.808007) can0 174#FC7F00452179024E
(1713559029.808238) can0 178#FC7F0842F892022E
(1713559029.808475) can0 17C#0A800100796902D0
(1713559029.810259) can0 541#0440E800007FFF67
(1713559029.810552) can0 140#0000030000000000
(1713559029.810797) can0 120#00000000070000AE
(1713559029.811048) can0 121#00000000000000BE
(1713559029.811286) can0 129#00000001000000BA
(1713559029.812616) can0 12F#F810022000000071
(1713559029.812861) can0 12D#000000000000006A
(1713559029.813109) can0 290#0000000200000062
(1713559029.813359) can0 4EA#0000000000000000
(1713559029.813605) can0 5B2#0800000000000000
(1713559029.813850) can0 310#FFFFFFFF7D7D0000
(1713559029.815204) can0 410#6480006E9F6E6E4F
(1713559029.815642) can0 400#6400000000000080
(1713559029.818061) can0 174#FC7F0045247903DA
(1713559029.818295) can0 178#FC7F096FF99203D3
(1713559029.818541) can0 17C#0A8001007669034B
(1713559029.820195) can0 551#000000000004C000
(1713559029.820441) can0 5D1#9958000200000000
(1713559029.822374) can0 12F#F80002200000009B
(1713559029.822577) can0 128#1388030000EC78A3
(1713559029.822823) can0 12D#000000000000008B
(1713559029.823067) can0 12E#000000000000C0A5
(1713559029.823326) can0 290#0010000200000088
(1713559029.825128) can0 410#6480006E9F6E6E7A
(1713559029.825631) can0 400#64000000000000B5
(1713559029.828014) can0 174#F87F00451E7904C7
(1713559029.828256) can0 178#04800A73FF9204BE
(1713559029.828494) can0 17C#0A8001006C69040F
(1713559029.830196) can0 541#0440E800007FFF86
(1713559029.830788) can0 120#00000000070000C4
(1713559029.831033) can0 121#00000000000000D4
(1713559029.831275) can0 129#00000001000000D0
(1713559029.831527) can0 140#0000030000000000
(1713559029.832647) can0 12F#F8100220000000A5
(1713559029.832895) can0 12D#00000000000000BE
(1713559029.833141) can0 290#00100002000000BD
(1713559029.834967) can0 410#6480006E9F6E6E9B
(1713559029.835457) can0 550#48000C00010000C2
(1713559029.835736) can0 400#64000000000000DF
(1713559029.838074) can0 174#F07F004510790501
(1713559029.838310) can0 178#12800B6303930548
(1713559029.838547) can0 17C#08800100606905A2
(1713559029.838870) can0 5D0#9958010200000000
(1713559029.839100) can0 5B1#008A9A68000000A3
(1713559029.839356) can0 5CF#7444540000000000
(1713559029.840277) can0 551#000000000004C000
(1713559029.840528) can0 552#00FFFFFFFFFFFF44
(1713559029.840774) can0 5D1#9958000200000000
(1713559029.841018) can0 5D2#7444540000000000
(1713559029.841266) can0 450#0054E0001B004A00
(1713559029.842442) can0 12F#F8100220000000CF
(1713559029.842677) can0 128#1388030000EC78C9
(1713559029.842863) can0 12A#1428701C60580026
(1713559029.843106) can0 12D#00000000000000D4
(1713559029.843351) can0 12E#000000000000C0CF
(1713559029.843598) can0 290#00000002000000DC
(1713559029.843836) can0 5A0#00000062449280A2
(1713559029.844888) can0 410#6480006E9F6E6EAE
(1713559029.845730) can0 400#640000000000003E
(1713559029.848019) can0 174#EA7F004505790666
(1713559029.848254) can0 178#1C800C6803930643
(1713559029.848490) can0 17C#0280010053690649
(1713559029.850145) can0 541#0440E800007FFFB3
(1713559029.850839) can0 120#0000000007000025
(1713559029.851087) can0 121#0000000000000035
(1713559029.851341) can0 129#0000000100000031
(1713559029.851589) can0 140#0000030000000000
(1713559029.852638) can0 12F#F81002200000002E
(1713559029.852884) can0 12D#0000000000000035
(1713559029.853133) can0 290#000000020000003D
(1713559029.854914) can0 410#6480006E9F6E6EC4
(1713559029.855832) can0 400#6400000000000054
(1713559029.858074) can0 174#EA7F00450579077B
(1713559029.858316) can0 178#1E800D2001930785
(1713559029.858554) can0 17C#FC7F010046690764
(1713559029.860198) can0 551#000000000004C000
(1713559029.860449) can0 5D1#9958000200000000
(1713559029.862381) can0 12F#F80002200000004F
(1713559029.862618) can0 128#1388030000EC7828
(1713559029.862869) can0 12D#000000000000005F
(1713559029.863113) can0 12E#000000000000C02E
(1713559029.863392) can0 290#0000000200000057
(1713559029.864838) can0 410#6480006E9F6E6E25
(1713559029.865829) can0 400#6400000000000061
(1713559029.868024) can0 174#EC7F0046137908B4
(1713559029.868261) can0 178#1A800E47FF92080E
(1713559029.868501) can0 17C#F87F0100346908FD
(1713559029.870197) can0 541#0440E800007FFFD9
(1713559029.870932) can0 120#000000000700004F
(1713559029.871180) can0 121#000000000000005F
(1713559029.871425) can0 129#000000010000005B
(1713559029.872142) can0 140#0000030000000000
(1713559029.872627) can0 12F#F810022000000071
(1713559029.872872) can0 12D#000000000000006A
(1713559029.873122) can0 290#0000000200000062
(1713559029.874859) can0 410#6480006E9F6E6E4F
(1713559029.875933) can0 400#6400000000000080
(1713559029.878077) can0 174#EC7F00462C790907
(1713559029.878315) can0 178#18800F6D019309FF
(1713559029.878549) can0 17C#F47F01001E690964
(1713559029.880190) can0 551#000000000004C000
(1713559029.880446) can0 5D1#9958000200000000
(1713559029.882379) can0 12F#F810022000000090
(1713559029.882611) can0 128#1388030000EC7842
(1713559029.882858) can0 12D#000000000000008B
(1713559029.883102) can0 12E#000000000000C044
(1713559029.883378) can0 290#0010000200000088
(1713559029.884781) can0 410#6480006E9F6E6E7A
(1713559029.885404) can0 550#48000C0001000023
(1713559029.885928) can0 400#64000000000000B5
(1713559029.886556) can0 540#000000103F009B00
(1713559029.886798) can0 5B0#6342000000000028
(1713559029.888029) can0 174#E87F004542790AAA
(1713559029.888262) can0 178#1480006209930A7B
(1713559029.888496) can0 17C#F27F010019690A1A
(1713559029.890157) can0 541#0440E800007FFF38
(1713559029.890409) can0 552#00FFFFFFFFFFFF71
(1713559029.890657) can0 450#0054E0001B004A00
(1713559029.891031) can0 120#000000000700007A
(1713559029.891283) can0 121#000000000000006A
(1713559029.891531) can0 129#000000010000006E
(1713559029.892676) can0 140#0000030000000000
(1713559029.892907) can0 12A#1428701C6058004C
(1713559029.893156) can0 12D#00000000000000BE
(1713559029.893398) can0 12F#F8100220000000A5
