(1713560009.685363) can0 541#0440E800007FFF52
(1713560009.687341) can0 12F#F820022000000033
(1713560009.687563) can0 12D#0000000000000035
(1713560009.687823) can0 290#000000020000003D
(1713560009.690047) can0 400#28800000000000A1
(1713560009.690280) can0 174#EC7F00553A790CEC
(1713560009.690515) can0 178#F07F04382B930CC9
(1713560009.690753) can0 17C#F67F010038690C82
(1713560009.693761) can0 410#2980008B9F6E8BA4
(1713560009.694573) can0 140#0000030000000000
(1713560009.695199) can0 120#00000008070000D1
(1713560009.695444) can0 121#00000000000000D4
(1713560009.695683) can0 129#00000001000000D0
(1713560009.695930) can0 551#000000000004C000
(1713560009.696178) can0 5D1#9958000200000000
(1713560009.697442) can0 12F#F820022000000059
(1713560009.697676) can0 128#1388030000EC7896
(1713560009.697931) can0 12D#000000000000005F
(1713560009.698173) can0 12E#000000000000C090
(1713560009.698418) can0 290#0000000200000057
(1713560009.698667) can0 4EA#0000000000000000
(1713560009.698913) can0 5B2#0800000000000000
(1713560009.699159) can0 310#FFFFFFFF7D7D0000
(1713560009.700117) can0 400#28800000000000CB
(1713560009.700355) can0 174#F07F005634790D40
(1713560009.700572) can0 178#E67F05312B930DD5
(1713560009.700811) can0 17C#FA7F01003F690DAE
(1713560009.703725) can0 410#2980008B9F6E8BCE
(1713560009.705347) can0 541#0440E800007FFF67
(1713560009.707257) can0 12F#F82002200000006C
(1713560009.707504) can0 12D#000000000000006A
(1713560009.707751) can0 290#0000000200000062
(1713560009.710138) can0 400#288000000000002A
(1713560009.710368) can0 174#F27F005532790E62
(1713560009.710598) can0 178#E27F06321F930EB1
(1713560009.710834) can0 17C#0280010037690EF7
(1713560009.711080) can0 540#000000104000A000
(1713560009.711329) can0 5B0#6342000000000077
(1713560009.713726) can0 410#2980008B9F6E8B2F
(1713560009.715109) can0 140#0000030000000000
(1713560009.715376) can0 120#0000000807000030
(1713560009.715606) can0 121#0000000000000035
(1713560009.715850) can0 129#0000000100000031
(1713560009.716097) can0 551#000000000004C000
(1713560009.716346) can0 5D1#9958000200000000
(1713560009.717495) can0 12F#F82002200000008D
(1713560009.717731) can0 128#1388030000EC78A3
(1713560009.717977) can0 12D#000000000000008B
(1713560009.718221) can0 12E#000000000000C0A5
(1713560009.718473) can0 290#0000000200000083
(1713560009.720180) can0 174#F27F00562F790F58
(1713560009.720413) can0 178#E87F073911930F81
(1713560009.720648) can0 17C#0A8001002D690F2F
(1713560009.720896) can0 400#2880000000000040
(1713560009.721406) can0 550#48000C0001000023
(1713560009.723703) can0 410#2980008B9F6E8B45
(1713560009.725398) can0 541#0440E800007FFF86
(1713560009.725652) can0 552#00FFFFFFFFFFFF71
(1713560009.725900) can0 450#005680001B004A00
(1713560009.727386) can0 12F#F8300220000000B3
(1713560009.727616) can0 12A#1428701C6058004C
(1713560009.727864) can0 12D#00000000000000BE
(1713560009.728110) can0 290#00000002000000B6
(1713560009.730192) can0 174#F27F0056297900E6
(1713560009.730426) can0 178#F07F082D0A9300DE
(1713560009.730663) can0 17C#108001002D690045
(1713560009.730909) can0 400#2880000000000075
(1713560009.733685) can0 410#2980008B9F6E8B70
(1713560009.735422) can0 120#000000080700005A
(1713560009.735668) can0 121#000000000000005F
(1713560009.735912) can0 129#000000010000005B
(1713560009.736162) can0 140#0000030000000000
(1713560009.736408) can0 551#000000000004C000
(1713560009.736658) can0 5D1#9958000200000000
(1713560009.737475) can0 12F#F8200220000000D2
(1713560009.737711) can0 128#1388030000EC78C9
(1713560009.737955) can0 12D#00000000000000D4
(1713560009.738199) can0 12E#000000000000C0CF
(1713560009.738447) can0 290#00000002000000DC
(1713560009.740209) can0 174#F27F0056277901F2
(1713560009.740443) can0 178#F67F09300D93019A
(1713560009.740679) can0 17C#10800100346901C3
(1713560009.740926) can0 400#2880000000000094
(1713560009.741174) can0 6B9#0020400000000000
(1713560009.741418) can0 5A2#1410140000000000
(1713560009.743669) can0 410#2980008B9F6E8B91
(1713560009.745402) can0 541#0440E800007FFFB3
(1713560009.747305) can0 12F#F820022000000033
(1713560009.747545) can0 12D#0000000000000035
(1713560009.747800) can0 290#000000020000003D
(1713560009.750221) can0 174#F27F0056297902DC
(1713560009.750457) can0 178#FC7F0A32129302D2
(1713560009.750689) can0 17C#02800100386902ED
(1713560009.750934) can0 400#28800000000000A1
(1713560009.753644) can0 410#2980008B9F6E8BA4
(1713560009.755351) can0 551#000000000004C000
(1713560009.755597) can0 120#000000080700006F
(1713560009.755850) can0 121#000000000000006A
(1713560009.756098) can0 129#000000010000006E
(1713560009.756348) can0 140#0000030000000000
(1713560009.756588) can0 5D1#9958000200000000
(1713560009.757430) can0 12F#F820022000000059
(1713560009.757668) can0 128#1388030000EC7828
(1713560009.757919) can0 12D#000000000000005F
(1713560009.758163) can0 12E#000000000000C02E
(1713560009.758409) can0 290#001000020000005C
(1713560009.760182) can0 174#EE7F00562D7903C5
(1713560009.760417) can0 178#02800B36159303C0
(1713560009.760658) can0 17C#F07F0100386903EA
(1713560009.760903) can0 400#28800000000000CB
(1713560009.763618) can0 410#2980008B9F6E8BCE
(1713560009.765402) can0 541#0440E800007FFFD9
(1713560009.767357) can0 12F#F82003200000006B
(1713560009.767569) can0 12D#000000000000006A
(1713560009.767810) can0 290#0010000200000069
(1713560009.770233) can0 174#EE7F005635790482
(1713560009.770469) can0 178#00800C3017930448
(1713560009.770717) can0 17C#E67F01003D69045A
(1713560009.770957) can0 400#288000000000002A
(1713560009.771440) can0 550#48000C0001000049
(1713560009.773589) can0 410#2980008B9F6E8B2F
(1713560009.775364) can0 5D0#9958010200000000
(1713560009.775609) can0 551#000000000004C000
(1713560009.775855) can0 120#000000080700008E
(1713560009.776099) can0 121#000000000000008B
(1713560009.776341) can0 129#000000010000008F
(1713560009.776588) can0 552#00FFFFFFFFFFFF90
(1713560009.776838) can0 140#0000030000000000
(1713560009.777074) can0 5B1#008A9A6800000077
(1713560009.777312) can0 5CF#7444640000000000
(1713560009.777546) can0 128#1388030000EC7842
(1713560009.777778) can0 12A#1428701C60580079
(1713560009.778024) can0 12D#000000000000008B
(1713560009.778268) can0 12E#000000000000C044
(1713560009.778510) can0 12F#F82002200000008D
(1713560009.778763) can0 290#0000000200000083
(1713560009.779001) can0 5A0#0000006244928076
(1713560009.779241) can0 5D1#9958000200000000
(1713560009.779488) can0 5D2#7444640000000000
(1713560009.779733) can0 450#005680001B004A00
(1713560009.780183) can0 174#F27F00553D79052B
(1713560009.780419) can0 178#FC7F00001A930566
(1713560009.780653) can0 17C#EA7F0100456905B8
(1713560009.780902) can0 400#2880000000000040
(1713560009.783563) can0 410#2980008B9F6E8B45
(1713560009.785397) can0 541#0440E800007FFF38
(1713560009.787273) can0 12F#F8200220000000B8
(1713560009.787522) can0 12D#00000000000000BE
(1713560009.787766) can0 290#00000002000000B6
(1713560009.790242) can0 174#F27F00563A79063C
(1713560009.790478) can0 178#F87F01301893062E
(1713560009.790721) can0 17C#F87F010040690615
(1713560009.790969) can0 400#2880000000000075
(1713560009.793538) can0 410#2980008B9F6E8B70
(1713560009.795352) can0 551#000000000004C000
(1713560009.795600) can0 5D1#9958000200000000
(1713560009.795845) can0 120#00000008070000BB
(1713560009.796091) can0 121#00000000000000BE
(1713560009.796333) can0 129#00000001000000BA
(1713560009.797169) can0 140#0000030000000000
(1713560009.797413) can0 12D#00000000000000D4
(1713560009.797647) can0 128#1388030000EC7877
(1713560009.797895) can0 12E#000000000000C071
(1713560009.798135) can0 12F#F8200220000000D2
(1713560009.798383) can0 290#00000002000000DC
(1713560009.798633) can0 4EA#0000000000000000
(1713560009.798879) can0 5B2#0800000000000000
(1713560009.799124) can0 310#FFFFFFFF7D7D0000
(1713560009.800189) can0 174#F07F005632790797
(1713560009.800422) can0 178#FA7F023218930710
(1713560009.800663) can0 17C#048001002D6907C6
(1713560009.800909) can0 400#2880000000000094
(1713560009.803512) can0 410#2980008B9F6E8B91
(1713560009.805393) can0 541#0440E800007FFF52
(1713560009.807220) can0 12F#F830022000000038
(1713560009.807467) can0 12D#0000000000000035
(1713560009.807714) can0 290#000000020000003D
(1713560009.810252) can0 174#EE7F00552F7908B3
(1713560009.810486) can0 178#028003361C9308FB
(1713560009.810722) can0 17C#0A80010019690852
(1713560009.810971) can0 400#28800000000000A1
(1713560009.811384) can0 540#000000104000A000
(1713560009.811601) can0 5B0#6342000000000096
(1713560009.813507) can0 410#2980008B9F6E8BA4
(1713560009.815356) can0 551#000000000004C000
(1713560009.815601) can0 5D1#9958000200000000
(1713560009.815844) can0 120#00000008070000D1
(1713560009.816088) can0 121#00000000000000D4
(1713560009.816331) can0 129#00000001000000D0
(1713560009.817399) can0 12F#F820022000000059
(1713560009.817633) can0 128#1388030000EC7896
(1713560009.817883) can0 12D#000000000000005F
(1713560009.818129) can0 12E#000000000000C090
(1713560009.818379) can0 140#0000030000000000
(1713560009.818625) can0 290#0000000200000057
(1713560009.820208) can0 174#F07F005630790932
(1713560009.820437) can0 178#048004351C930984
(1713560009.820675) can0 17C#0480010017690947
(1713560009.820922) can0 400#28800000000000CB
(1713560009.821388) can0 550#48000C000100007C
(1713560009.823485) can0 410#2980008B9F6E8BCE
(1713560009.825418) can0 541#0440E800007FFF67
(1713560009.825669) can0 552#00FFFFFFFFFFFFA5
(1713560009.825915) can0 450#005680001B004A00
(1713560009.827285) can0 12F#F82002200000006C
(1713560009.827515) can0 12A#1428701C60580098
(1713560009.827765) can0 12D#000000000000006A
(1713560009.828012) can0 290#0000000200000062
(1713560009.830249) can0 174#F07F00552F790A31
(1713560009.830481) can0 178#0480053018930A1C
(1713560009.830717) can0 17C#FC7F010024690AB6
(1713560009.830965) can0 400#288000000000002A
(1713560009.833466) can0 410#2980008B9F6E8B2F
(1713560009.835406) can0 551#000000000004C000
(1713560009.835651) can0 5D1#9958000200000000
(1713560009.835903) can0 120#0000000807000030
(1713560009.836152) can0 121#0000000000000035
(1713560009.836396) can0 129#0000000100000031
(1713560009.837426) can0 12F#F82002200000008D
(1713560009.837662) can0 128#1388030000EC78A3
(1713560009.837907) can0 12D#000000000000008B
(1713560009.838151) can0 12E#000000000000C0A5
(1713560009.838401) can0 140#0000030000000000
(1713560009.838653) can0 290#0000000200000083
(1713560009.840206) can0 174#F27F005629790B29
(1713560009.840440) can0 178#048006311A930B21
(1713560009.840680) can0 17C#F87F010038690BD0
(1713560009.840928) can0 400#2880000000000040
(1713560009.841570) can0 6B9#0020400000000000
(1713560009.841814) can0 5A2#1410140000000000
(1713560009.843377) can0 410#2980008B9F6E8B45
(1713560009.845397) can0 541#0440E800007FFF86
(1713560009.847291) can0 12F#F8200220000000B8
(1713560009.847538) can0 12D#00000000000000BE
(1713560009.847784) can0 290#00000002000000B6
(1713560009.850255) can0 174#F27F005629790C7A
(1713560009.850486) can0 178#068007311D930C28
(1713560009.850720) can0 17C#FE7F010045690C9D
(1713560009.850966) can0 400#2880000000000075
(1713560009.853402) can0 410#2980008B9F6E8B70
(1713560009.855397) can0 551#000000000004C000
(1713560009.855642) can0 5D1#9958000200000000
(1713560009.855998) can0 120#000000080700005A
(1713560009.856246) can0 121#000000000000005F
(1713560009.856490) can0 129#000000010000005B
(1713560009.857416) can0 12F#F8200220000000D2
(1713560009.857653) can0 128#1388030000EC78C9
(1713560009.857896) can0 12D#00000000000000D4
(1713560009.858140) can0 12E#000000000000C0CF
(1713560009.858388) can0 290#00000002000000DC
(1713560009.858736) can0 140#0000030000000000
(1713560009.860207) can0 174#F07F00562C790D54
(1713560009.860442) can0 178#0080083120930D37
(1713560009.860680) can0 17C#048001003D690D0C
(1713560009.860927) can0 400#2880000000000094
(1713560009.863330) can0 410#2980008B9F6E8B91
(1713560009.865350) can0 541#0440E800007FFFB3
(1713560009.867295) can0 12F#F820022000000033
(1713560009.867540) can0 12D#0000000000000035
(1713560009.867789) can0 290#000000020000003D
(1713560009.870262) can0 174#F07F00562F790EFF
(1713560009.870494) can0 178#FA7F093020930E2F
(1713560009.870732) can0 17C#0080010031690E48
(1713560009.870984) can0 400#28800000000000A1
(1713560009.871439) can0 550#48000C000100009D
(1713560009.873348) can0 410#2980008B9F6E8BA4
(1713560009.875419) can0 551#000000000004C000
(1713560009.875674) can0 552#00FFFFFFFFFFFFCF
(1713560009.875918) can0 5D1#9958000200000000
(1713560009.876167) can0 120#000000080700006F
(1713560009.876419) can0 121#000000000000006A
(1713560009.876667) can0 129#000000010000006E
(1713560009.876904) can0 5B1#008A9A6800000096
(1713560009.877146) can0 5D0#9958010200000000
(1713560009.877384) can0 5CF#7444640000000000
(1713560009.877622) can0 128#1388030000EC7828
(1713560009.877856) can0 12A#1428701C605800AD
(1713560009.878106) can0 12D#000000000000005F
(1713560009.878350) can0 12E#000000000000C02E
(1713560009.878592) can0 12F#F820022000000059
(1713560009.878839) can0 290#0000000200000057
(1713560009.879074) can0 5A0#0000006244928097
(1713560009.879331) can0 140#0000030000000000
(1713560009.879512) can0 5D2#7444640000000000
(1713560009.879762) can0 450#005680001B004A00
(1713560009.880214) can0 174#F07F005634790F7A
(1713560009.880450) can0 178#F87F0A3818930F8E
(1713560009.880688) can0 17C#FA7F01002C690F00
(1713560009.880958) can0 400#28800000000000CB
(1713560009.883290) can0 410#2980008B9F6E8BCE
(1713560009.885341) can0 541#0440E800007FFFD9
(1713560009.887301) can0 12F#F830022000000067
(1713560009.887547) can0 12D#000000000000006A
(1713560009.887795) can0 290#0000000200000062
(1713560009.890269) can0 174#F07F00563779004D
(1713560009.890507) can0 178#FA7F00000D93004E
(1713560009.890749) can0 17C#F87F01003169009C
(1713560009.891062) can0 400#288000000000002A
(1713560009.893344) can0 410#2980008B9F6E8B2F
(1713560009.895402) can0 551#000000000004C000
(1713560009.895648) can0 5D1#9958000200000000
(1713560009.896194) can0 120#000000080700008E
(1713560009.896438) can0 121#000000000000008B
(1713560009.896681) can0 129#000000010000008F
(1713560009.897477) can0 12F#F82002200000008D
(1713560009.897704) can0 128#1388030000EC7842
(1713560009.897949) can0 12D#000000000000008B
(1713560009.898192) can0 12E#000000000000C044
(1713560009.898443) can0 290#0010000200000088
(1713560009.898692) can0 4EA#0000000000000000
(1713560009.898938) can0 5B2#0800000000000000
(1713560009.899183) can0 310#FFFFFFFF7D7D0000
(1713560009.899836) can0 140#0000030000000000
(1713560009.900270) can0 174#F27F00553B79015A
(1713560009.900504) can0 178#FC7F01300793018A
(1713560009.900746) can0 17C#FA7F01003769013E
(1713560009.901110) can0 400#2880000000000040
(1713560009.903290) can0 410#2980008B9F6E8B45
(1713560009.905338) can0 541#0440E800007FFF38
(1713560009.907274) can0 12F#F8200220000000B8
(1713560009.907524) can0 12D#00000000000000BE
(1713560009.907770) can0 290#00100002000000BD
(1713560009.910277) can0 174#F47F0056427902DF
(1713560009.910521) can0 178#FC7F00000D9302A7
(1713560009.910757) can0 17C#FC7F01003A69024F
(1713560009.911164) can0 400#2880000000000075
(1713560009.911844) can0 540#000000104000A000
(1713560009.912083) can0 5B0#63420000000000A3
(1713560009.913341) can0 410#2980008B9F6E8B70
(1713560009.915399) can0 551#000000000004C000
(1713560009.915645) can0 5D1#9958000200000000
(1713560009.916287) can0 120#00000008070000BB
(1713560009.916534) can0 121#00000000000000BE
(1713560009.916776) can0 129#00000001000000BA
(1713560009.917464) can0 12F#F8200220000000D2
(1713560009.917705) can0 128#1388030000EC7877
(1713560009.917944) can0 12D#00000000000000D4
(1713560009.918190) can0 12E#000000000000C071
(1713560009.918439) can0 290#00000002000000DC
(1713560009.920280) can0 174#F47F005645790348
(1713560009.920527) can0 140#0000030000000000
(1713560009.920759) can0 178#FC7F0153179303CC
(1713560009.920997) can0 17C#FC7F010038690351
(1713560009.921250) can0 400#2880000000000094
(1713560009.921493) can0 550#48000C00010000A8
(1713560009.923288) can0 410#2980008B9F6E8B91
(1713560009.927293) can0 12F#F820022000000033
(1713560009.927529) can0 12A#1428701C605800C7
(1713560009.927776) can0 12D#0000000000000035
(1713560009.928024) can0 290#000000020000003D
(1713560009.928265) can0 541#0440E800007FFF52
(1713560009.928521) can0 552#00FFFFFFFFFFFF2E
(1713560009.928767) can0 450#005680001B004A00
(1713560009.930282) can0 174#F27F005646790444
(1713560009.930518) can0 178#F87F02431F930461
(1713560009.930758) can0 17C#FA7F0100326904DE
(1713560009.931260) can0 400#28800000000000A1
(1713560009.933342) can0 410#2980008B9F6E8BA4
(1713560009.935396) can0 551#000000000004C000
(1713560009.935649) can0 5D1#9958000200000000
(1713560009.936388) can0 120#00000008070000D1
(1713560009.936631) can0 121#00000000000000D4
(1713560009.936873) can0 129#00000001000000D0
(1713560009.937491) can0 12F#F820022000000059
(1713560009.937725) can0 128#1388030000EC7896
(1713560009.937984) can0 12D#000000000000005F
(1713560009.938224) can0 12E#000000000000C090
(1713560009.938468) can0 290#0000000200000057
(1713560009.940289) can0 174#F07F0056467905E3
(1713560009.940516) can0 178#F47F0332239305E9
(1713560009.940754) can0 17C#FA7F010021690557
(1713560009.941004) can0 140#0000030000000000
(1713560009.941302) can0 400#28800000000000CB
(1713560009.941846) can0 6B9#0020400000000000
(1713560009.942058) can0 5A2#1410140000000000
(1713560009.943289) can0 410#2980008B9F6E8BCE
(1713560009.945344) can0 541#0440E800007FFF67
(1713560009.947328) can0 12F#F82002200000006C
(1713560009.947566) can0 12D#000000000000006A
(1713560009.947814) can0 290#0000000200000062
(1713560009.950242) can0 174#F07F0056467906C4
(1713560009.950474) can0 178#F47F04302293066D
(1713560009.950714) can0 17C#FA7F01000E6906C6
(1713560009.951308) can0 400#288000000000002A
(1713560009.953342) can0 410#2980008B9F6E8B2F
(1713560009.955391) can0 551#000000000004C000
(1713560009.955637) can0 5D1#9958000200000000
(1713560009.956488) can0 120#0000000807000030
(1713560009.956735) can0 121#0000000000000035
(1713560009.956980) can0 129#0000000100000031
(1713560009.957414) can0 12F#F82002200000008D
(1713560009.957650) can0 128#1388030000EC78A3
(1713560009.957896) can0 12D#000000000000008B
(1713560009.958141) can0 12E#000000000000C0A5
(1713560009.958392) can0 290#0000000200000083
(1713560009.960303) can0 174#EE7F00554A7907D1
(1713560009.960524) can0 178#FA7F05301C93073A
(1713560009.960762) can0 17C#FE7F0100086907B7
(1713560009.961398) can0 140#0000030000000000
(1713560009.961647) can0 400#2880000000000040
(1713560009.963363) can0 410#2980008B9F6E8B45
(1713560009.965345) can0 541#0440E800007FFF86
(1713560009.967202) can0 12F#F8300220000000B3
(1713560009.967451) can0 12D#00000000000000BE
(1713560009.967696) can0 290#00000002000000B6
(1713560009.970240) can0 174#EE7F00564A7908D0
(1713560009.970473) can0 178#FE7F06321493087D
(1713560009.970713) can0 17C#0280010010690803
(1713560009.971388) can0 550#48000C00010000C2
(1713560009.971633) can0 400#2880000000000075
(1713560009.973342) can0 410#2980008B9F6E8B70
(1713560009.975415) can0 551#000000000004C000
(1713560009.975644) can0 5B1#008A9A68000000A3
(1713560009.975888) can0 552#00FFFFFFFFFFFF44
(1713560009.976130) can0 5D0#9958010200000000
(1713560009.976368) can0 5CF#7444640000000000
(1713560009.976608) can0 5D1#9958000200000000
(1713560009.976853) can0 120#000000080700005A
(1713560009.977100) can0 121#000000000000005F
(1713560009.977337) can0 128#1388030000EC78C9
(1713560009.977581) can0 129#000000010000005B
(1713560009.977815) can0 12A#1428701C60580026
(1713560009.978059) can0 12D#00000000000000D4
(1713560009.978304) can0 12E#000000000000C0CF
(1713560009.978544) can0 12F#F8200220000000D2
(1713560009.978792) can0 290#00000002000000DC
(1713560009.979030) can0 5A0#00000062449280A2
(1713560009.979268) can0 5D2#7444640000000000
(1713560009.979522) can0 450#005680001B004A00
(1713560009.980295) can0 174#F27F005645790949
(1713560009.980537) can0 178#FE7F07370F930941
(1713560009.980768) can0 17C#028001001E690917
(1713560009.981495) can0 400#2880000000000094
(1713560009.981925) can0 140#0000030000000000
(1713560009.983349) can0 410#2980008B9F6E8B91
(1713560009.985339) can0 541#0440E800007FFFB3
(1713560009.987470) can0 12F#F820022000000033
(1713560009.987715) can0 12D#0000000000000035
(1713560009.987963) can0 290#000000020000003D
(1713560009.990245) can0 174#F27F005643790A6B
(1713560009.990481) can0 178#FC7F085F0F930AE2
(1713560009.990720) can0 17C#0080010035690A3A
(1713560009.991500) can0 400#28800000000000A1
(1713560009.993340) can0 410#2980008B9F6E8BA4
(1713560009.995397) can0 551#000000000004C000
(1713560009.995638) can0 5D1#9958000200000000
(1713560009.996679) can0 120#000000080700006F
(1713560009.996931) can0 121#000000000000006A
(1713560009.997179) can0 129#000000010000006E
(1713560009.997416) can0 128#1388030000EC7828
(1713560009.997667) can0 12D#000000000000005F
(1713560009.997911) can0 12E#000000000000C02E
(1713560009.998153) can0 12F#F820022000000059
(1713560009.998399) can0 290#0000000200000057
(1713560009.998649) can0 4EA#0000000000000000
(1713560009.998895) can0 5B2#0800000000000000
(1713560009.999140) can0 310#FFFFFFFF7D7D0000
(1713560010.000308) can0 174#EE7F005643790B74
(1713560010.000558) can0 178#008009300F930B38
(1713560010.000788) can0 17C#FC7F01004B690B7D
(1713560010.001611) can0 400#28800000000000CB
(1713560010.002452) can0 140#0000030000000000
(1713560010.003304) can0 410#2980008B9F6E8BCE
(1713560010.003520) can0 6AB#A5CD1C2E77A3E100
(1713560010.005346) can0 541#0440E800007FFFD9
(1713560010.007379) can0 12F#F82002200000006C
(1713560010.007619) can0 12D#000000000000006A
(1713560010.007867) can0 290#0000000200000062
(1713560010.010253) can0 174#EA7F005645790C4B
(1713560010.010485) can0 178#06800A370C930C7E
(1713560010.010721) can0 17C#F47F01004D690CF9
(1713560010.011600) can0 400#288000000000002A
(1713560010.012293) can0 540#000000104000A000
(1713560010.012533) can0 5B0#63420000000000C9
(1713560010.013293) can0 410#2980008B9F6E8B2F
(1713560010.015397) can0 551#000000000004C000
(1713560010.015640) can0 5D1#9958000200000000
(1713560010.016775) can0 120#000000080700008E
(1713560010.017019) can0 121#000000000000008B
(1713560010.017262) can0 129#000000010000008F
(1713560010.017496) can0 128#1388030000EC7842
(1713560010.017742) can0 12D#000000000000008B
(1713560010.017986) can0 12E#000000000000C044
(1713560010.018228) can0 12F#F82002200000008D
(1713560010.018478) can0 290#0010000200000088
(1713560010.020309) can0 174#E67F005646790D61
(1713560010.020536) can0 178#08800B310D930DEE
(1713560010.020770) can0 17C#F27F010037690D70
(1713560010.021445) can0 550#48000C0001000023
(1713560010.021692) can0 400#2880000000000040
(1713560010.022969) can0 140#0000030000000000
(1713560010.023241) can0 410#2980008B9F6E8B45
(1713560010.025365) can0 541#0440E800007FFF38
(1713560010.025619) can0 552#00FFFFFFFFFFFF71
(1713560010.025866) can0 450#005680001B004A00
(1713560010.027431) can0 12F#F8200220000000B8
(1713560010.027661) can0 12A#1428701C6058004C
(1713560010.027909) can0 12D#00000000000000BE
(1713560010.028155) can0 290#00100002000000BD
(1713560010.030259) can0 174#E67F005646790E46
(1713560010.030495) can0 178#0480000014930ED2
(1713560010.030731) can0 17C#F47F01001F690EB8
(1713560010.031693) can0 400#2880000000000075
(1713560010.033216) can0 410#2980008B9F6E8B70
(1713560010.035395) can0 551#000000000004C000
(1713560010.035641) can0 5D1#9958000200000000
(1713560010.036870) can0 120#00000008070000BB
(1713560010.037117) can0 121#00000000000000BE
(1713560010.037350) can0 128#1388030000EC7877
(1713560010.037593) can0 129#00000001000000BA
(1713560010.037837) can0 12D#00000000000000D4
(1713560010.038085) can0 12E#000000000000C071
(1713560010.038326) can0 12F#F8200220000000D2
(1713560010.038574) can0 290#00000002000000DC
(1713560010.040318) can0 174#E67F005543790F68
(1713560010.040547) can0 178#0680013717930F08
(1713560010.040786) can0 17C#F67F01001C690F93
(1713560010.041786) can0 400#2880000000000094
(1713560010.042240) can0 6B9#0020400000000000
(1713560010.042482) can0 5A2#1410140000000000
(1713560010.043186) can0 410#2980008B9F6E8B91
(1713560010.043497) can0 140#0000030000000000
(1713560010.045386) can0 541#0440E800007FFF52
(1713560010.047361) can0 12F#F830022000000038
(1713560010.047606) can0 12D#0000000000000035
(1713560010.047854) can0 290#000000020000003D
(1713560010.050270) can0 174#EA7F005543790068
(1713560010.050504) can0 178#0880022E1593002B
(1713560010.050744) can0 17C#F47F010029690033
(1713560010.051793) can0 400#28800000000000A1
(1713560010.053111) can0 410#2980008B9F6E8BA4
(1713560010.055392) can0 551#000000000004C000
(1713560010.055638) can0 5D1#9958000200000000
(1713560010.056970) can0 120#00000008070000D1
(1713560010.057214) can0 121#00000000000000D4
(1713560010.057446) can0 128#1388030000EC7896
(1713560010.057688) can0 129#00000001000000D0
(1713560010.057937) can0 12D#000000000000005F
(1713560010.058182) can0 12E#000000000000C090
(1713560010.058428) can0 12F#F820022000000059
(1713560010.058673) can0 290#0000000200000057
(1713560010.060326) can0 174#EC7F00554079012A
(1713560010.060557) can0 178#0480033112930120
(1713560010.060795) can0 17C#F07F01002F690142
(1713560010.061883) can0 400#28800000000000CB
(1713560010.063144) can0 410#2980008B9F6E8BCE
(1713560010.064014) can0 140#0000030000000000
(1713560010.065395) can0 541#0440E800007FFF67
(1713560010.067371) can0 12F#F82002200000006C
(1713560010.067616) can0 12D#000000000000006A
(1713560010.067864) can0 290#0000000200000062
(1713560010.070276) can0 174#F07F0055357902CE
(1713560010.070510) can0 178#02800430119302CE
(1713560010.070748) can0 17C#F27F0100296902DA
(1713560010.071389) can0 550#48000C0001000049
(1713560010.071887) can0 400#288000000000002A
(1713560010.072735) can0 410#2980008B9F6E8B2F
(1713560010.075371) can0 551#000000000004C000
(1713560010.075593) can0 5B1#008A9A68000000C9
(1713560010.075839) can0 552#00FFFFFFFFFFFF90
(1713560010.076081) can0 5D0#9958010200000000
(1713560010.076323) can0 55A#0017160000000000
(1713560010.076612) can0 5CF#7444640000000000
(1713560010.076852) can0 5D1#9958000200000000
(1713560010.077105) can0 120#0000000807000030
(1713560010.077353) can0 121#0000000000000035
(1713560010.077589) can0 128#1388030000EC78A3
(1713560010.077835) can0 129#0000000100000031
(1713560010.078065) can0 12A#1428701C60580079
(1713560010.078311) can0 12D#000000000000008B
(1713560010.078555) can0 12E#000000000000C0A5
(1713560010.078797) can0 12F#F82002200000008D
(1713560010.079049) can0 290#0000000200000083
(1713560010.079286) can0 5A0#00000062449280C8
(1713560010.079525) can0 5D2#7444640000000000
(1713560010.079774) can0 450#005680001B004A00
(1713560010.080330) can0 174#F27F00562C790348
(1713560010.080568) can0 178#068000000D930372
(1713560010.080806) can0 17C#F67F01002469032B
(1713560010.081982) can0 400#2880000000000040
(1713560010.082759) can0 410#2980008B9F6E8B45
(1713560010.084532) can0 140#0000030000000000
(1713560010.085393) can0 541#0440E800007FFF86
(1713560010.087475) can0 12F#F8300220000000B3
(1713560010.087715) can0 12D#00000000000000BE
(1713560010.087961) can0 290#00000002000000B6
(1713560010.090285) can0 174#F27F00562C79041B
(1713560010.090521) can0 178#088001380D9304B9
(1713560010.090761) can0 17C#FA7F01001F69046B
(1713560010.091985) can0 400#2880000000000075
(1713560010.092681) can0 410#2980008B9F6E8B70
(1713560010.095345) can0 551#000000000004C000
(1713560010.095590) can0 5D1#9958000200000000
(1713560010.097157) can0 4EA#0000000000000000
(1713560010.097401) can0 120#000000080700005A
(1713560010.097649) can0 121#000000000000005F
(1713560010.097885) can0 128#1388030000EC78C9
(1713560010.098132) can0 129#000000010000005B
(1713560010.098375) can0 12D#00000000000000D4
(1713560010.098617) can0 12E#000000000000C0CF
(1713560010.098858) can0 12F#F8200220000000D2
(1713560010.099105) can0 290#00000002000000DC
(1713560010.099372) can0 5B2#0800000000000000
(1713560010.099598) can0 310#FFFFFFFF7D7D0000
(1713560010.100345) can0 174#F27F00563779059E
(1713560010.100577) can0 178#06800232179305B7
(1713560010.100817) can0 17C#FA7F01001369057C
(1713560010.102080) can0 400#2880000000000094
(1713560010.102703) can0 410#2980008B9F6E8B91
(1713560010.105054) can0 140#0000030000000000
(1713560010.105397) can0 541#0440E800007FFFB3
(1713560010.107420) can0 12F#F820022000000033
(1713560010.107662) can0 12D#0000000000000035
(1713560010.107918) can0 290#000000020000003D
(1713560010.110292) can0 174#F27F0056437906F7
(1713560010.110527) can0 178#FC7F03322793061A
(1713560010.110767) can0 17C#FA7F01000E6906C6
(1713560010.112083) can0 400#28800000000000A1
(1713560010.112628) can0 410#2980008B9F6E8BA4
(1713560010.112874) can0 540#000000104000A000
(1713560010.113116) can0 5B0#6342000000000028
(1713560010.115345) can0 551#000000000004C000
(1713560010.115589) can0 5D1#9958000200000000
(1713560010.117221) can0 12F#F820022000000059
(1713560010.117467) can0 120#000000080700006F
(1713560010.117721) can0 121#000000000000006A
(1713560010.117957) can0 128#1388030000EC7828
(1713560010.118207) can0 129#000000010000006E
(1713560010.118464) can0 12D#000000000000005F
(1713560010.118700) can0 12E#000000000000C02E
(1713560010.118946) can0 290#0000000200000057
(1713560010.120353) can0 174#F07F0056487907D0
(1713560010.120586) can0 178#F07F0435309307D1
(1713560010.120826) can0 17C#FC7F01001E690710
(1713560010.121438) can0 550#48000C000100007C
(1713560010.122174) can0 400#28800000000000CB
(1713560010.122650) can0 410#2980008B9F6E8BCE
(1713560010.125409) can0 541#0440E800007FFFD9
(1713560010.125656) can0 140#0000030000000000
(1713560010.125909) can0 552#00FFFFFFFFFFFFA5
(1713560010.126148) can0 450#005680001B004A00
(1713560010.127492) can0 12F#F830022000000067
(1713560010.127723) can0 12A#1428701C60580098
(1713560010.127969) can0 12D#000000000000006A
(1713560010.128217) can0 290#0000000200000062
(1713560010.130299) can0 174#EC7F005642790866
(1713560010.130530) can0 178#EA7F00002E9308A3
(1713560010.130767) can0 17C#FE7F01002F6908B6
(1713560010.132182) can0 400#288000000000002A
(1713560010.132575) can0 410#2980008B9F6E8B2F
(1713560010.135345) can0 551#000000000004C000
(1713560010.135585) can0 5D1#9958000200000000
(1713560010.137138) can0 12F#F82002200000008D
(1713560010.137384) can0 120#000000080700008E
(1713560010.137627) can0 121#000000000000008B
(1713560010.137861) can0 128#1388030000EC7842
(1713560010.138104) can0 129#000000010000008F
(1713560010.138349) can0 12D#000000000000008B
(1713560010.138645) can0 12E#000000000000C044
(1713560010.138897) can0 290#0000000200000083
(1713560010.140361) can0 174#E87F0056377909D3
(1713560010.140589) can0 178#EC7F0132279309CC
(1713560010.140827) can0 17C#FE7F010034690933
(1713560010.142273) can0 400#2880000000000040
(1713560010.142521) can0 6B9#0020400000000000
(1713560010.142759) can0 410#2980008B9F6E8B45
(1713560010.143003) can0 5A2#1410140000000000
(1713560010.145388) can0 541#0440E800007FFF38
(1713560010.146098) can0 140#0000030000000000
(1713560010.147429) can0 12F#F8200220000000B8
(1713560010.147670) can0 12D#00000000000000BE
(1713560010.147914) can0 290#00000002000000B6
(1713560010.150354) can0 174#E47F00562F790A5B
(1713560010.150586) can0 178#F47F02301D930A3E
(1713560010.150824) can0 17C#FA7F01002D690AE6
(1713560010.152276) can0 400#2880000000000075
(1713560010.152519) can0 410#2980008B9F6E8B70
(1713560010.155342) can0 551#000000000004C000
(1713560010.155582) can0 5D1#9958000200000000
(1713560010.157142) can0 12F#F8200220000000D2
(1713560010.157376) can0 128#1388030000EC7877
(1713560010.157621) can0 120#00000008070000BB
(1713560010.157866) can0 121#00000000000000BE
(1713560010.158108) can0 129#00000001000000BA
(1713560010.158352) can0 12D#00000000000000D4
(1713560010.158600) can0 12E#000000000000C071
(1713560010.158899) can0 290#00000002000000DC
(1713560010.160357) can0 174#E47F005624790BC6
(1713560010.160587) can0 178#FA7F03321A930BE5
(1713560010.160829) can0 17C#FA7F01001F690BD0
(1713560010.162367) can0 400#2880000000000094
(1713560010.162603) can0 410#2980008B9F6E8B91
(1713560010.165390) can0 541#0440E800007FFF52
(1713560010.166620) can0 140#0000030000000000
(1713560010.167414) can0 12F#F830022000000038
(1713560010.167660) can0 12D#0000000000000035
(1713560010.167906) can0 290#000000020000003D
(1713560010.170365) can0 174#E87F00561A790C0F
(1713560010.170600) can0 178#F87F04331F930C13
(1713560010.170836) can0 17C#FC7F010011690C59
(1713560010.171387) can0 550#48000C000100009D
(1713560010.172374) can0 400#28800000000000A1
(1713560010.172612) can0 410#2980008B9F6E8BA4
(1713560010.175353) can0 551#000000000004C000
(1713560010.175590) can0 5B1#008A9A6800000028
(1713560010.175836) can0 552#00FFFFFFFFFFFFCF
(1713560010.176078) can0 5D0#9958010200000000
(1713560010.176317) can0 5CF#7444640000000000
(1713560010.176557) can0 5D1#9958000200000000
(1713560010.176801) can0 5D2#7444640000000000
(1713560010.177047) can0 450#005680001B004A00
(1713560010.177281) can0 128#1388030000EC7896
(1713560010.177516) can0 12A#1428701C605800AD
(1713560010.177761) can0 120#00000008070000D1
(1713560010.178003) can0 121#00000000000000D4
(1713560010.178245) can0 129#00000001000000D0
(1713560010.178495) can0 12D#000000000000005F
(1713560010.178742) can0 12E#000000000000C090
(1713560010.179035) can0 12F#F820022000000059
(1713560010.179281) can0 290#0000000200000057
(1713560010.179527) can0 5A0#0000006244928029
(1713560010.180374) can0 174#EE7F005624790DE0
(1713560010.180604) can0 178#F27F05311F930D2B
(1713560010.180842) can0 17C#0080010006690DCD
(1713560010.182465) can0 400#28800000000000CB
(1713560010.182704) can0 410#2980008B9F6E8BCE
(1713560010.185384) can0 541#0440E800007FFF67
(1713560010.187140) can0 140#0000030000000000
(1713560010.187486) can0 12F#F82002200000006C
(1713560010.187738) can0 12D#000000000000006A
(1713560010.187980) can0 290#0000000200000062
(1713560010.190370) can0 174#F07F005632790E62
(1713560010.190602) can0 178#F07F06301C930E19
(1713560010.190838) can0 17C#0280010009690ED6
(1713560010.192442) can0 410#2980008B9F6E8B2F
(1713560010.192689) can0 400#288000000000002A
(1713560010.195344) can0 551#000000000004C000
(1713560010.195586) can0 5D1#9958000200000000
(1713560010.196871) can0 4EA#0000000000000000
(1713560010.197117) can0 5B2#0800000000000000
(1713560010.197353) can0 128#1388030000EC78A3
(1713560010.197599) can0 12D#000000000000008B
(1713560010.197846) can0 120#0000000807000030
(1713560010.198094) can0 121#0000000000000035
(1713560010.198338) can0 129#0000000100000031
(1713560010.198582) can0 12E#000000000000C0A5
(1713560010.198824) can0 12F#F82002200000008D
(1713560010.199076) can0 290#0000000200000083
(1713560010.199395) can0 310#FFFFFFFF7D7D0000
(1713560010.200371) can0 174#F07F00563B790FFC
(1713560010.200601) can0 178#F67F07311C930F20
(1713560010.200843) can0 17C#0080010019690F69
(1713560010.202463) can0 410#2980008B9F6E8B45
(1713560010.202711) can0 400#2880000000000040
(1713560010.205381) can0 541#0440E800007FFF86
(1713560010.207412) can0 12F#F8300220000000B3
(1713560010.207657) can0 12D#00000000000000BE
(1713560010.207907) can0 140#0000030000000000
(1713560010.208160) can0 290#00000002000000B6
(1713560010.210377) can0 174#EE7F00563B7900FF
(1713560010.210615) can0 178#FC7F08381F930002
(1713560010.210860) can0 17C#F87F01001F6900A5
(1713560010.212388) can0 410#2980008B9F6E8B70
(1713560010.212633) can0 400#2880000000000075
(1713560010.213259) can0 540#000000104000A000
(1713560010.213502) can0 5B0#6342000000000042
(1713560010.215771) can0 551#000000000004C000
(1713560010.216019) can0 5D1#9958000200000000
(1713560010.217182) can0 12F#F8200220000000D2
(1713560010.217418) can0 128#1388030000EC78C9
(1713560010.217662) can0 12D#00000000000000D4
(1713560010.217906) can0 120#000000080700005A
(1713560010.218155) can0 121#000000000000005F
(1713560010.218399) can0 129#000000010000005B
(1713560010.218642) can0 12E#000000000000C0CF
(1713560010.218891) can0 290#00000002000000DC
(1713560010.220378) can0 174#EC7F0055377901E8
(1713560010.220612) can0 178#FA7F00002593016F
(1713560010.220850) can0 17C#F27F01001B6901D6
(1713560010.221442) can0 550#48000C00010000A8
(1713560010.222408) can0 410#2980008B9F6E8B91
(1713560010.222666) can0 400#2880000000000094
(1713560010.225410) can0 541#0440E800007FFFB3
(1713560010.225664) can0 552#00FFFFFFFFFFFF2E
(1713560010.225915) can0 450#005680001B004A00
(1713560010.227482) can0 12F#F820022000000033
(1713560010.227716) can0 12A#1428701C605800C7
(1713560010.227963) can0 12D#0000000000000035
(1713560010.228212) can0 140#0000030000000000
(1713560010.228468) can0 290#000000020000003D
(1713560010.230380) can0 174#EC7F0056327902FC
(1713560010.230615) can0 178#F67F0000279302F0
(1713560010.230851) can0 17C#F67F01001669021D
(1713560010.232333) can0 410#2980008B9F6E8BA4
(1713560010.232656) can0 400#28800000000000A1
(1713560010.235354) can0 551#000000000004C000
(1713560010.235588) can0 5D1#9958000200000000
(1713560010.237174) can0 12F#F820022000000059
(1713560010.237412) can0 128#1388030000EC7828
(1713560010.237662) can0 12D#000000000000005F
(1713560010.237910) can0 120#000000080700006F
(1713560010.238162) can0 121#000000000000006A
(1713560010.238411) can0 129#000000010000006E
(1713560010.238656) can0 12E#000000000000C02E
(1713560010.238901) can0 290#0000000200000057
(1713560010.240385) can0 174#F07F005532790359
(1713560010.240616) can0 178#F27F01521D93035F
(1713560010.240858) can0 17C#F87F01001B690384
(1713560010.242358) can0 410#2980008B9F6E8BCE
(1713560010.242747) can0 6B9#0020400000000000
(1713560010.242994) can0 400#28800000000000CB
(1713560010.243236) can0 5A2#1410140000000000
(1713560010.245384) can0 541#0440E800007FFFD9
(1713560010.247427) can0 12F#F830022000000067
(1713560010.247671) can0 12D#000000000000006A
(1713560010.247919) can0 290#0000000200000062
(1713560010.248710) can0 140#0000030000000000
(1713560010.250389) can0 174#F27F005638790405
(1713560010.250619) can0 178#F07F026F15930424
(1713560010.250857) can0 17C#FC7F01002769049C
(1713560010.252308) can0 410#2980008B9F6E8B2F
(1713560010.252756) can0 400#288000000000002A
(1713560010.255334) can0 551#000000000004C000
(1713560010.255579) can0 5D1#9958000200000000
(1713560010.257129) can0 12F#F82002200000008D
(1713560010.257363) can0 128#1388030000EC7842
(1713560010.257610) can0 12D#000000000000008B
(1713560010.257854) can0 12E#000000000000C044
(1713560010.258100) can0 120#000000080700008E
(1713560010.258344) can0 121#000000000000008B
(1713560010.258586) can0 129#000000010000008F
(1713560010.258839) can0 290#0000000200000083
(1713560010.260394) can0 174#F27F00564279055F
(1713560010.260619) can0 178#EE7F0362119305A2
(1713560010.260860) can0 17C#008001002F690596
(1713560010.262285) can0 410#2980008B9F6E8B45
(1713560010.262862) can0 400#2880000000000040
(1713560010.265390) can0 541#0440E800007FFF38
(1713560010.267427) can0 12F#F8200220000000B8
(1713560010.267674) can0 12D#00000000000000BE
(1713560010.267920) can0 290#00000002000000B6
(1713560010.269238) can0 140#0000030000000000
(1713560010.270395) can0 174#EE7F00564279067A
(1713560010.270622) can0 178#EE7F04650D930668
(1713560010.270863) can0 17C#FE7F010037690604
(1713560010.271449) can0 550#48000C00010000C2
(1713560010.272283) can0 410#2980008B9F6E8B70
(1713560010.272907) can0 400#2880000000000075
(1713560010.275350) can0 551#000000000004C000
(1713560010.275603) can0 552#00FFFFFFFFFFFF44
(1713560010.275848) can0 5D1#9958000200000000
(1713560010.276093) can0 5D2#7444640000000000
(1713560010.276341) can0 450#005680001B004A00
(1713560010.276577) can0 5B1#008A9A6800000042
(1713560010.276819) can0 5D0#9958010200000000
(1713560010.277057) can0 5CF#7444640000000000
(1713560010.277291) can0 128#1388030000EC7877
(1713560010.277525) can0 12A#1428701C60580026
(1713560010.277769) can0 12D#00000000000000D4
(1713560010.278017) can0 12E#000000000000C071
(1713560010.278262) can0 120#00000008070000BB
(1713560010.278508) can0 121#00000000000000BE
(1713560010.278750) can0 129#00000001000000BA
(1713560010.278990) can0 12F#F8200220000000D2
(1713560010.279239) can0 290#00000002000000DC
(1713560010.279478) can0 5A0#0000006244928043
(1713560010.280344) can0 174#EC7F00563A790799
(1713560010.280580) can0 178#F27F05720F9307CF
(1713560010.280877) can0 17C#F87F01003D6907C5
(1713560010.282283) can0 410#2980008B9F6E8B91
(1713560010.282957) can0 400#2880000000000094
(1713560010.285380) can0 541#0440E800007FFF52
(1713560010.287440) can0 12F#F830022000000038
(1713560010.287684) can0 12D#0000000000000035
(1713560010.287932) can0 290#000000020000003D
(1713560010.289752) can0 140#0000030000000000
(1713560010.290396) can0 174#EC7F0056357908A4
(1713560010.290626) can0 178#FA7F0674149308E9
(1713560010.290864) can0 17C#F47F010040690808
(1713560010.292285) can0 410#2980008B9F6E8BA4
(1713560010.292998) can0 400#28800000000000A1
(1713560010.295337) can0 551#000000000004C000
(1713560010.295578) can0 5D1#9958000200000000
(1713560010.296682) can0 4EA#0000000000000000
(1713560010.296927) can0 5B2#0800000000000000
(1713560010.297169) can0 12F#F820022000000059
(1713560010.297403) can0 128#1388030000EC7896
(1713560010.297653) can0 12D#000000000000005F
(1713560010.297900) can0 12E#000000000000C090
(1713560010.298144) can0 120#00000008070000D1
(1713560010.298388) can0 121#00000000000000D4
(1713560010.298631) can0 129#00000001000000D0
(1713560010.298876) can0 290#0000000200000057
(1713560010.299122) can0 310#FFFFFFFF7D7D0000
(1713560010.300349) can0 174#EC7F0056377909BA
(1713560010.300583) can0 178#0680072018930970
(1713560010.300818) can0 17C#F67F0100406909AF
(1713560010.302284) can0 410#2980008B9F6E8BCE
(1713560010.303055) can0 400#28800000000000CB
(1713560010.305378) can0 541#0440E800007FFF67
(1713560010.307413) can0 12F#F82002200000006C
(1713560010.307658) can0 12D#000000000000006A
(1713560010.307905) can0 290#0000000200000062
(1713560010.310268) can0 140#0000030000000000
(1713560010.310501) can0 174#EC7F00563D790A92
(1713560010.310728) can0 178#0A8008421A930A6A
(1713560010.310964) can0 17C#F67F01003B690A40
(1713560010.312287) can0 410#2980008B9F6E8B2F
(1713560010.313096) can0 400#288000000000002A
(1713560010.313794) can0 540#000000104000A000
(1713560010.314035) can0 5B0#6342000000000077
(1713560010.315337) can0 551#000000000004C000
(1713560010.315580) can0 5D1#9958000200000000
(1713560010.317181) can0 12F#F82002200000008D
(1713560010.317416) can0 128#1388030000EC78A3
(1713560010.317662) can0 12D#000000000000008B
(1713560010.317906) can0 12E#000000000000C0A5
(1713560010.318156) can0 290#0010000200000088
(1713560010.318402) can0 120#0000000807000030
(1713560010.318651) can0 121#0000000000000035
(1713560010.318895) can0 129#0000000100000031
(1713560010.320355) can0 174#EC7F005642790B41
(1713560010.320589) can0 178#0280096F1C930BCF
(1713560010.320830) can0 17C#F47F010037690BED
(1713560010.321387) can0 550#48000C0001000023
(1713560010.322282) can0 410#2980008B9F6E8B45
(1713560010.323164) can0 400#2880000000000040
(1713560010.325396) can0 541#0440E800007FFF86
(1713560010.325648) can0 552#00FFFFFFFFFFFF71
(1713560010.325893) can0 450#005680001B004A00
(1713560010.327482) can0 12F#F8300220000000B3
(1713560010.327711) can0 12A#1428701C6058004C
(1713560010.327959) can0 12D#00000000000000BE
(1713560010.328204) can0 290#00100002000000BD
(1713560010.330412) can0 174#EA7F005642790CC1
(1713560010.330639) can0 178#F67F0A7322930C3D
(1713560010.330891) can0 140#0000030000000000
(1713560010.331125) can0 17C#F47F010037690CBE
(1713560010.332286) can0 410#2980008B9F6E8B70
(1713560010.333192) can0 400#2880000000000075
(1713560010.335330) can0 551#000000000004C000
(1713560010.335577) can0 5D1#9958000200000000
(1713560010.337141) can0 12F#F8200220000000D2
(1713560010.337376) can0 128#1388030000EC78C9
(1713560010.337620) can0 12D#00000000000000D4
(1713560010.337864) can0 12E#000000000000C0CF
(1713560010.338112) can0 290#00000002000000DC
(1713560010.338357) can0 120#000000080700005A
(1713560010.338605) can0 121#000000000000005F
(1713560010.338849) can0 129#000000010000005B
(1713560010.340364) can0 174#EA7F00563D790D12
(1713560010.340591) can0 178#EE7F0B6325930D8E
(1713560010.340830) can0 17C#F87F010031690D1D
(1713560010.342230) can0 410#2980008B9F6E8B91
(1713560010.342996) can0 6B9#0020400000000000
(1713560010.343241) can0 5A2#1410140000000000
(1713560010.343488) can0 400#2880000000000094
(1713560010.345377) can0 541#0440E800007FFFB3
(1713560010.347417) can0 12F#F820022000000033
(1713560010.347661) can0 12D#0000000000000035
(1713560010.347909) can0 290#000000020000003D
(1713560010.350418) can0 174#F07F005637790EEB
(1713560010.350649) can0 178#E87F0C6820930EDE
(1713560010.350887) can0 17C#FE7F010024690E78
(1713560010.351317) can0 140#0000030000000000
(1713560010.352286) can0 410#2980008B9F6E8BA4
(1713560010.353290) can0 400#28800000000000A1
(1713560010.355328) can0 551#000000000004C000
(1713560010.355571) can0 5D1#9958000200000000
(1713560010.357127) can0 12F#F820022000000059
(1713560010.357365) can0 128#1388030000EC7828
(1713560010.357615) can0 12D#000000000000005F
(1713560010.357859) can0 12E#000000000000C02E
(1713560010.358105) can0 290#0000000200000057
(1713560010.358385) can0 120#000000080700006F
(1713560010.358637) can0 121#000000000000006A
(1713560010.358886) can0 129#000000010000006E
(1713560010.360372) can0 174#F47F005630790F15
(1713560010.360599) can0 178#EA7F0D201A930F3C
(1713560010.360842) can0 17C#008001001C690FE0
(1713560010.362234) can0 410#2980008B9F6E8BCE
(1713560010.363295) can0 400#28800000000000CB
(1713560010.365381) can0 541#0440E800007FFFD9
(1713560010.367420) can0 12F#F830022000000067
(1713560010.367663) can0 12D#000000000000006A
(1713560010.367911) can0 290#0000000200000062
(1713560010.370425) can0 174#F67F00562C790006
(1713560010.370655) can0 178#F47F0E47189300A8
(1713560010.370896) can0 17C#008001001E690058
(1713560010.371441) can0 550#48000C0001000049
(1713560010.371832) can0 140#0000030000000000
(1713560010.372345) can0 410#2980008B9F6E8B2F
(1713560010.373396) can0 400#288000000000002A
(1713560010.375400) can0 551#000000000004C000
(1713560010.375632) can0 5B1#008A9A6800000077
(1713560010.375878) can0 552#00FFFFFFFFFFFF90
(1713560010.376120) can0 5D0#9958010200000000
(1713560010.376307) can0 5CF#7444640000000000
(1713560010.376549) can0 5D1#9958000200000000
(1713560010.376792) can0 5D2#7444640000000000
(1713560010.377038) can0 450#005680001B004A00
(1713560010.377272) can0 128#1388030000EC7842
(1713560010.377504) can0 12A#1428701C60580079
(1713560010.377750) can0 12D#000000000000008B
(1713560010.377994) can0 12E#000000000000C044
(1713560010.378236) can0 12F#F82002200000008D
(1713560010.378489) can0 290#0000000200000083
(1713560010.378735) can0 120#000000080700008E
(1713560010.378979) can0 121#000000000000008B
(1713560010.379221) can0 129#000000010000008F
(1713560010.379460) can0 5A0#0000006244928076
(1713560010.380376) can0 174#F67F00552D79012E
(1713560010.380608) can0 178#FA7F0F6D179301A9
(1713560010.380848) can0 17C#0080010026690161
(1713560010.382210) can0 410#2980008B9F6E8B45
(1713560010.383399) can0 400#2880000000000040
(1713560010.385375) can0 541#0440E800007FFF38
(1713560010.387493) can0 12F#F8200220000000B8
(1713560010.387737) can0 12D#00000000000000BE
(1713560010.387983) can0 290#00000002000000B6
(1713560010.390428) can0 174#F47F00563579021D
(1713560010.390663) can0 178#FE7F0062159302F0
(1713560010.390903) can0 17C#008001003469025D
(1713560010.392235) can0 410#2980008B9F6E8B70
(1713560010.392483) can0 140#0000030000000000
(1713560010.393498) can0 400#2880000000000075
(1713560010.395404) can0 551#000000000004C000
(1713560010.395624) can0 5D1#9958000200000000
(1713560010.396501) can0 4EA#0000000000000000
(1713560010.396745) can0 5B2#0800000000000000
(1713560010.396990) can0 310#FFFFFFFF7D7D0000
(1713560010.397230) can0 12F#F8200220000000D2
(1713560010.397413) can0 128#1388030000EC7877
(1713560010.397658) can0 12D#00000000000000D4
(1713560010.397905) can0 12E#000000000000C071
(1713560010.398154) can0 290#00000002000000DC
(1713560010.398582) can0 120#00000008070000BB
(1713560010.398828) can0 121#00000000000000BE
(1713560010.399070) can0 129#00000001000000BA
(1713560010.400383) can0 174#F27F00563A790355
(1713560010.400618) can0 178#FE7F0148189303F3
(1713560010.400857) can0 17C#0480010042690364
(1713560010.402153) can0 410#2980008B9F6E8B91
(1713560010.403496) can0 400#2880000000000094
(1713560010.407403) can0 12F#F830022000000038
(1713560010.407644) can0 12D#0000000000000035
(1713560010.407892) can0 290#000000020000003D
(1713560010.408133) can0 541#0440E800007FFF52
(1713560010.410444) can0 174#F07F0056387904BF
(1713560010.410684) can0 178#FE7F00001A9304C1
(1713560010.410924) can0 17C#068001004069048E
(1713560010.412183) can0 410#2980008B9F6E8BA4
(1713560010.412877) can0 140#0000030000000000
(1713560010.413587) can0 400#28800000000000A1
(1713560010.414240) can0 540#000000104000A000
(1713560010.414481) can0 5B0#6342000000000096
(1713560010.415407) can0 551#000000000004C000
(1713560010.415626) can0 5D1#9958000200000000
(1713560010.417294) can0 12F#F820022000000059
(1713560010.417523) can0 128#1388030000EC7896
(1713560010.417727) can0 12D#000000000000005F
(1713560010.417973) can0 12E#000000000000C090
(1713560010.418219) can0 290#0000000200000057
(1713560010.418675) can0 120#00000008070000D1
(1713560010.418919) can0 121#00000000000000D4
(1713560010.419162) can0 129#00000001000000D0
(1713560010.420399) can0 174#EC7F005635790525
(1713560010.420634) can0 178#FA7F00001C9305B0
(1713560010.420872) can0 17C#08800100326905D9
(1713560010.421389) can0 550#48000C000100007C
(1713560010.422128) can0 410#2980008B9F6E8BCE
(1713560010.423591) can0 400#28800000000000CB
(1713560010.425393) can0 541#0440E800007FFF67
(1713560010.425643) can0 552#00FFFFFFFFFFFFA5
(1713560010.425890) can0 450#005680001B004A00
(1713560010.427490) can0 12F#F82002200000006C
(1713560010.427723) can0 12A#1428701C60580098
(1713560010.427966) can0 12D#000000000000006A
(1713560010.428214) can0 290#0000000200000062
(1713560010.430456) can0 174#E87F0056347906E4
(1713560010.430692) can0 178#FA7F000D27930670
(1713560010.430932) can0 17C#088001002D690660
(1713560010.432130) can0 410#2980008B9F6E8B2F
(1713560010.433400) can0 140#0000030000000000
(1713560010.433686) can0 400#288000000000002A
(1713560010.435406) can0 551#000000000004C000
(1713560010.435626) can0 5D1#9958000200000000
(1713560010.437195) can0 12F#F82002200000008D
(1713560010.437431) can0 128#1388030000EC78A3
(1713560010.437677) can0 12D#000000000000008B
(1713560010.437921) can0 12E#000000000000C0A5
(1713560010.438173) can0 290#0000000200000083
(1713560010.438834) can0 120#0000000807000030
(1713560010.439082) can0 121#0000000000000035
(1713560010.439275) can0 129#0000000100000031
(1713560010.440399) can0 174#E47F005638790748
(1713560010.440637) can0 178#FC7F000030930763
(1713560010.440879) can0 17C#028001003469078E
(1713560010.441744) can0 410#2980008B9F6E8B45
(1713560010.443692) can0 400#2880000000000040
(1713560010.443940) can0 6B9#0020400000000000
(1713560010.444184) can0 5A2#1410140000000000
(1713560010.445320) can0 541#0440E800007FFF86
(1713560010.447416) can0 12F#F8300220000000B3
(1713560010.447659) can0 12D#00000000000000BE
(1713560010.447905) can0 290#00000002000000B6
(1713560010.450466) can0 174#E67F00564279080E
(1713560010.450695) can0 178#FC7F0136309308B4
(1713560010.450931) can0 17C#FC7F01003869089E
(1713560010.451770) can0 410#2980008B9F6E8B70
(1713560010.453782) can0 400#2880000000000075
(1713560010.454031) can0 140#0000030000000000
(1713560010.455395) can0 551#000000000004C000
(1713560010.455622) can0 5D1#9958000200000000
(1713560010.457212) can0 12F#F8200220000000D2
(1713560010.457447) can0 128#1388030000EC78C9
(1713560010.457691) can0 12D#00000000000000D4
(1713560010.457936) can0 12E#000000000000C0CF
(1713560010.458184) can0 290#00000002000000DC
(1713560010.458930) can0 120#000000080700005A
(1713560010.459178) can0 121#000000000000005F
(1713560010.459373) can0 129#000000010000005B
(1713560010.460402) can0 174#EE7F0056427909C1
(1713560010.460636) can0 178#FC7F0230259309EF
(1713560010.460876) can0 17C#FC7F010035690906
(1713560010.461688) can0 410#2980008B9F6E8B91
(1713560010.463785) can0 400#2880000000000094
(1713560010.465324) can0 541#0440E800007FFFB3
(1713560010.467362) can0 12F#F820022000000033
(1713560010.467607) can0 12D#0000000000000035
(1713560010.467855) can0 290#000000020000003D
(1713560010.470461) can0 174#F27F00563A790AA0
(1713560010.470691) can0 178#FE7F033117930AAE
(1713560010.470931) can0 17C#0280010034690A0F
(1713560010.471440) can0 550#48000C000100009D
(1713560010.471714) can0 410#2980008B9F6E8BA4
(1713560010.473870) can0 400#28800000000000A1
(1713560010.474444) can0 140#0000030000000000
(1713560010.475393) can0 551#000000000004C000
(1713560010.475627) can0 5B1#008A9A6800000096
(1713560010.475872) can0 552#00FFFFFFFFFFFFCF
(1713560010.476114) can0 5D0#9958010200000000
(1713560010.476352) can0 5CF#7444640000000000
(1713560010.476592) can0 5D1#9958000200000000
(1713560010.476837) can0 5D2#7444640000000000
(1713560010.477083) can0 450#005680001B004A00
(1713560010.477321) can0 128#1388030000EC7828
(1713560010.477563) can0 12A#1428701C605800AD
(1713560010.477807) can0 12D#000000000000005F
(1713560010.478049) can0 12E#000000000000C02E
(1713560010.478291) can0 12F#F830022000000052
(1713560010.478538) can0 290#0000000200000057
(1713560010.478773) can0 5A0#0000006244928097
(1713560010.479030) can0 120#000000080700006F
(1713560010.479282) can0 121#000000000000006A
(1713560010.479531) can0 129#000000010000006E
(1713560010.480471) can0 174#F07F005635790B81
(1713560010.480705) can0 178#FE7F04380F930BAD
(1713560010.480939) can0 17C#0A8001002F690B58
(1713560010.481637) can0 410#2980008B9F6E8BCE
(1713560010.483875) can0 400#28800000000000CB
(1713560010.485317) can0 541#0440E800007FFFD9
(1713560010.487431) can0 12F#F82002200000006C
(1713560010.487677) can0 12D#000000000000006A
(1713560010.487925) can0 290#0000000200000062
(1713560010.490467) can0 174#EE7F005538790C55
(1713560010.490695) can0 178#FA7F05310C930C70
(1713560010.490930) can0 17C#088001002C690C3D
(1713560010.491666) can0 410#2980008B9F6E8B2F
(1713560010.493970) can0 400#288000000000002A
(1713560010.494964) can0 140#0000030000000000
(1713560010.495402) can0 551#000000000004C000
(1713560010.495625) can0 5D1#9958000200000000
(1713560010.496309) can0 4EA#0000000000000000
(1713560010.496555) can0 5B2#0800000000000000
(1713560010.496800) can0 310#FFFFFFFF7D7D0000
(1713560010.497223) can0 12F#F82002200000008D
(1713560010.497457) can0 128#1388030000EC7842
(1713560010.497702) can0 12D#000000000000008B
(1713560010.497954) can0 12E#000000000000C044
(1713560010.498201) can0 290#0000000200000083
(1713560010.499133) can0 120#000000080700008E
(1713560010.499393) can0 121#000000000000008B
(1713560010.499620) can0 129#000000010000008F
(1713560010.500470) can0 174#EE7F00563F790D78
(1713560010.500700) can0 178#F67F06320A930DD7
(1713560010.500938) can0 17C#048001002C690D9B
(1713560010.501634) can0 410#2980008B9F6E8B45
(1713560010.503979) can0 400#2880000000000040
(1713560010.505321) can0 541#0440E800007FFF38
(1713560010.507362) can0 12F#F8300220000000B3
(1713560010.507608) can0 12D#00000000000000BE
(1713560010.507854) can0 290#00000002000000B6
(1713560010.510471) can0 174#F07F00563F790EE7
(1713560010.510700) can0 178#F67F073909930E30
(1713560010.510940) can0 17C#0080010024690ED9
(1713560010.511608) can0 410#2980008B9F6E8B70
(1713560010.514064) can0 400#2880000000000075
(1713560010.514706) can0 540#000000104000A000
(1713560010.514948) can0 5B0#63420000000000A3
(1713560010.515386) can0 551#000000000004C000
(1713560010.515619) can0 140#0000030000000000
(1713560010.515858) can0 5D1#9958000200000000
(1713560010.517213) can0 12F#F8200220000000D2
(1713560010.517447) can0 128#1388030000EC7877
(1713560010.517691) can0 12D#00000000000000D4
(1713560010.517939) can0 12E#000000000000C071
(1713560010.518195) can0 290#00000002000000DC
(1713560010.519239) can0 120#00000008070000BB
(1713560010.519488) can0 121#00000000000000BE
(1713560010.519726) can0 129#00000001000000BA
(1713560010.520473) can0 174#F27F005635790F4F
(1713560010.520708) can0 178#FA7F082D0F930F84
(1713560010.520946) can0 17C#048001001B690F03
(1713560010.521447) can0 550#48000C00010000A8
(1713560010.521682) can0 410#2980008B9F6E8B91
(1713560010.524069) can0 400#2880000000000094
(1713560010.525335) can0 541#0440E800007FFF52
(1713560010.525590) can0 552#00FFFFFFFFFFFF2E
(1713560010.525836) can0 450#005680001B004A00
(1713560010.527425) can0 12F#F820022000000033
(1713560010.527660) can0 12A#1428701C605800C7
(1713560010.527906) can0 12D#0000000000000035
(1713560010.528155) can0 290#000000020000003D
(1713560010.530481) can0 174#F47F00562F790030
(1713560010.530713) can0 178#FC7F0930159300FB
(1713560010.530954) can0 17C#0C8001001B69006A
(1713560010.531558) can0 410#2980008B9F6E8BA4
(1713560010.534162) can0 400#28800000000000A1
(1713560010.535392) can0 551#000000000004C000
(1713560010.535616) can0 5D1#9958000200000000
(1713560010.536003) can0 140#0000030000000000
(1713560010.537190) can0 12F#F830022000000052
(1713560010.537423) can0 128#1388030000EC7896
(1713560010.537673) can0 12D#000000000000005F
(1713560010.537920) can0 12E#000000000000C090
(1713560010.538166) can0 290#0000000200000057
(1713560010.539347) can0 120#00000008070000D1
(1713560010.539578) can0 121#00000000000000D4
(1713560010.539818) can0 129#00000001000000D0
(1713560010.540480) can0 174#F47F00562F79012D
(1713560010.540714) can0 178#00800A32149301EB
(1713560010.540954) can0 17C#0C800100226901DC
(1713560010.541526) can0 410#2980008B9F6E8BCE
(1713560010.544137) can0 6B9#0020400000000000
(1713560010.544382) can0 400#28800000000000CB
(1713560010.544626) can0 5A2#1410140000000000
(1713560010.545319) can0 541#0440E800007FFF67
(1713560010.547363) can0 12F#F82002200000006C
(1713560010.547608) can0 12D#000000000000006A
(1713560010.547856) can0 290#0000000200000062
(1713560010.550433) can0 174#F27F005632790244
(1713560010.550667) can0 178#02800B360D9302C9
(1713560010.550904) can0 17C#068001002F690216
(1713560010.551455) can0 410#2980008B9F6E8B2F
(1713560010.554263) can0 400#288000000000002A
(1713560010.555387) can0 551#000000000004C000
(1713560010.555614) can0 5D1#9958000200000000
(1713560010.556524) can0 140#0000030000000000
(1713560010.557185) can0 12F#F82002200000008D
(1713560010.557422) can0 128#1388030000EC78A3
(1713560010.557668) can0 12D#000000000000008B
(1713560010.557912) can0 12E#000000000000C0A5
(1713560010.558165) can0 290#0000000200000083
(1713560010.559439) can0 120#0000000807000030
(1713560010.559684) can0 121#0000000000000035
(1713560010.559929) can0 129#0000000100000031
(1713560010.560488) can0 174#EC7F00563579036B
(1713560010.560726) can0 178#02800C30099303B0
(1713560010.560966) can0 17C#008001003A690349
(1713560010.561499) can0 410#2980008B9F6E8B45
(1713560010.564312) can0 400#2880000000000040
(1713560010.565322) can0 541#0440E800007FFF86
(1713560010.567364) can0 12F#F8200220000000B8
(1713560010.567612) can0 12D#00000000000000BE
(1713560010.567857) can0 290#00000002000000B6
(1713560010.568104) can0 6E2#0544000000000000
(1713560010.570440) can0 174#E87F00563A7904D7
(1713560010.570678) can0 178#FE7F00000C9304DC
(1713560010.570918) can0 17C#FC7F01003D69048B
(1713560010.571389) can0 550#48000C00010000C2
(1713560010.571626) can0 410#2980008B9F6E8B70
(1713560010.574359) can0 400#2880000000000075
(1713560010.575388) can0 551#000000000004C000
(1713560010.575622) can0 5B1#008A9A68000000A3
(1713560010.575866) can0 552#00FFFFFFFFFFFF44
(1713560010.576107) can0 5D0#9958010200000000
(1713560010.576345) can0 5CF#7444640000000000
(1713560010.576586) can0 5D1#9958000200000000
(1713560010.576830) can0 5D2#7444640000000000
(1713560010.577080) can0 140#0000030000000000
(1713560010.577316) can0 128#1388030000EC78C9
(1713560010.577550) can0 12A#1428701C60580026
(1713560010.577794) can0 12D#00000000000000D4
(1713560010.578038) can0 12E#000000000000C0CF
(1713560010.578278) can0 12F#F8300220000000D9
(1713560010.578526) can0 290#00000002000000DC
(1713560010.578767) can0 450#005680001B004A00
(1713560010.579005) can0 5A0#00000062449280A2
(1713560010.579536) can0 120#000000080700005A
(1713560010.579781) can0 121#000000000000005F
(1713560010.580025) can0 129#000000010000005B
(1713560010.580494) can0 174#EA7F005642790534
(1713560010.580729) can0 178#FE7F01301593055F
(1713560010.580978) can0 17C#F67F01003F6905FD
(1713560010.581447) can0 410#2980008B9F6E8B91
(1713560010.584406) can0 400#2880000000000094
(1713560010.585313) can0 541#0440E800007FFFB3
(1713560010.587430) can0 12F#F820022000000033
(1713560010.587675) can0 12D#0000000000000035
(1713560010.587923) can0 290#000000020000003D
(1713560010.590445) can0 174#F07F005645790648
(1713560010.590681) can0 178#008002321D93064C
(1713560010.590915) can0 17C#EE7F010048690673
(1713560010.591379) can0 410#2980008B9F6E8BA4
(1713560010.594460) can0 400#28800000000000A1
(1713560010.595389) can0 551#000000000004C000
(1713560010.595617) can0 5D1#9958000200000000
(1713560010.596120) can0 4EA#0000000000000000
(1713560010.596365) can0 5B2#0800000000000000
(1713560010.596611) can0 310#FFFFFFFF7D7D0000
(1713560010.597183) can0 12F#F820022000000059
(1713560010.597421) can0 128#1388030000EC7828
(1713560010.597671) can0 12D#000000000000005F
(1713560010.597915) can0 12E#000000000000C02E
(1713560010.598165) can0 140#0000030000000000
(1713560010.598411) can0 290#0000000200000057
(1713560010.599614) can0 120#000000080700006F
(1713560010.599864) can0 121#000000000000006A
(1713560010.600112) can0 129#000000010000006E
(1713560010.600500) can0 174#F27F0056437907EA
(1713560010.600738) can0 178#FE7F03361F9307D7
(1713560010.600975) can0 17C#EC7F0100566907C5
(1713560010.601400) can0 410#2980008B9F6E8BCE
(1713560010.604505) can0 400#28800000000000CB
(1713560010.605308) can0 541#0440E800007FFFD9
(1713560010.607373) can0 12F#F830022000000067
(1713560010.607617) can0 12D#000000000000006A
(1713560010.607864) can0 290#0000000200000062
(1713560010.610450) can0 174#F07F0056437908EB
(1713560010.610682) can0 178#FA7F04351C930838
(1713560010.610918) can0 17C#F47F01004E690801
(1713560010.611328) can0 410#2980008B9F6E8B2F
(1713560010.614562) can0 400#288000000000002A
(1713560010.615238) can0 540#000000104000A000
(1713560010.615485) can0 551#000000000004C000
(1713560010.615724) can0 5B0#63420000000000C9
(1713560010.615964) can0 5D1#9958000200000000
(1713560010.617226) can0 12F#F82002200000008D
(1713560010.617461) can0 128#1388030000EC7842
(1713560010.617707) can0 12D#000000000000008B
(1713560010.617951) can0 12E#000000000000C044
(1713560010.618201) can0 140#0000030000000000
(1713560010.618453) can0 290#0000000200000083
(1713560010.619726) can0 120#000000080700008E
(1713560010.619967) can0 121#000000000000008B
(1713560010.620209) can0 129#000000010000008F
(1713560010.620506) can0 174#EC7F005640790978
(1713560010.620738) can0 178#F27F05301D9309C1
(1713560010.620976) can0 17C#FA7F01003269095F
(1713560010.621352) can0 410#2980008B9F6E8B45
(1713560010.621596) can0 550#48000C0001000023
(1713560010.624605) can0 400#2880000000000040
(1713560010.625330) can0 541#0440E800007FFF38
(1713560010.625584) can0 552#00FFFFFFFFFFFF71
(1713560010.625830) can0 450#005680001B004A00
(1713560010.627429) can0 12F#F8200220000000B8
(1713560010.627660) can0 12A#1428701C6058004C
(1713560010.627908) can0 12D#00000000000000BE
(1713560010.628154) can0 290#00000002000000B6
(1713560010.630458) can0 174#EA7F00563F790A42
(1713560010.630690) can0 178#F07F063120930AD2
(1713560010.630926) can0 17C#FC7F01001E690A91
(1713560010.631300) can0 410#2980008B9F6E8B70
(1713560010.634603) can0 400#2880000000000075
(1713560010.635315) can0 551#000000000004C000
(1713560010.635563) can0 5D1#9958000200000000
(1713560010.637173) can0 12F#F8300220000000D9
(1713560010.637408) can0 128#1388030000EC7877
(1713560010.637653) can0 12D#00000000000000D4
(1713560010.637899) can0 12E#000000000000C071
(1713560010.638147) can0 290#00000002000000DC
(1713560010.638598) can0 140#0000030000000000
(1713560010.639802) can0 120#00000008070000BB
(1713560010.640046) can0 121#00000000000000BE
(1713560010.640288) can0 129#00000001000000BA
(1713560010.640524) can0 174#EA7F00563F790B5F
(1713560010.640754) can0 178#F67F073123930BFA
(1713560010.640994) can0 17C#FC7F01001F690B03
(1713560010.641348) can0 410#2980008B9F6E8B91
(1713560010.644415) can0 6B9#0020400000000000
(1713560010.644656) can0 5A2#1410140000000000
(1713560010.644910) can0 400#2880000000000094
(1713560010.645365) can0 541#0440E800007FFF52
(1713560010.647404) can0 12F#F820022000000033
(1713560010.647647) can0 12D#0000000000000035
(1713560010.647896) can0 290#000000020000003D
(1713560010.650468) can0 174#EA7F00563D790C0F
(1713560010.650699) can0 178#028008312A930C9F
(1713560010.650939) can0 17C#FC7F01002C690CF4
(1713560010.651299) can0 410#2980008B9F6E8BA4
(1713560010.654700) can0 400#28800000000000A1
(1713560010.655308) can0 551#000000000004C000
(1713560010.655558) can0 5D1#9958000200000000
(1713560010.657253) can0 12F#F830022000000052
(1713560010.657487) can0 128#1388030000EC7896
(1713560010.657737) can0 12D#000000000000005F
(1713560010.657982) can0 12E#000000000000C090
(1713560010.658231) can0 290#0000000200000057
(1713560010.659117) can0 140#0000030000000000
(1713560010.659900) can0 120#00000008070000D1
(1713560010.660141) can0 121#00000000000000D4
(1713560010.660384) can0 129#00000001000000D0
(1713560010.660611) can0 174#EA7F005634790D91
(1713560010.660846) can0 178#048009302A930DA6
(1713560010.661084) can0 17C#FE7F010034690D47
(1713560010.661378) can0 410#2980008B9F6E8BCE
(1713560010.664795) can0 400#28800000000000CB
(1713560010.665369) can0 541#0440E800007FFF67
(1713560010.667484) can0 12F#F82002200000006C
(1713560010.667725) can0 12D#000000000000006A
(1713560010.667973) can0 290#0000000200000062
(1713560010.670469) can0 174#EA7F00562A790EA7
(1713560010.670700) can0 178#02800A3825930EF6
(1713560010.670938) can0 17C#FE7F010037690EEC
(1713560010.671303) can0 410#2980008B9F6E8B2F
(1713560010.671547) can0 550#48000C0001000049
(1713560010.674799) can0 400#288000000000002A
(1713560010.675340) can0 551#000000000004C000
(1713560010.675568) can0 5B1#008A9A68000000C9
(1713560010.675814) can0 552#00FFFFFFFFFFFF90
(1713560010.676055) can0 5D0#9958010200000000
(1713560010.676293) can0 5CF#7444640000000000
(1713560010.676533) can0 5D1#9958000200000000
(1713560010.676778) can0 5D2#7444640000000000
(1713560010.677073) can0 450#005680001B004A00
(1713560010.677316) can0 12F#F82002200000008D
(1713560010.677553) can0 128#1388030000EC78A3
(1713560010.677785) can0 12A#1428701C60580079
(1713560010.678031) can0 12D#000000000000008B
(1713560010.678275) can0 12E#000000000000C0A5
(1713560010.678529) can0 290#0000000200000083
(1713560010.678764) can0 5A0#00000062449280C8
(1713560010.679635) can0 140#0000030000000000
(1713560010.680004) can0 120#0000000807000030
(1713560010.680252) can0 121#0000000000000035
(1713560010.680496) can0 129#0000000100000031
(1713560010.680724) can0 174#EC7F00562A790F69
(1713560010.680959) can0 178#FA7F00001C930F62
(1713560010.681196) can0 17C#FE7F010037690FF1
(1713560010.681434) can0 410#2980008B9F6E8B45
(1713560010.684893) can0 400#2880000000000040
(1713560010.685357) can0 541#0440E800007FFF86
(1713560010.687568) can0 12F#F8300220000000B3
(1713560010.687809) can0 12D#00000000000000BE
(1713560010.688053) can0 290#00000002000000B6
(1713560010.690527) can0 174#EC7F00562F79005B
(1713560010.690763) can0 178#F07F013015930037
(1713560010.691003) can0 17C#FC7F01003469007C
(1713560010.691353) can0 410#2980008B9F6E8B70
(1713560010.694895) can0 400#2880000000000075
(1713560010.695662) can0 551#000000000004C000
(1713560010.695910) can0 4EA#0000000000000000
(1713560010.696156) can0 5B2#0800000000000000
(1713560010.696402) can0 310#FFFFFFFF7D7D0000
(1713560010.696642) can0 5D1#9958000200000000
(1713560010.697206) can0 12F#F8200220000000D2
(1713560010.697442) can0 128#1388030000EC78C9
(1713560010.697687) can0 12D#00000000000000D4
(1713560010.697931) can0 12E#000000000000C0CF
(1713560010.698179) can0 290#00000002000000DC
(1713560010.700087) can0 120#000000080700005A
(1713560010.700332) can0 121#000000000000005F
(1713560010.700577) can0 129#000000010000005B
(1713560010.700826) can0 140#0000030000000000
(1713560010.701058) can0 174#F07F0056327901D9
(1713560010.701294) can0 178#EA7F0000179301FD
(1713560010.701535) can0 17C#FC7F01002F6901F9
(1713560010.701771) can0 410#2980008B9F6E8B91
(1713560010.704989) can0 400#2880000000000094
(1713560010.705370) can0 541#0440E800007FFFB3
(1713560010.707495) can0 12F#F820022000000033
(1713560010.707740) can0 12D#0000000000000035
(1713560010.707995) can0 290#000000020000003D
(1713560010.710537) can0 174#F07F005635790274
(1713560010.710767) can0 178#E87F0153229302A0
(1713560010.711008) can0 17C#FC7F01002A690257
(1713560010.711360) can0 410#2980008B9F6E8BA4
(1713560010.714991) can0 400#28800000000000A1
(1713560010.715329) can0 551#000000000004C000
(1713560010.715577) can0 5D1#9958000200000000
(1713560010.715823) can0 540#000000104000A000
(1713560010.716065) can0 5B0#6342000000000028
(1713560010.717244) can0 12F#F830022000000052
(1713560010.717482) can0 128#1388030000EC7828
(1713560010.717732) can0 12D#000000000000005F
(1713560010.717976) can0 12E#000000000000C02E
(1713560010.718223) can0 290#0000000200000057
(1713560010.720188) can0 120#000000080700006F
(1713560010.720437) can0 121#000000000000006A
(1713560010.720685) can0 129#000000010000006E
(1713560010.720937) can0 140#0000030000000000
(1713560010.721165) can0 174#EE7F00563479035E
(1713560010.721398) can0 178#F07F02432B9303CE
(1713560010.721636) can0 17C#FA7F01002C69039C
(1713560010.721874) can0 410#2980008B9F6E8BCE
(1713560010.722118) can0 550#48000C000100007C
(1713560010.725085) can0 400#28800000000000CB
(1713560010.725396) can0 541#0440E800007FFFD9
(1713560010.725649) can0 552#00FFFFFFFFFFFFA5
(1713560010.725895) can0 450#005680001B004A00
(1713560010.727559) can0 12F#F82002200000006C
(1713560010.727786) can0 12A#1428701C60580098
(1713560010.728033) can0 12D#000000000000006A
(1713560010.728287) can0 290#0000000200000062
(1713560010.730538) can0 174#EC7F005635790438
(1713560010.730773) can0 178#FC7F0332289304A6
(1713560010.731015) can0 17C#F87F0100316904E8
(1713560010.731369) can0 410#2980008B9F6E8B2F
(1713560010.735089) can0 400#288000000000002A
(1713560010.735347) can0 551#000000000004C000
(1713560010.735585) can0 5D1#9958000200000000
(1713560010.737219) can0 12F#F830022000000086
(1713560010.737453) can0 128#1388030000EC7842
(1713560010.737699) can0 12D#000000000000008B
(1713560010.737943) can0 12E#000000000000C044
(1713560010.738194) can0 290#0010000200000088
(1713560010.740279) can0 120#000000080700008E
(1713560010.740519) can0 121#000000000000008B
(1713560010.740761) can0 129#000000010000008F
(1713560010.740993) can0 174#EA7F005642790534
(1713560010.741245) can0 140#0000030000000000
(1713560010.741479) can0 178#028004301C930518
(1713560010.741721) can0 17C#F87F010032690579
(1713560010.741959) can0 410#2980008B9F6E8B45
(1713560010.744612) can0 6B9#0020400000000000
(1713560010.744849) can0 5A2#1410140000000000
(1713560010.745181) can0 400#2880000000000040
(1713560010.745425) can0 541#0440E800007FFF38
(1713560010.747529) can0 12F#F8200220000000B8
(1713560010.747776) can0 12D#00000000000000BE
(1713560010.748022) can0 290#00100002000000BD
(1713560010.750565) can0 174#E87F00564A7906A5
(1713560010.750794) can0 178#02800530159306D6
(1713560010.751033) can0 17C#F87F010038690651
(1713560010.751286) can0 410#2980008B9F6E8B70
(1713560010.755184) can0 400#2880000000000075
(1713560010.755431) can0 551#000000000004C000
(1713560010.755678) can0 5D1#9958000200000000
(1713560010.757204) can0 12F#F8200220000000D2
(1713560010.757436) can0 128#1388030000EC7877
(1713560010.757680) can0 12D#00000000000000D4
(1713560010.757928) can0 12E#000000000000C071
(1713560010.758176) can0 290#00000002000000DC
(1713560010.760324) can0 120#00000008070000BB
(1713560010.760569) can0 121#00000000000000BE
(1713560010.760811) can0 129#00000001000000BA
(1713560010.761043) can0 174#E87F00564579073E
(1713560010.761279) can0 178#008006321A93076E
(1713560010.761519) can0 17C#FA7F0100406907B2
(1713560010.761769) can0 140#0000030000000000
(1713560010.762008) can0 410#2980008B9F6E8B91
(1713560010.765278) can0 400#2880000000000094
(1713560010.765519) can0 541#0440E800007FFF52
(1713560010.767491) can0 12F#F830022000000038
(1713560010.767733) can0 12D#0000000000000035
(1713560010.767981) can0 290#000000020000003D
(1713560010.770567) can0 174#EA7F00563F790878
(1713560010.770807) can0 178#008007371D9308E6
(1713560010.771043) can0 17C#FA7F01003F6908C7
(1713560010.771279) can0 410#2980008B9F6E8BA4
(1713560010.771522) can0 550#48000C000100009D
(1713560010.775281) can0 400#28800000000000A1
(1713560010.775527) can0 551#000000000004C000
(1713560010.775765) can0 5B1#008A9A6800000028
(1713560010.776011) can0 552#00FFFFFFFFFFFFCF
(1713560010.776253) can0 5D0#9958010200000000
(1713560010.776491) can0 5CF#7444640000000000
(1713560010.776731) can0 5D1#9958000200000000
(1713560010.776975) can0 5D2#7444640000000000
(1713560010.777225) can0 12D#000000000000005F
(1713560010.777460) can0 128#1388030000EC7896
(1713560010.777694) can0 12A#1428701C605800AD
(1713560010.777940) can0 12E#000000000000C090
(1713560010.778182) can0 12F#F820022000000059
(1713560010.778429) can0 290#0000000200000057
(1713560010.778668) can0 450#005680001B004A00
(1713560010.778907) can0 5A0#0000006244928029
(1713560010.780422) can0 120#00000008070000D1
(1713560010.780665) can0 121#00000000000000D4
(1713560010.780908) can0 129#00000001000000D0
(1713560010.781136) can0 174#EE7F00563A790985
(1713560010.781371) can0 178#0080085F1F9309C6
(1713560010.781609) can0 17C#FA7F010038690950
(1713560010.781847) can0 410#2980008B9F6E8BCE
(1713560010.782180) can0 140#0000030000000000
(1713560010.785358) can0 541#0440E800007FFF67
(1713560010.785603) can0 400#28800000000000CB
(1713560010.787471) can0 12F#F82002200000006C
(1713560010.787714) can0 12D#000000000000006A
(1713560010.787963) can0 290#0000000200000062
(1713560010.790573) can0 174#F07F00563A790A1A
(1713560010.790808) can0 178#0080093020930A93
(1713560010.791056) can0 17C#F87F010038690ACD
(1713560010.791292) can0 410#2980008B9F6E8B2F
(1713560010.795309) can0 551#000000000004C000
(1713560010.795557) can0 400#288000000000002A
(1713560010.795806) can0 4EA#0000000000000000
(1713560010.796052) can0 5B2#0800000000000000
(1713560010.796298) can0 310#FFFFFFFF7D7D0000
(1713560010.796537) can0 5D1#9958000200000000
(1713560010.797114) can0 12F#F830022000000086
(1713560010.797350) can0 128#1388030000EC78A3
(1713560010.797596) can0 12D#000000000000008B
(1713560010.797840) can0 12E#000000000000C0A5
(1713560010.798092) can0 290#0000000200000083
(1713560010.800517) can0 120#0000000807000030
(1713560010.800765) can0 121#0000000000000035
(1713560010.801009) can0 129#0000000100000031
(1713560010.801242) can0 174#F07F005635790B81
(1713560010.801471) can0 178#FC7F0A371F930B71
(1713560010.801711) can0 17C#F47F010037690BED
(1713560010.801949) can0 410#2980008B9F6E8B45
(1713560010.802750) can0 140#0000030000000000
(1713560010.805352) can0 541#0440E800007FFF86
(1713560010.805598) can0 400#2880000000000040
(1713560010.807400) can0 12F#F8200220000000B8
(1713560010.807645) can0 12D#00000000000000BE
(1713560010.807891) can0 290#00000002000000B6
(1713560010.810579) can0 174#EE7F00562A790CF4
(1713560010.810807) can0 178#F67F0B311D930C4A
(1713560010.811041) can0 17C#EE7F010032690CE6
(1713560010.811287) can0 410#2980008B9F6E8B70
(1713560010.815305) can0 551#000000000004C000
(1713560010.815551) can0 400#2880000000000075
(1713560010.815791) can0 5D1#9958000200000000
(1713560010.816117) can0 540#000000104000A000
(1713560010.816359) can0 5B0#6342000000000042
(1713560010.817145) can0 12F#F8300220000000D9
(1713560010.817381) can0 128#1388030000EC78C9
(1713560010.817626) can0 12D#00000000000000D4
(1713560010.817870) can0 12E#000000000000C0CF
(1713560010.818118) can0 290#00000002000000DC
(1713560010.820521) can0 174#EC7F00561C790D7E
(1713560010.820764) can0 120#000000080700005A
(1713560010.821012) can0 121#000000000000005F
(1713560010.821257) can0 129#000000010000005B
(1713560010.821493) can0 178#F67F00001F930D6F
(1713560010.821728) can0 17C#E87F010034690D2D
(1713560010.821965) can0 410#2980008B9F6E8B91
(1713560010.822209) can0 550#48000C00010000A8
(1713560010.823270) can0 140#0000030000000000
(1713560010.825372) can0 541#0440E800007FFFB3
(1713560010.825622) can0 400#2880000000000094
(1713560010.825868) can0 552#00FFFFFFFFFFFF2E
(1713560010.826114) can0 450#005680001B004A00
(1713560010.827461) can0 12F#F820022000000033
(1713560010.827694) can0 12A#1428701C605800C7
(1713560010.827940) can0 12D#0000000000000035
(1713560010.828188) can0 290#000000020000003D
(1713560010.830589) can0 174#EA7F005617790E0A
(1713560010.830820) can0 178#F67F013720930E17
(1713560010.831056) can0 17C#EA7F01003A690EB9
(1713560010.831294) can0 410#2980008B9F6E8BA4
(1713560010.835385) can0 551#000000000004C000
(1713560010.835609) can0 5D1#9958000200000000
(1713560010.835855) can0 400#28800000000000A1
(1713560010.837123) can0 12F#F820022000000059
(1713560010.837360) can0 128#1388030000EC7828
(1713560010.837610) can0 12D#000000000000005F
(1713560010.837854) can0 12E#000000000000C02E
(1713560010.838101) can0 290#0000000200000057
(1713560010.840539) can0 174#EA7F00561F790F1B
(1713560010.840786) can0 120#000000080700006F
(1713560010.841039) can0 121#000000000000006A
(1713560010.841287) can0 129#000000010000006E
(1713560010.841517) can0 178#F67F022E1A930FB7
(1713560010.841754) can0 17C#F27F010040690F88
(1713560010.841991) can0 410#2980008B9F6E8BCE
(1713560010.843795) can0 140#0000030000000000
(1713560010.844872) can0 6B9#0020400000000000
(1713560010.845114) can0 5A2#1410140000000000
(1713560010.845372) can0 541#0440E800007FFFD9
(1713560010.845665) can0 400#28800000000000CB
(1713560010.847401) can0 12F#F830022000000067
(1713560010.847644) can0 12D#000000000000006A
(1713560010.847892) can0 290#0000000200000062
(1713560010.850582) can0 174#EA7F00562C790004
(1713560010.850818) can0 178#FA7F03310C93008D
(1713560010.851060) can0 17C#F87F01003D690096
(1713560010.851301) can0 410#2980008B9F6E8B2F
(1713560010.855383) can0 551#000000000004C000
(1713560010.855604) can0 5D1#9958000200000000
(1713560010.855850) can0 400#288000000000002A
(1713560010.857164) can0 12F#F82002200000008D
(1713560010.857397) can0 128#1388030000EC7842
(1713560010.857643) can0 12D#000000000000008B
(1713560010.857887) can0 12E#000000000000C044
(1713560010.858139) can0 290#0000000200000083
(1713560010.860533) can0 174#EA7F00563479010D
(1713560010.860771) can0 178#FE7F0430039301E9
(1713560010.861017) can0 120#000000080700008E
(1713560010.861261) can0 121#000000000000008B
(1713560010.861503) can0 129#000000010000008F
(1713560010.861739) can0 17C#F67F01002C69011D
(1713560010.861978) can0 410#2980008B9F6E8B45
(1713560010.864266) can0 140#0000030000000000
(1713560010.865311) can0 541#0440E800007FFF38
(1713560010.865713) can0 400#2880000000000040
(1713560010.867396) can0 12F#F8200220000000B8
(1713560010.867641) can0 12D#00000000000000BE
(1713560010.867887) can0 290#00000002000000B6
(1713560010.870591) can0 174#EE7F005638790249
(1713560010.870827) can0 178#FE7F00000693029D
(1713560010.871065) can0 17C#F27F01001B6902F1
(1713560010.871303) can0 410#2980008B9F6E8B70
(1713560010.871543) can0 550#48000C00010000C2
(1713560010.875391) can0 551#000000000004C000
(1713560010.875612) can0 5B1#008A9A6800000042
(1713560010.875854) can0 552#00FFFFFFFFFFFF44
(1713560010.876100) can0 400#2880000000000075
(1713560010.876342) can0 5D0#9958010200000000
(1713560010.876580) can0 5CF#7444640000000000
(1713560010.876820) can0 5D1#9958000200000000
(1713560010.877067) can0 5D2#7444640000000000
(1713560010.877300) can0 128#1388030000EC7877
(1713560010.877535) can0 12A#1428701C60580026
(1713560010.877779) can0 12D#00000000000000D4
(1713560010.878027) can0 12E#000000000000C071
(1713560010.878267) can0 12F#F8300220000000D9
(1713560010.878515) can0 290#00000002000000DC
(1713560010.878755) can0 450#005680001B004A00
(1713560010.878993) can0 5A0#0000006244928043
(1713560010.880539) can0 174#F27F005642790311
(1713560010.880775) can0 178#FE7F013812930307
(1713560010.881019) can0 120#00000008070000BB
(1713560010.881265) can0 121#00000000000000BE
(1713560010.881507) can0 129#00000001000000BA
(1713560010.881745) can0 17C#F47F01001B69033F
(1713560010.881982) can0 410#2980008B9F6E8B91
(1713560010.884789) can0 140#0000030000000000
(1713560010.885809) can0 400#2880000000000094
(1713560010.887447) can0 12F#F820022000000033
(1713560010.887689) can0 12D#0000000000000035
(1713560010.887937) can0 290#000000020000003D
(1713560010.888178) can0 541#0440E800007FFF52
(1713560010.890593) can0 410#2980008B9F6E8BA4
(1713560010.890825) can0 174#F07F0056487904F7
(1713560010.891059) can0 178#FC7F02321D93046D
(1713560010.891303) can0 17C#F87F01002D6904FA
(1713560010.895383) can0 551#000000000004C000
(1713560010.895606) can0 4EA#0000000000000000
(1713560010.895851) can0 5B2#0800000000000000
(1713560010.896098) can0 310#FFFFFFFF7D7D0000
(1713560010.896342) can0 400#28800000000000A1
(1713560010.896583) can0 5D1#9958000200000000
(1713560010.897189) can0 12F#F830022000000052
(1713560010.897423) can0 128#1388030000EC7896
(1713560010.897673) can0 12D#000000000000005F
(1713560010.897920) can0 12E#000000000000C090
(1713560010.898165) can0 290#001000020000005C
(1713560010.900514) can0 410#2980008B9F6E8BCE
(1713560010.900747) can0 174#EA7F00564879053B
(1713560010.900983) can0 178#FA7F03321D9305C9
(1713560010.901227) can0 120#00000008070000D1
(1713560010.901471) can0 121#00000000000000D4
(1713560010.901713) can0 129#00000001000000D0
(1713560010.901953) can0 17C#FE7F0100406905E1
(1713560010.905299) can0 541#0440E800007FFF67
(1713560010.905548) can0 140#0000030000000000
(1713560010.905906) can0 400#28800000000000CB
(1713560010.907368) can0 12F#F82002200000006C
(1713560010.907643) can0 12D#000000000000006A
(1713560010.907887) can0 290#0010000200000069
(1713560010.910540) can0 410#2980008B9F6E8B2F
(1713560010.910768) can0 174#E87F005645790623
(1713560010.911001) can0 178#F67F0435179306A5
(1713560010.911237) can0 17C#028001004B69065D
(1713560010.915380) can0 551#000000000004C000
(1713560010.915605) can0 5D1#9958000200000000
(1713560010.916014) can0 400#288000000000002A
(1713560010.916658) can0 540#000000104000A000
(1713560010.916894) can0 5B0#6342000000000077
(1713560010.917174) can0 12F#F82002200000008D
(1713560010.917410) can0 128#1388030000EC78A3
(1713560010.917656) can0 12D#000000000000008B
(1713560010.917901) can0 12E#000000000000C0A5
(1713560010.918152) can0 290#0000000200000083
(1713560010.920460) can0 410#2980008B9F6E8B45
(1713560010.920696) can0 174#EC7F0056407907DE
(1713560010.920934) can0 178#F07F000015930761
(1713560010.921180) can0 120#0000000807000030
(1713560010.921428) can0 121#0000000000000035
(1713560010.921672) can0 129#0000000100000031
(1713560010.921912) can0 17C#00800100456907F3
(1713560010.922154) can0 550#48000C0001000023
(1713560010.925317) can0 541#0440E800007FFF86
(1713560010.925570) can0 552#00FFFFFFFFFFFF71
(1713560010.925816) can0 450#005680001B004A00
(1713560010.926067) can0 140#0000030000000000
(1713560010.926316) can0 400#2880000000000040
(1713560010.927482) can0 12F#F8300220000000B3
(1713560010.927763) can0 12A#1428701C6058004C
(1713560010.928011) can0 12D#00000000000000BE
(1713560010.928258) can0 290#00000002000000B6
(1713560010.930502) can0 410#2980008B9F6E8B70
(1713560010.930738) can0 174#F07F00563A790820
(1713560010.930962) can0 178#EC7F01321D9308F6
(1713560010.931202) can0 17C#F87F01002D690866
(1713560010.935368) can0 551#000000000004C000
(1713560010.935600) can0 5D1#9958000200000000
(1713560010.936100) can0 400#2880000000000075
(1713560010.937185) can0 12F#F8200220000000D2
(1713560010.937414) can0 128#1388030000EC78C9
(1713560010.937656) can0 12D#00000000000000D4
(1713560010.937900) can0 12E#000000000000C0CF
(1713560010.938148) can0 290#00000002000000DC
(1713560010.940483) can0 410#2980008B9F6E8B91
(1713560010.940712) can0 174#F07F005634790934
(1713560010.940947) can0 178#F07F023025930954
(1713560010.941132) can0 17C#F27F010024690990
(1713560010.941377) can0 120#000000080700005A
(1713560010.941624) can0 121#000000000000005F
(1713560010.941868) can0 129#000000010000005B
(1713560010.945086) can0 6B9#0020400000000000
(1713560010.945327) can0 541#0440E800007FFFB3
(1713560010.945571) can0 5A2#1410140000000000
(1713560010.946105) can0 400#2880000000000094
(1713560010.946357) can0 140#0000030000000000
(1713560010.947350) can0 12F#F820022000000033
(1713560010.947586) can0 12D#0000000000000035
(1713560010.947834) can0 290#000000020000003D
(1713560010.950458) can0 410#2980008B9F6E8BA4
(1713560010.950685) can0 174#EE7F005632790AAE
(1713560010.950913) can0 178#F67F033227930AEE
(1713560010.951146) can0 17C#E87F010031690AF7
(1713560010.955362) can0 551#000000000004C000
(1713560010.955598) can0 5D1#9958000200000000
(1713560010.956197) can0 400#28800000000000A1
(1713560010.957161) can0 12F#F830022000000052
(1713560010.957399) can0 128#1388030000EC7828
(1713560010.957656) can0 12D#000000000000005F
(1713560010.957895) can0 12E#000000000000C02E
(1713560010.958139) can0 290#0000000200000057
(1713560010.960430) can0 410#2980008B9F6E8BCE
(1713560010.960658) can0 174#EE7F005634790BB6
(1713560010.960893) can0 178#F87F043322930BED
(1713560010.961126) can0 17C#E27F010042690B46
(1713560010.961380) can0 120#000000080700006F
(1713560010.961582) can0 121#000000000000006A
(1713560010.961831) can0 129#000000010000006E
(1713560010.965303) can0 541#0440E800007FFFD9
(1713560010.966204) can0 400#28800000000000CB
(1713560010.966870) can0 140#0000030000000000
(1713560010.967369) can0 12F#F82002200000006C
(1713560010.967615) can0 12D#000000000000006A
(1713560010.967863) can0 290#0000000200000062
(1713560010.970407) can0 410#2980008B9F6E8B2F
(1713560010.970639) can0 174#EE7F005635790C6A
(1713560010.970867) can0 178#F47F053118930C6F
(1713560010.971101) can0 17C#EA7F010042690CC7
(1713560010.971442) can0 550#48000C0001000049
(1713560010.975397) can0 551#000000000004C000
(1713560010.975615) can0 5D0#9958010200000000
(1713560010.975860) can0 552#00FFFFFFFFFFFF90
(1713560010.976096) can0 5B1#008A9A6800000077
(1713560010.976334) can0 5CF#7444640000000000
(1713560010.976583) can0 400#288000000000002A
(1713560010.976822) can0 5D1#9958000200000000
(1713560010.977068) can0 5D2#7444640000000000
(1713560010.977304) can0 128#1388030000EC7842
(1713560010.977536) can0 12A#1428701C60580079
(1713560010.977788) can0 12D#000000000000008B
(1713560010.978027) can0 12E#000000000000C044
(1713560010.978267) can0 12F#F830022000000086
(1713560010.978519) can0 290#0000000200000083
(1713560010.978760) can0 450#005680001B004A00
(1713560010.978997) can0 5A0#0000006244928076
(1713560010.980379) can0 410#2980008B9F6E8B45
(1713560010.980625) can0 174#F07F005635790DCF
(1713560010.980858) can0 178#F47F063014930D5B
(1713560010.981096) can0 17C#FC7F010032690DF8
(1713560010.981438) can0 120#000000080700008E
(1713560010.981646) can0 121#000000000000008B
(1713560010.981875) can0 129#000000010000008F
(1713560010.985303) can0 541#0440E800007FFF38
(1713560010.986302) can0 400#2880000000000040
(1713560010.987391) can0 140#0000030000000000
(1713560010.987638) can0 12D#00000000000000BE
(1713560010.987883) can0 12F#F8200220000000B8
(1713560010.988129) can0 290#00000002000000B6
(1713560010.990349) can0 410#2980008B9F6E8B70
(1713560010.990627) can0 174#F47F00563A790E07
(1713560010.990863) can0 178#FC7F073114930E59
(1713560010.991097) can0 17C#0C80010022690E67
(1713560010.995249) can0 4EA#0000000000000000
(1713560010.995494) can0 551#000000000004C000
(1713560010.995739) can0 5B2#0800000000000000
(1713560010.995985) can0 310#FFFFFFFF7D7D0000
(1713560010.996224) can0 5D1#9958000200000000
(1713560010.996471) can0 400#2880000000000075
(1713560010.997155) can0 12F#F8200220000000D2
(1713560010.997388) can0 128#1388030000EC7877
(1713560010.997633) can0 12D#00000000000000D4
(1713560010.997881) can0 12E#000000000000C071
(1713560010.998137) can0 290#00000002000000DC
(1713560011.000296) can0 410#2980008B9F6E8B91
(1713560011.000634) can0 174#F67F005640790FE7
(1713560011.000870) can0 178#0480083818930F41
(1713560011.001105) can0 17C#0E80010019690F68
(1713560011.001534) can0 120#00000008070000BB
(1713560011.001780) can0 121#00000000000000BE
(1713560011.001990) can0 129#00000001000000BA
(1713560011.005294) can0 541#0440E800007FFF52
(1713560011.006398) can0 400#2880000000000094
(1713560011.007385) can0 12F#F830022000000038
(1713560011.007630) can0 12D#0000000000000035
(1713560011.007878) can0 290#000000020000003D
(1713560011.008129) can0 140#0000030000000000
(1713560011.008355) can0 6AB#ACC2A57596A3C162
(1713560011.010276) can0 410#2980008B9F6E8BA4
(1713560011.010636) can0 174#F67F00564079005C
(1713560011.010878) can0 178#048000001F9300F4
(1713560011.011122) can0 17C#04800100136900B4
(1713560011.015351) can0 551#000000000004C000
(1713560011.015599) can0 5D1#9958000200000000
(1713560011.016490) can0 400#28800000000000A1
(1713560011.017166) can0 12F#F820022000000059
(1713560011.017400) can0 128#1388030000EC7896
(1713560011.017650) can0 12D#000000000000005F
(1713560011.017896) can0 12E#000000000000C090
(1713560011.018143) can0 290#0000000200000057
(1713560011.018396) can0 540#000000104000A000
(1713560011.018633) can0 5B0#6342000000000096
(1713560011.020278) can0 410#2980008B9F6E8BCE
(1713560011.020635) can0 174#F27F0056377901EA
(1713560011.020874) can0 178#FE7F00001F930121
(1713560011.021111) can0 17C#FA7F010013690108
(1713560011.021436) can0 550#48000C000100007C
(1713560011.021686) can0 120#00000008070000D1
(1713560011.021930) can0 121#00000000000000D4
(1713560011.022172) can0 129#00000001000000D0
(1713560011.025316) can0 541#0440E800007FFF67
(1713560011.025570) can0 552#00FFFFFFFFFFFFA5
(1713560011.025816) can0 450#005680001B004A00
(1713560011.026500) can0 400#28800000000000CB
(1713560011.027445) can0 12F#F82002200000006C
(1713560011.027678) can0 12A#1428701C60580098
(1713560011.027924) can0 12D#000000000000006A
(1713560011.028172) can0 290#0000000200000062
(1713560011.028430) can0 140#0000030000000000
(1713560011.030279) can0 410#2980008B9F6E8B2F
(1713560011.030640) can0 174#EC7F00562D790262
(1713560011.030875) can0 178#F67F015220930286
(1713560011.031115) can0 17C#F87F01001C690213
(1713560011.035371) can0 551#000000000004C000
(1713560011.035596) can0 5D1#9958000200000000
(1713560011.036588) can0 400#288000000000002A
(1713560011.037165) can0 12F#F830022000000086
(1713560011.037401) can0 128#1388030000EC78A3
(1713560011.037649) can0 12D#000000000000008B
(1713560011.037892) can0 12E#000000000000C0A5
(1713560011.038142) can0 290#0010000200000088
(1713560011.040287) can0 410#2980008B9F6E8B45
(1713560011.040644) can0 174#E67F00562D790317
(1713560011.040872) can0 178#F47F026F25930336
(1713560011.041115) can0 17C#FA7F01002769031C
(1713560011.041735) can0 120#0000000807000030
(1713560011.041982) can0 121#0000000000000035
(1713560011.042227) can0 129#0000000100000031
(1713560011.045295) can0 541#0440E800007FFF86
(1713560011.045542) can0 6B9#0020400000000000
(1713560011.045786) can0 5A2#1410140000000000
(1713560011.046600) can0 400#2880000000000040
(1713560011.047347) can0 12F#F8200220000000B8
(1713560011.047595) can0 12D#00000000000000BE
(1713560011.047841) can0 290#00100002000000BD
(1713560011.048941) can0 140#0000030000000000
(1713560011.050225) can0 410#2980008B9F6E8B70
(1713560011.050602) can0 174#E27F0056307904B0
(1713560011.050835) can0 178#F67F036222930470
(1713560011.051073) can0 17C#FE7F01002F69042A
(1713560011.055362) can0 551#000000000004C000
(1713560011.055584) can0 5D1#9958000200000000
(1713560011.056683) can0 400#2880000000000075
(1713560011.057160) can0 12F#F8300220000000D9
(1713560011.057397) can0 128#1388030000EC78C9
(1713560011.057640) can0 12D#00000000000000D4
(1713560011.057884) can0 12E#000000000000C0CF
(1713560011.058130) can0 290#00100002000000D7
(1713560011.060275) can0 410#2980008B9F6E8B91
(1713560011.060653) can0 174#E47F0056357905F7
(1713560011.060885) can0 178#F67F0465149305BF
(1713560011.061125) can0 17C#FE7F0100346905AF
(1713560011.061831) can0 120#000000080700005A
(1713560011.062079) can0 121#000000000000005F
(1713560011.062323) can0 129#000000010000005B
(1713560011.065300) can0 541#0440E800007FFFB3
(1713560011.066695) can0 400#2880000000000094
(1713560011.067351) can0 12F#F820022000000033
(1713560011.067585) can0 12D#0000000000000035
(1713560011.067829) can0 290#0010000200000036
(1713560011.069455) can0 140#0000030000000000
(1713560011.070225) can0 410#2980008B9F6E8BA4
(1713560011.070602) can0 174#EA7F00563479065E
(1713560011.070836) can0 178#F07F05720D93066B
(1713560011.071078) can0 17C#00800100376906A5
(1713560011.071397) can0 550#48000C000100009D
(1713560011.075394) can0 551#000000000004C000
(1713560011.075607) can0 5D0#9958010200000000
(1713560011.075855) can0 552#00FFFFFFFFFFFFCF
(1713560011.076091) can0 5B1#008A9A6800000096
(1713560011.076333) can0 55A#0017160000000000
(1713560011.076571) can0 5CF#7444640000000000
(1713560011.076811) can0 5D1#9958000200000000
(1713560011.077058) can0 400#28800000000000A1
(1713560011.077296) can0 128#1388030000EC7828
(1713560011.077530) can0 12A#1428701C605800AD
(1713560011.077779) can0 12D#000000000000005F
(1713560011.078024) can0 12E#000000000000C02E
(1713560011.078266) can0 12F#F820022000000059
(1713560011.078512) can0 290#0000000200000057
(1713560011.078748) can0 5A0#0000006244928097
(1713560011.078987) can0 5D2#7444640000000000
(1713560011.079264) can0 450#005680001B004A00
(1713560011.080276) can0 410#2980008B9F6E8BCE
(1713560011.080665) can0 174#F07F005634790792
(1713560011.080899) can0 178#EA7F067411930762
(1713560011.081135) can0 17C#FE7F01003B690713
(1713560011.081931) can0 120#000000080700006F
(1713560011.082183) can0 121#000000000000006A
(1713560011.082432) can0 129#000000010000006E
(1713560011.085295) can0 541#0440E800007FFFD9
(1713560011.086793) can0 400#28800000000000CB
(1713560011.087406) can0 12F#F830022000000067
(1713560011.087651) can0 12D#000000000000006A
(1713560011.087900) can0 290#0000000200000062
(1713560011.089974) can0 140#0000030000000000
(1713560011.090226) can0 410#2980008B9F6E8B2F
(1713560011.090612) can0 174#F07F00563B7908AF
(1713560011.090844) can0 178#EC7F072014930816
(1713560011.091083) can0 17C#F87F0100386908F7
(1713560011.095061) can0 4EA#0000000000000000
(1713560011.095305) can0 5B2#0800000000000000
(1713560011.095556) can0 310#FFFFFFFF7D7D0000
(1713560011.095797) can0 551#000000000004C000
(1713560011.096046) can0 5D1#9958000200000000
(1713560011.096878) can0 400#288000000000002A
(1713560011.097161) can0 12F#F82002200000008D
(1713560011.097393) can0 128#1388030000EC7842
(1713560011.097641) can0 12D#000000000000008B
(1713560011.097885) can0 12E#000000000000C044
(1713560011.098137) can0 290#0000000200000083
(1713560011.100278) can0 410#2980008B9F6E8B45
(1713560011.100679) can0 174#EC7F00563F7909B6
(1713560011.100905) can0 178#F67F0842159309D0
(1713560011.101151) can0 17C#F07F01002D6909A9
(1713560011.102028) can0 120#000000080700008E
(1713560011.102270) can0 121#000000000000008B
(1713560011.102513) can0 129#000000010000008F
(1713560011.105290) can0 541#0440E800007FFF38
(1713560011.106892) can0 400#2880000000000040
(1713560011.107349) can0 12F#F8200220000000B8
(1713560011.107588) can0 12D#00000000000000BE
(1713560011.107834) can0 290#00000002000000B6
(1713560011.110224) can0 410#2980008B9F6E8B70
(1713560011.110498) can0 140#0000030000000000
(1713560011.110726) can0 174#EE7F005638790AA1
(1713560011.110956) can0 178#0280096F18930AD4
(1713560011.111195) can0 17C#EC7F010022690A0A
(1713560011.115351) can0 551#000000000004C000
(1713560011.115596) can0 5D1#9958000200000000
(1713560011.116974) can0 400#2880000000000075
(1713560011.117214) can0 12F#F8300220000000D9
(1713560011.117448) can0 128#1388030000EC7877
(1713560011.117692) can0 12D#00000000000000D4
(1713560011.117940) can0 12E#000000000000C071
(1713560011.118188) can0 290#00000002000000DC
(1713560011.118434) can0 540#000000104000A000
(1713560011.118677) can0 5B0#63420000000000A3
(1713560011.120275) can0 410#2980008B9F6E8B91
(1713560011.120678) can0 174#F27F00562C790BA0
(1713560011.120911) can0 178#08800A731F930B62
(1713560011.121147) can0 17C#F07F010021690B99
(1713560011.121449) can0 550#48000C00010000A8
(1713560011.122122) can0 120#00000008070000BB
(1713560011.122367) can0 121#00000000000000BE
(1713560011.122609) can0 129#00000001000000BA
(1713560011.125316) can0 541#0440E800007FFF52
(1713560011.125563) can0 552#00FFFFFFFFFFFF2E
(1713560011.125809) can0 450#005680001B004A00
(1713560011.126985) can0 400#2880000000000094
(1713560011.127446) can0 12F#F820022000000033
(1713560011.127681) can0 12A#1428701C605800C7
(1713560011.127927) can0 12D#0000000000000035
(1713560011.128176) can0 290#000000020000003D
(1713560011.130202) can0 410#2980008B9F6E8BA4
(1713560011.130628) can0 174#F67F00561F790C3E
(1713560011.130860) can0 178#08800B6323930C5C
(1713560011.131110) can0 140#0000030000000000
(1713560011.131353) can0 17C#F87F010027690C1D
(1713560011.135351) can0 551#000000000004C000
(1713560011.135595) can0 5D1#9958000200000000
(1713560011.137072) can0 400#28800000000000A1
(1713560011.137305) can0 128#1388030000EC7896
(1713560011.137555) can0 12D#000000000000005F
(1713560011.137802) can0 12E#000000000000C090
(1713560011.138043) can0 12F#F830022000000052
(1713560011.138289) can0 290#001000020000005C
(1713560011.140229) can0 410#2980008B9F6E8BCE
(1713560011.140673) can0 174#F47F005619790D9C
(1713560011.140906) can0 178#02800C6822930D8B
(1713560011.141144) can0 17C#FE7F01002F690DDF
(1713560011.142225) can0 120#00000008070000D1
(1713560011.142464) can0 121#00000000000000D4
(1713560011.142704) can0 129#00000001000000D0
(1713560011.145345) can0 541#0440E800007FFF67
(1713560011.145606) can0 6B9#0020400000000000
(1713560011.145851) can0 5A2#1410140000000000
(1713560011.147083) can0 400#28800000000000CB
(1713560011.147349) can0 12F#F82002200000006C
(1713560011.147584) can0 12D#000000000000006A
(1713560011.147828) can0 290#0010000200000069
(1713560011.150150) can0 410#2980008B9F6E8B2F
(1713560011.150632) can0 174#F07F00561C790E5B
(1713560011.150864) can0 178#F87F0D2018930E21
(1713560011.151103) can0 17C#FC7F010034690EDA
(1713560011.151526) can0 140#0000030000000000
(1713560011.155287) can0 551#000000000004C000
(1713560011.155538) can0 5D1#9958000200000000
(1713560011.157174) can0 400#288000000000002A
(1713560011.157410) can0 128#1388030000EC78A3
(1713560011.157656) can0 12D#000000000000008B
(1713560011.157901) can0 12E#000000000000C0A5
(1713560011.158145) can0 12F#F82002200000008D
(1713560011.158395) can0 290#0000000200000083
(1713560011.160175) can0 410#2980008B9F6E8B45
(1713560011.160692) can0 174#F07F005625790FED
(1713560011.160919) can0 178#F67F0E470D930F38
(1713560011.161160) can0 17C#F87F010037690F22
(1713560011.162318) can0 120#0000000807000030
(1713560011.162565) can0 121#0000000000000035
(1713560011.162810) can0 129#0000000100000031
(1713560011.165348) can0 541#0440E800007FFF86
(1713560011.167234) can0 400#2880000000000040
(1713560011.167474) can0 12F#F8300220000000B3
(1713560011.167720) can0 12D#00000000000000BE
(1713560011.167967) can0 290#00000002000000B6
(1713560011.170094) can0 410#2980008B9F6E8B70
(1713560011.170637) can0 174#F07F00562D79005A
(1713560011.170874) can0 178#F87F0F6D0D930019
(1713560011.171118) can0 17C#F87F01003A69001C
(1713560011.171389) can0 550#48000C00010000C2
(1713560011.172042) can0 140#0000030000000000
(1713560011.175524) can0 5D0#9958010200000000
(1713560011.175770) can0 551#000000000004C000
(1713560011.176005) can0 5B1#008A9A68000000A3
(1713560011.176249) can0 552#00FFFFFFFFFFFF44
(1713560011.176487) can0 5CF#7444640000000000
(1713560011.176727) can0 5D1#9958000200000000
(1713560011.177016) can0 5D2#7444640000000000
(1713560011.177264) can0 12F#F8200220000000D2
(1713560011.177500) can0 128#1388030000EC78C9
(1713560011.177735) can0 12A#1428701C60580026
(1713560011.177979) can0 12D#00000000000000D4
(1713560011.178223) can0 12E#000000000000C0CF
(1713560011.178473) can0 290#00000002000000DC
(1713560011.178717) can0 400#2880000000000075
(1713560011.178957) can0 450#005680001B004A00
(1713560011.179195) can0 5A0#00000062449280A2
(1713560011.180118) can0 410#2980008B9F6E8B91
(1713560011.180690) can0 174#EE7F00562F7901FC
(1713560011.180924) can0 178#FC7F00621D930161
