(1713562095.146058) can0 4EA#0000000000000000
(1713562095.146227) can0 5B2#0800000000000000
(1713562095.146469) can0 310#FFFFFFFF7D7D2100
(1713562095.245796) can0 4EA#0000000000000000
(1713562095.246020) can0 5B2#0800000000000000
(1713562095.246261) can0 310#FFFFFFFF7D7D2100
(1713562095.301355) can0 550#40003C0001000048
(1713562095.345580) can0 4EA#0000000000000000
(1713562095.345811) can0 5B2#0800000000000000
(1713562095.346054) can0 310#FFFFFFFF7D7D2100
(1713562095.351292) can0 550#40003C000100007D
(1713562095.401353) can0 550#40003C000100009C
(1713562095.445384) can0 4EA#0000000000000000
(1713562095.445608) can0 5B2#0800000000000000
(1713562095.445849) can0 310#FFFFFFFF7D7D2100
(1713562095.446089) can0 128#1388030000EC781D
(1713562095.446336) can0 12D#0000000000000000
(1713562095.446588) can0 12E#0000000000000000
(1713562095.446839) can0 12F#0000000000000000
(1713562095.447089) can0 290#0000000000000000
(1713562095.451289) can0 550#40003C00010000A9
(1713562095.455900) can0 12F#0000000000000035
(1713562095.456140) can0 12A#1028103C0058000D
(1713562095.456385) can0 12D#0000000000000035
(1713562095.456633) can0 290#0000000000000035
(1713562095.465967) can0 12F#000000000000005F
(1713562095.466204) can0 128#1388030000EC7828
(1713562095.466451) can0 12D#000000000000005F
(1713562095.466699) can0 12E#0000000000000035
(1713562095.466949) can0 290#000000000000005F
(1713562095.475964) can0 12F#000000000000006A
(1713562095.476209) can0 12D#000000000000006A
(1713562095.476459) can0 290#000000000000006A
(1713562095.485953) can0 12F#000000000000008B
(1713562095.486194) can0 128#1388030000EC7842
(1713562095.486440) can0 12D#000000000000008B
(1713562095.486688) can0 12E#000000000000005F
(1713562095.486930) can0 290#000000000000008B
(1713562095.495946) can0 12F#00000000000000BE
(1713562095.496194) can0 12D#00000000000000BE
(1713562095.496442) can0 290#00000000000000BE
(1713562095.501344) can0 550#40003C00010000C3
(1713562095.505973) can0 12F#00000000000000D4
(1713562095.506202) can0 128#1388030000EC7877
(1713562095.506448) can0 12A#1028103C00580038
(1713562095.506686) can0 12D#00000000000000D4
(1713562095.506930) can0 12E#000000000000006A
(1713562095.507177) can0 290#00000000000000D4
(1713562095.515981) can0 12F#0000000000000035
(1713562095.516225) can0 12D#0000000000000035
(1713562095.516474) can0 290#0000000000000035
(1713562095.523860) can0 174#F87F4058B07841FD
(1713562095.524087) can0 178#E67F4000A6944154
(1713562095.524324) can0 17C#068041004767410E
(1713562095.526141) can0 12F#000000000000005F
(1713562095.526375) can0 128#1388030000EC7896
(1713562095.526633) can0 12D#000000000000005F
(1713562095.526872) can0 12E#000000000000008B
(1713562095.527121) can0 290#000000000000005F
(1713562095.533799) can0 174#F67F40580079427F
(1713562095.534027) can0 178#F27F4136AA93423C
(1713562095.534261) can0 17C#048041005B684222
(1713562095.535902) can0 410#2800008B9F6E9F3D
(1713562095.536148) can0 12D#000000000000006A
(1713562095.536394) can0 12F#000000000000006A
(1713562095.536645) can0 290#000000000000006A
(1713562095.543862) can0 174#F67F405840794302
(1713562095.544087) can0 178#F87F4230F192432A
(1713562095.544327) can0 17C#FE7F41002A69437C
(1713562095.545239) can0 4EA#0000000000000000
(1713562095.545484) can0 5B2#0800000000000000
(1713562095.545736) can0 310#FFFFFFFF7D7D2100
(1713562095.545965) can0 410#2800008B9F6E9F57
(1713562095.546197) can0 128#1388030000EC78A3
(1713562095.546449) can0 12D#000000000000008B
(1713562095.546695) can0 12E#00000000000000BE
(1713562095.546945) can0 12F#000000000000008B
(1713562095.547187) can0 290#000000000000008B
(1713562095.551289) can0 550#40003C0001000022
(1713562095.553806) can0 174#F47F40585179447C
(1713562095.554039) can0 178#F87F4331BA92446E
(1713562095.554273) can0 17C#FA7F41006C694423
(1713562095.554563) can0 400#6440000000000012
(1713562095.555846) can0 410#2800008B9F6E9F62
(1713562095.556091) can0 12F#00000000000000BE
(1713562095.556329) can0 12A#1028103C00580052
(1713562095.556577) can0 12D#00000000000000BE
(1713562095.556825) can0 290#00000000000000BE
(1713562095.563816) can0 174#F07F40583F794551
(1713562095.564042) can0 178#F67F4438D59245AE
(1713562095.564278) can0 17C#FE7F4100536945F9
(1713562095.564611) can0 400#6440000000000027
(1713562095.565869) can0 410#2800008B9F6E9F83
(1713562095.566114) can0 12F#00000000000000D4
(1713562095.566349) can0 128#1388030000EC78C9
(1713562095.566596) can0 12D#00000000000000D4
(1713562095.566841) can0 12E#00000000000000D4
(1713562095.567086) can0 290#00000000000000D4
(1713562095.573855) can0 174#EC7F4058247946EC
(1713562095.574087) can0 178#F87F4531FE924653
(1713562095.574324) can0 17C#0280410026694604
(1713562095.574710) can0 400#644000000000004D
(1713562095.575839) can0 410#2840008C9F6E9DAA
(1713562095.576121) can0 12F#0000000000000035
(1713562095.576367) can0 12D#0000000000000035
(1713562095.576615) can0 290#0000000000000035
(1713562095.583811) can0 174#EA7F40581E794705
(1713562095.584041) can0 178#FE7F4632119347C3
(1713562095.584281) can0 17C#008041001069478E
(1713562095.584709) can0 400#6440000000000078
(1713562095.585811) can0 410#2440008D9F6E9DD3
(1713562095.586091) can0 12F#000000000000005F
(1713562095.586330) can0 128#1388030000EC7828
(1713562095.586579) can0 12D#000000000000005F
(1713562095.586828) can0 12E#0000000000000035
(1713562095.587079) can0 290#000000000000005F
(1713562095.593875) can0 174#E87F40582C79482F
(1713562095.594095) can0 178#048047390F9348ED
(1713562095.594336) can0 17C#FA7F4100106948FD
(1713562095.594808) can0 400#6440000000000099
(1713562095.595789) can0 410#1F4000909F6E9D27
(1713562095.596135) can0 12F#000000000000006A
(1713562095.596383) can0 12D#000000000000006A
(1713562095.596630) can0 290#000000000000006A
(1713562095.601294) can0 550#40003C0001000048
(1713562095.603817) can0 174#E87F40583D7949A5
(1713562095.604051) can0 178#0880482D069349DF
(1713562095.604289) can0 17C#F87F41001469495C
(1713562095.604806) can0 400#64400000000000AC
(1713562095.605711) can0 410#194000939F6E9D50
(1713562095.606104) can0 12F#000000000000008B
(1713562095.606338) can0 128#1388030000EC7842
(1713562095.606578) can0 12A#1028103C00580067
(1713562095.606824) can0 12D#000000000000008B
(1713562095.607075) can0 12E#000000000000005F
(1713562095.607374) can0 290#000000000000008B
(1713562095.613870) can0 174#EA7F405843794A79
(1713562095.614094) can0 178#06804930FC924A32
(1713562095.614334) can0 17C#FA7F41000E694AD6
(1713562095.614908) can0 400#64400000000000C6
(1713562095.615756) can0 410#124000969F6E9D79
(1713562095.616140) can0 12F#00000000000000BE
(1713562095.616388) can0 12D#00000000000000BE
(1713562095.616636) can0 290#00000000000000BE
(1713562095.623825) can0 174#E67F405842794B50
(1713562095.624054) can0 178#06804A32FC924BB6
(1713562095.624290) can0 17C#0280410008694BBC
(1713562095.624905) can0 400#6440000000000027
(1713562095.625685) can0 410#0C4000999F6E9D9B
(1713562095.626026) can0 12F#00000000000000D4
(1713562095.626260) can0 128#1388030000EC7877
(1713562095.626553) can0 12D#00000000000000D4
(1713562095.626799) can0 12E#000000000000006A
(1713562095.627045) can0 290#00000000000000D4
(1713562095.633872) can0 174#E67F00583F790C42
(1713562095.634098) can0 178#04800B3606930C3C
(1713562095.634337) can0 17C#0680010014690C18
(1713562095.635007) can0 400#644000000000004D
(1713562095.635709) can0 410#0840009B9F6E9DAB
(1713562095.636108) can0 12F#0000000000000035
(1713562095.636353) can0 12D#0000000000000035
(1713562095.636602) can0 290#0000000000000035
(1713562095.643822) can0 174#EA7F005843790DA6
(1713562095.644057) can0 178#02800C3011930D02
(1713562095.644297) can0 17C#048001002D690D14
(1713562095.645002) can0 400#6440000000000078
(1713562095.645251) can0 4EA#0000000000000000
(1713562095.645496) can0 5B2#0800000000000000
(1713562095.645740) can0 310#FFFFFFFF7D7D2100
(1713562095.645976) can0 410#0740009B9F6E9DC4
(1713562095.646211) can0 128#1388030000EC7896
(1713562095.646509) can0 12D#000000000000005F
(1713562095.646752) can0 12E#000000000000008B
(1713562095.647000) can0 12F#000000000000005F
(1713562095.647251) can0 290#000000000000005F
(1713562095.651344) can0 550#40003C000100007D
(1713562095.653876) can0 174#F07F005850790EC4
(1713562095.654113) can0 178#0080000017930E37
(1713562095.654349) can0 17C#FC7F01003B690E5C
(1713562095.655106) can0 400#6400000000000080
(1713562095.655684) can0 410#0540009C9F6E9D25
(1713562095.656162) can0 12F#000000000000006A
(1713562095.656404) can0 12A#1028103C00580086
(1713562095.656650) can0 12D#000000000000006A
(1713562095.656900) can0 290#000000000000006A
(1713562095.663825) can0 174#F27F005856790F66
(1713562095.664060) can0 178#0480013018930FC0
(1713562095.664299) can0 17C#F67F010034690FAF
(1713562095.665106) can0 400#64000000000000B5
(1713562095.665622) can0 410#0440009D9F6E9D45
(1713562095.666048) can0 12F#000000000000008B
(1713562095.666284) can0 128#1388030000EC78A3
(1713562095.666531) can0 12D#000000000000008B
(1713562095.666824) can0 12E#00000000000000BE
(1713562095.667072) can0 290#000000000000008B
(1713562095.670252) can0 120#0000000000000000
(1713562095.670499) can0 121#0000000000000000
(1713562095.670749) can0 129#0000000000000000
(1713562095.673882) can0 174#F27F005855790051
(1713562095.674114) can0 178#06800232159300DD
(1713562095.674351) can0 17C#F67F010021690085
(1713562095.675211) can0 400#64000000000000DF
(1713562095.675628) can0 410#0240009E9F6E9D6D
(1713562095.676295) can0 12F#00000000000000BE
(1713562095.676544) can0 12D#00000000000000BE
(1713562095.676792) can0 290#00000000000000BE
(1713562095.683833) can0 174#F27F005853790149
(1713562095.684068) can0 178#0080033615930137
(1713562095.684308) can0 17C#FA7F01001169010B
(1713562095.685202) can0 400#640000000000003E
(1713562095.685578) can0 410#0040009E9F6E9D90
(1713562095.686042) can0 12F#00000000000000D4
(1713562095.686278) can0 128#1388030000EC78C9
(1713562095.686522) can0 12D#00000000000000D4
(1713562095.686815) can0 12E#00000000000000D4
(1713562095.687062) can0 290#00000000000000D4
(1713562095.690350) can0 120#0000000000000035
(1713562095.690597) can0 121#0000000000000035
(1713562095.690845) can0 129#0000000000000035
(1713562095.693885) can0 174#EE7F005855790269
(1713562095.694115) can0 178#F47F0435149302E7
(1713562095.694355) can0 17C#FE7F01000C6902D8
(1713562095.695291) can0 400#6400000000000054
(1713562095.695612) can0 410#0040009F9F6E9DA1
(1713562095.696327) can0 12F#0000000000000035
(1713562095.696573) can0 12D#0000000000000035
(1713562095.696821) can0 290#0000000000000035
(1713562095.701290) can0 550#40003C000100009C
(1713562095.703844) can0 174#EA7F005853790318
(1713562095.704079) can0 178#E87F05300D9303DA
(1713562095.704320) can0 17C#02800100166903C9
(1713562095.705296) can0 400#6400000000000061
(1713562095.705573) can0 410#004000A09F6E9DD6
(1713562095.706056) can0 12F#000000000000005F
(1713562095.706295) can0 128#1388030000EC7828
(1713562095.706536) can0 12A#1028103C005800B3
(1713562095.706835) can0 12D#000000000000005F
(1713562095.707083) can0 12E#0000000000000035
(1713562095.707347) can0 290#000000000000005F
(1713562095.707581) can0 551#000000000004C000
(1713562095.707830) can0 552#00FFFFFFFFFFFF1B
(1713562095.708123) can0 55A#0017830000000000
(1713562095.708374) can0 5D1#9958000200000000
(1713562095.708619) can0 5D2#8474630000000000
(1713562095.708866) can0 450#00FFF0001B004A00
(1713562095.710447) can0 120#000000000000005F
(1713562095.710696) can0 121#000000000000005F
(1713562095.710944) can0 129#000000000000005F
(1713562095.713892) can0 174#E87F00584B7904E5
(1713562095.714122) can0 178#E67F06310F9304A8
(1713562095.714362) can0 17C#0280010021690438
(1713562095.715399) can0 400#6400000000000080
(1713562095.715628) can0 410#004000A09F6E9D37
(1713562095.716304) can0 541#0440E00000008F14
(1713562095.716550) can0 12D#000000000000006A
(1713562095.716796) can0 12F#000000000000006A
(1713562095.717047) can0 290#000000000000006A
(1713562095.723846) can0 174#EC7F005845790598
(1713562095.724075) can0 178#EA7F073117930570
(1713562095.724317) can0 17C#FE7F01002169053E
(1713562095.725393) can0 400#64000000000000B5
(1713562095.725630) can0 410#004000A19F6E9D59
(1713562095.726057) can0 12F#000000000000008B
(1713562095.726291) can0 128#1388030000EC7842
(1713562095.726537) can0 12D#000000000000008B
(1713562095.726788) can0 12E#000000000000005F
(1713562095.727087) can0 290#000000000000008B
(1713562095.727355) can0 551#000000000004C000
(1713562095.727579) can0 5D1#9958000200000000
(1713562095.730542) can0 120#000000000000006A
(1713562095.730792) can0 121#000000000000006A
(1713562095.731038) can0 129#000000000000006A
(1713562095.733901) can0 174#EE7F005846790689
(1713562095.734129) can0 178#EA7F08311A9306AE
(1713562095.734368) can0 17C#FA7F01001F690651
(1713562095.735498) can0 400#64000000000000DF
(1713562095.735729) can0 410#004000A19F6E9D6C
(1713562095.736157) can0 541#0440E00000008F21
(1713562095.736406) can0 12D#00000000000000BE
(1713562095.736652) can0 12F#00000000000000BE
(1713562095.736899) can0 290#00000000000000BE
(1713562095.743855) can0 174#EE7F005853790705
(1713562095.744086) can0 178#E87F093015930778
(1713562095.744327) can0 17C#F87F01002469075E
(1713562095.744795) can0 4EA#0000000000000000
(1713562095.745040) can0 5B2#0800000000000000
(1713562095.745284) can0 310#FFFFFFFF7D7D2100
(1713562095.745539) can0 400#640000000000003E
(1713562095.745777) can0 410#004000A29F6E9D81
(1713562095.746059) can0 12F#00000000000000D4
(1713562095.746293) can0 128#1388030000EC7877
(1713562095.746537) can0 12D#00000000000000D4
(1713562095.746783) can0 12E#000000000000006A
(1713562095.747078) can0 290#00000000000000D4
(1713562095.747344) can0 540#000000108C03BE00
(1713562095.747569) can0 551#000000000004C000
(1713562095.747820) can0 5B0#604200000000000F
(1713562095.748060) can0 5D1#9958000200000000
(1713562095.750638) can0 120#0000000000820099
(1713562095.750879) can0 121#000000000000008B
(1713562095.751123) can0 129#000000000000008B
(1713562095.751383) can0 550#40003C00010000A9
(1713562095.753906) can0 174#F07F0058607908A2
(1713562095.754135) can0 178#EA7F0A381193085D
(1713562095.754371) can0 17C#F67F010031690875
(1713562095.755586) can0 400#6400000000000054
(1713562095.755825) can0 410#004000A39F6E9DB0
(1713562095.756192) can0 541#0440E00000008F4B
(1713562095.756429) can0 12A#1028103C005800D9
(1713562095.756676) can0 12D#0000000000000035
(1713562095.756922) can0 12F#0000000000000035
(1713562095.757170) can0 290#0000000000000035
(1713562095.757416) can0 552#00FFFFFFFFFFFF2E
(1713562095.757662) can0 450#005400001B004A00
(1713562095.763862) can0 174#F67F00586079096C
(1713562095.764096) can0 178#F07F0000119309C1
(1713562095.764334) can0 17C#FA7F01003B6909DC
(1713562095.765568) can0 410#004000A39F6E9DDA
(1713562095.765815) can0 400#6400000000000061
(1713562095.766129) can0 12F#000000000000005F
(1713562095.766362) can0 128#1388030000EC7896
(1713562095.766612) can0 12D#000000000000005F
(1713562095.766856) can0 12E#000000000000008B
(1713562095.767106) can0 290#000000000000005F
(1713562095.767402) can0 551#000000000004C000
(1713562095.767648) can0 5D1#9958000200000000
(1713562095.770732) can0 120#00000000008200AC
(1713562095.770977) can0 121#00000000000000BE
(1713562095.771226) can0 129#00000000000000BE
(1713562095.773913) can0 174#FA7F005856790ADD
(1713562095.774145) can0 178#F47F013014930A03
(1713562095.774381) can0 17C#FE7F01003B690A92
(1713562095.775619) can0 410#004000A49F6E9D27
(1713562095.775866) can0 400#6400000000000080
(1713562095.776251) can0 541#0440E00000008F7E
(1713562095.776492) can0 12D#000000000000006A
(1713562095.776736) can0 12F#000000000000006A
(1713562095.776986) can0 290#000000000000006A
(1713562095.783873) can0 174#FE7F00584A790BBB
(1713562095.784106) can0 178#F47F000014930B1B
(1713562095.784342) can0 17C#FE7F01002C690B1D
(1713562095.785564) can0 410#004000A49F6E9D4D
(1713562095.785811) can0 400#64000000000000B5
(1713562095.786072) can0 12F#000000000000008B
(1713562095.786309) can0 128#1388030000EC78A3
(1713562095.786556) can0 12D#000000000000008B
(1713562095.786802) can0 12E#00000000000000BE
(1713562095.787049) can0 290#000000000000008B
(1713562095.787295) can0 551#000000000004C000
(1713562095.787546) can0 5D1#9958000200000000
(1713562095.790831) can0 120#00000000008200C6
(1713562095.791074) can0 121#00000000000000D4
(1713562095.791316) can0 129#00000001000000D0
(1713562095.793937) can0 174#FE7F00583D790C2A
(1713562095.794168) can0 178#F87F01530C930C86
(1713562095.794406) can0 17C#008001001B690C4D
(1713562095.795615) can0 410#004000A59F6E9D7C
(1713562095.795863) can0 400#64000000000000DF
(1713562095.796193) can0 541#0440E00000008F9F
(1713562095.796479) can0 12F#00000000000000BE
(1713562095.796721) can0 12D#00000000000000BE
(1713562095.796967) can0 290#00000000000000BE
(1713562095.801295) can0 550#40003C00010000C3
(1713562095.803884) can0 174#FE7F005835790D3B
(1713562095.804119) can0 178#F87F024304930D0C
(1713562095.804355) can0 17C#FE7F01001E690D78
(1713562095.805563) can0 410#004000A59F6E9D9D
(1713562095.805818) can0 400#640000000000003E
(1713562095.806090) can0 12F#00000000000000D4
(1713562095.806326) can0 128#1388030000EC78C9
(1713562095.806565) can0 12A#1028103C00580038
(1713562095.806809) can0 12D#00000000000000D4
(1713562095.807054) can0 12E#00000000000000D4
(1713562095.807300) can0 290#00000000000000D4
(1713562095.807546) can0 551#000000000004C000
(1713562095.807798) can0 552#00FFFFFFFFFFFF44
(1713562095.808112) can0 5D1#9958000200000000
(1713562095.808360) can0 5D2#8474630000000000
(1713562095.808610) can0 450#005400001B004A00
(1713562095.810932) can0 120#0000000000820027
(1713562095.811179) can0 121#0000000000000035
(1713562095.811425) can0 129#0000000100000031
(1713562095.813939) can0 174#FC7F005837790EA5
(1713562095.814176) can0 178#F87F033203930EAD
(1713562095.814413) can0 17C#FA7F010026690E12
(1713562095.815587) can0 410#004000A59F6E9DA8
(1713562095.815873) can0 400#6400000000000054
(1713562095.816184) can0 541#0440E00000008FAA
(1713562095.816430) can0 12D#0000000000000035
(1713562095.816683) can0 12F#0000000000000035
(1713562095.816926) can0 290#0000000000000035
(1713562095.823896) can0 174#F87F00583A790F54
(1713562095.824133) can0 178#FA7F043006930FAF
(1713562095.824375) can0 17C#FA7F01001F690FA4
(1713562095.825484) can0 410#004000A69F6E9DCE
(1713562095.825880) can0 400#6400000000000061
(1713562095.826128) can0 12F#000000000000005F
(1713562095.826366) can0 128#1388030000EC7828
(1713562095.826616) can0 12D#000000000000005F
(1713562095.826865) can0 12E#0000000000000035
(1713562095.827115) can0 140#0000030000000000
(1713562095.827365) can0 290#000000000000005F
(1713562095.827611) can0 551#000000000004C000
(1713562095.827859) can0 5D1#9958000200000000
(1713562095.831031) can0 120#000000000082004D
(1713562095.831277) can0 121#000000000000005F
(1713562095.831523) can0 129#000000010000005B
(1713562095.833941) can0 174#F47F005838790057
(1713562095.834177) can0 178#FE7F053007930098
(1713562095.834420) can0 17C#FC7F01001069004A
(1713562095.835513) can0 410#004000A69F6E9D2F
(1713562095.835971) can0 400#6400000000000080
(1713562095.836250) can0 541#0440E00000008FC0
(1713562095.836497) can0 12D#000000000000006A
(1713562095.836749) can0 12F#000000000000006A
(1713562095.836994) can0 290#000000000000006A
(1713562095.839157) can0 4E8#5501339AAEB9210F
(1713562095.843892) can0 174#F07F005838790123
(1713562095.844129) can0 178#0080063204930131
(1713562095.844375) can0 17C#00800100FD680115
(1713562095.844622) can0 4E9#5A01010000000000
(1713562095.844872) can0 4EA#0000000000000000
(1713562095.845118) can0 5B2#0800000000000000
(1713562095.845361) can0 310#FFFFFFFF7D7D2100
(1713562095.845598) can0 410#004000A69F6E9D45
(1713562095.845976) can0 400#64000000000000B5
(1713562095.846211) can0 128#1388030000EC7842
(1713562095.846456) can0 12D#000000000000008B
(1713562095.846707) can0 12E#000000000000005F
(1713562095.846951) can0 12F#000000000000008B
(1713562095.847201) can0 140#0000030000000000
(1713562095.847450) can0 290#000000000000008B
(1713562095.847675) can0 4E8#55021769712EC950
(1713562095.847919) can0 540#000000108C03BE00
(1713562095.848214) can0 551#000000000004C000
(1713562095.848458) can0 5B0#604200000000003A
(1713562095.848698) can0 5D1#9958000200000000
(1713562095.851132) can0 120#000000000000006A
(1713562095.851386) can0 121#000000000000006A
(1713562095.851630) can0 129#000000010000006E
(1713562095.851872) can0 550#40003C0001000022
(1713562095.853942) can0 174#EC7F00583B79028A
(1713562095.854181) can0 178#FC7F0737FF9202F0
(1713562095.854416) can0 17C#FE7F0100F368029A
(1713562095.854658) can0 4E9#5A02010000000000
(1713562095.855459) can0 410#004000A69F6E9D70
(1713562095.856070) can0 400#64000000000000DF
(1713562095.856309) can0 541#0440E00000008F21
(1713562095.856546) can0 12A#1028103C00580052
(1713562095.856795) can0 12D#00000000000000BE
(1713562095.857048) can0 12F#00000000000000BE
(1713562095.857291) can0 290#00000000000000BE
(1713562095.857521) can0 4E8#5503DDB6E7850000
(1713562095.857765) can0 552#00FFFFFFFFFFFF71
(1713562095.858012) can0 450#005400001B004A00
(1713562095.863899) can0 174#E87F00583B7903FE
(1713562095.864133) can0 178#FA7F085FFF920300
(1713562095.864376) can0 17C#FA7F0100FB6803E2
(1713562095.864618) can0 4E9#5A03010000000000
(1713562095.865379) can0 410#004000A79F6E9D95
(1713562095.866075) can0 400#640000000000003E
(1713562095.866310) can0 128#1388030000EC7877
(1713562095.866554) can0 12D#00000000000000D4
(1713562095.866800) can0 12E#000000000000006A
(1713562095.867045) can0 12F#00000000000000D4
(1713562095.867291) can0 290#00000000000000D4
(1713562095.867537) can0 4E8#5601000000000000
(1713562095.867786) can0 140#0000030000000000
(1713562095.868033) can0 551#000000000004C000
(1713562095.868287) can0 5D1#9958000200000000
(1713562095.871233) can0 120#000000000000008B
(1713562095.871478) can0 121#000000000000008B
(1713562095.871718) can0 129#000000010000008F
(1713562095.873948) can0 174#E67F0058377904A6
(1713562095.874182) can0 178#FC7F093007930494
(1713562095.874422) can0 17C#F87F01000E690446
(1713562095.875040) can0 410#004000A79F6E9DA0
(1713562095.876168) can0 400#6400000000000054
(1713562095.876411) can0 12D#0000000000000035
(1713562095.876658) can0 12F#0000000000000035
(1713562095.876905) can0 290#0000000000000035
(1713562095.878624) can0 541#0440E00000008F4B
(1713562095.883902) can0 174#E67F0058357905B8
(1713562095.884130) can0 178#FE7F0A3711930564
(1713562095.884373) can0 17C#F87F01001F6905CC
(1713562095.884962) can0 410#004000A79F6E9DCA
(1713562095.886067) can0 12F#000000000000005F
(1713562095.886300) can0 128#1388030000EC7896
(1713562095.886550) can0 12D#000000000000005F
(1713562095.886795) can0 12E#000000000000008B
(1713562095.887046) can0 290#000000000000005F
(1713562095.887291) can0 400#6400000000000061
(1713562095.887537) can0 551#000000000004C000
(1713562095.887786) can0 5D1#9958000200000000
(1713562095.888187) can0 140#0000030000000000
(1713562095.889703) can0 4E9#A501AF4BB5CA969C
(1713562095.891351) can0 120#00000000000000BE
(1713562095.891575) can0 121#00000000000000BE
(1713562095.891815) can0 129#00000001000000BA
(1713562095.893957) can0 174#E67F00583D790693
(1713562095.894187) can0 178#FC7F0B31179306FF
(1713562095.894429) can0 17C#F67F010026690641
(1713562095.894986) can0 410#004000A79F6E9D2B
(1713562095.896227) can0 541#0440E00000008F7E
(1713562095.896470) can0 12D#000000000000006A
(1713562095.896716) can0 12F#000000000000006A
(1713562095.896968) can0 290#000000000000006A
(1713562095.897214) can0 400#6400000000000080
(1713562095.897462) can0 4E8#5602000000000000
(1713562095.899519) can0 5D0#0058010200000000
(1713562095.899761) can0 5B1#008A9A680000001D
(1713562095.900017) can0 5CF#0000000000000000
(1713562095.901347) can0 550#40003C0001000048
(1713562095.903908) can0 174#EC7F0058457907A2
(1713562095.904152) can0 178#008000001D9307CD
(1713562095.904393) can0 17C#F87F01002469075E
(1713562095.904619) can0 4E9#A502E7934D1D4309
(1713562095.904917) can0 410#004000A79F6E9D41
(1713562095.906073) can0 12F#000000000000008B
(1713562095.906309) can0 128#1388030000EC78A3
(1713562095.906550) can0 12A#1028103C00580067
(1713562095.906796) can0 12D#000000000000008B
(1713562095.907043) can0 12E#00000000000000BE
(1713562095.907290) can0 290#000000000000008B
(1713562095.907537) can0 400#64000000000000B5
(1713562095.907783) can0 4E8#5603000000000000
(1713562095.908029) can0 551#000000000004C000
(1713562095.908285) can0 552#00FFFFFFFFFFFF90
(1713562095.908533) can0 5D1#9958000200000000
(1713562095.908783) can0 140#0000030000000000
(1713562095.909021) can0 5D2#8474630000000000
(1713562095.909267) can0 450#005400001B004A00
(1713562095.911374) can0 120#00000000000000D4
(1713562095.911617) can0 121#00000000000000D4
(1713562095.911859) can0 129#00000001000000D0
(1713562095.913965) can0 174#F27F005848790824
(1713562095.914206) can0 178#08800137209308F8
(1713562095.914436) can0 17C#FC7F010021690805
(1713562095.914671) can0 4E9#A5036FAE76F60000
(1713562095.914931) can0 410#004000A79E6E9D6D
(1713562095.916168) can0 541#0440E00000008F9F
(1713562095.916406) can0 12F#00000000000000BE
(1713562095.916655) can0 12D#00000000000000BE
(1713562095.916902) can0 290#00000000000000BE
(1713562095.917152) can0 400#64000000000000DF
(1713562095.923974) can0 174#F47F00584D790963
(1713562095.924193) can0 178#1080022E1C930936
(1713562095.924428) can0 17C#008001001B690924
(1713562095.924902) can0 410#004000A69E6E9D88
(1713562095.926116) can0 12F#00000000000000D4
(1713562095.926352) can0 128#1388030000EC78C9
(1713562095.926596) can0 12D#00000000000000D4
(1713562095.926842) can0 12E#00000000000000D4
(1713562095.927089) can0 290#00000000000000D4
(1713562095.927351) can0 400#640000000000003E
(1713562095.927585) can0 551#000000000004C000
(1713562095.927821) can0 5D1#9958000200000000
(1713562095.929233) can0 140#0000030000000000
(1713562095.931472) can0 120#0000000000000035
(1713562095.931719) can0 121#0000000000000035
(1713562095.931963) can0 129#0000000100000031
(1713562095.933920) can0 174#F27F005850790A0A
(1713562095.934150) can0 178#1080033114930A3A
(1713562095.934388) can0 17C#008001000B690A1B
(1713562095.934830) can0 410#004000A39E6E9DA9
(1713562095.936155) can0 541#0440E00000008FAA
(1713562095.936399) can0 12D#0000000000000035
(1713562095.936644) can0 12F#0000000000000035
(1713562095.936894) can0 290#0000000000000035
(1713562095.937140) can0 400#6400000000000054
(1713562095.943984) can0 174#EE7F005851790B9A
(1713562095.944204) can0 178#088004300F930B42
(1713562095.944443) can0 17C#0080010006690B83
(1713562095.944692) can0 4EA#0000000000000000
(1713562095.944933) can0 410#004000A09E6E9DCF
(1713562095.945178) can0 5B2#0800000000000000
(1713562095.945422) can0 310#FFFFFFFF7D7D2100
(1713562095.946108) can0 12F#000000000000005F
(1713562095.946346) can0 128#1388030000EC7828
(1713562095.946596) can0 12D#000000000000005F
(1713562095.946844) can0 12E#0000000000000035
(1713562095.947094) can0 290#000000000000005F
(1713562095.947367) can0 400#6400000000000061
(1713562095.947586) can0 540#000000108C03BE00
(1713562095.947830) can0 551#000000000004C000
(1713562095.948024) can0 5B0#6342000000000042
(1713562095.948266) can0 5D1#9958000200000000
(1713562095.948515) can0 6B9#0000000000000000
(1713562095.948763) can0 5A2#0000000000000000
(1713562095.949759) can0 140#0000030000000000
(1713562095.951303) can0 550#40003C000100007D
(1713562095.951566) can0 120#000000000700004F
(1713562095.951813) can0 121#000000000000005F
(1713562095.952058) can0 129#000000010000005B
(1713562095.953922) can0 174#EA7F00584E790C3E
(1713562095.954161) can0 178#0680000012930C57
(1713562095.954401) can0 17C#008001001C690CC7
(1713562095.954774) can0 410#0240009E9E6E9D2B
(1713562095.956241) can0 541#0440E00000008FC0
(1713562095.956481) can0 12A#1028103C00580086
(1713562095.956726) can0 12D#000000000000006A
(1713562095.956973) can0 12F#000000000000006A
(1713562095.957226) can0 290#000000000000006A
(1713562095.957471) can0 400#6400000000000080
(1713562095.957715) can0 552#00FFFFFFFFFFFFA5
(1713562095.957961) can0 450#005400001B004A00
(1713562095.963973) can0 174#E67F00584E790D98
(1713562095.964203) can0 178#0C80013817930D32
(1713562095.964446) can0 17C#008001003D690D65
(1713562095.964795) can0 410#0940009A9E6E9D59
(1713562095.966162) can0 12F#000000000000008B
(1713562095.966395) can0 128#1388030000EC7842
(1713562095.966641) can0 12D#000000000000008B
(1713562095.966891) can0 12E#000000000000005F
(1713562095.967139) can0 290#000000000000008B
(1713562095.967389) can0 400#64000000000000B5
(1713562095.967632) can0 551#000000000004C000
(1713562095.967881) can0 5D1#9958000200000000
(1713562095.970285) can0 140#0000030000000000
(1713562095.971667) can0 120#000000000700007A
(1713562095.971918) can0 121#000000000000006A
(1713562095.972166) can0 129#000000010000006E
(1713562095.973928) can0 174#E87F005856790EAA
(1713562095.974159) can0 178#0E80023218930E2C
(1713562095.974393) can0 17C#FE7F010045690EA7
(1713562095.974726) can0 410#104000979E6E9D78
(1713562095.976158) can0 541#0440E00000008F21
(1713562095.976403) can0 12D#00000000000000BE
(1713562095.976650) can0 12F#00000000000000BE
(1713562095.976898) can0 290#00000000000000BE
(1713562095.977148) can0 400#64000000000000DF
(1713562095.983996) can0 174#EC7F00585E790FD2
(1713562095.984212) can0 178#0E8003321A930F58
(1713562095.984450) can0 17C#FE7F010034690F7D
(1713562095.984760) can0 410#174000939E6E9D96
(1713562095.986140) can0 12F#00000000000000D4
(1713562095.986372) can0 128#1388030000EC7877
(1713562095.986616) can0 12D#00000000000000D4
(1713562095.986862) can0 12E#000000000000006A
(1713562095.987109) can0 290#00000000000000D4
(1713562095.987389) can0 400#640000000000003E
(1713562095.987604) can0 551#000000000004C000
(1713562095.987853) can0 5D1#9958000200000000
(1713562095.990809) can0 140#0000030000000000
(1713562095.991756) can0 120#000000000700009B
(1713562095.991999) can0 121#000000000000008B
(1713562095.992241) can0 129#000000010000008F
(1713562095.993942) can0 174#F07F00585B7900E2
(1713562095.994175) can0 178#0C80043517930023
(1713562095.994414) can0 17C#FE7F010021690057
(1713562095.994697) can0 410#1E4000909E6E9DBB
(1713562095.996107) can0 541#0440E00000008F4B
(1713562095.996400) can0 12D#0000000000000035
(1713562095.996647) can0 12F#0000000000000035
(1713562095.996895) can0 290#0000000000000035
(1713562095.997142) can0 400#6400000000000054
(1713562095.999521) can0 5D0#9958010200000000
(1713562095.999755) can0 5B1#008A9A6800000028
(1713562095.999995) can0 5CF#8474630000000000
(1713562096.001341) can0 550#40003C000100009C
(1713562096.003992) can0 174#F27F00585579014C
(1713562096.004229) can0 178#06800000149301D3
(1713562096.004469) can0 17C#FC7F0100276901F5
(1713562096.004717) can0 410#2540008D9E6E9DC4
(1713562096.006121) can0 12F#000000000000005F
(1713562096.006350) can0 128#1388030000EC7896
(1713562096.006592) can0 12A#1028103C005800B3
(1713562096.006840) can0 12D#000000000000005F
(1713562096.007084) can0 12E#000000000000008B
(1713562096.007348) can0 290#000000000000005F
(1713562096.007582) can0 400#6400000000000061
(1713562096.007827) can0 551#000000000004C000
(1713562096.008111) can0 552#00FFFFFFFFFFFFCF
(1713562096.008361) can0 5D1#9958000200000000
(1713562096.008605) can0 5D2#8474630000000000
(1713562096.008851) can0 450#005400001B004A00
(1713562096.011343) can0 140#0000030000000000
(1713562096.011851) can0 120#00000000070000AE
(1713562096.012097) can0 121#00000000000000BE
(1713562096.012339) can0 129#00000001000000BA
(1713562096.013943) can0 174#F47F00584A790226
(1713562096.014176) can0 178#FC7F01321493021E
(1713562096.014416) can0 17C#FE7F01003B69027A
(1713562096.014650) can0 410#2C4000899E6E9D21
(1713562096.016174) can0 541#0440E00000008F7E
(1713562096.016419) can0 12D#000000000000006A
(1713562096.016664) can0 12F#000000000000006A
(1713562096.016914) can0 290#000000000000006A
(1713562096.017162) can0 400#6400000000000080
(1713562096.024001) can0 174#F67F00583B790346
(1713562096.024230) can0 178#FC7F02301A930393
(1713562096.024470) can0 17C#02800100486903B8
(1713562096.024703) can0 410#334000869E6E9D46
(1713562096.026088) can0 12F#000000000000008B
(1713562096.026333) can0 128#1388030000EC78A3
(1713562096.026572) can0 12D#000000000000008B
(1713562096.026817) can0 12E#00000000000000BE
(1713562096.027065) can0 290#000000000000008B
(1713562096.027314) can0 400#64000000000000B5
(1713562096.027560) can0 551#000000000004C000
(1713562096.027806) can0 5D1#9958000200000000
(1713562096.031863) can0 140#0000030000000000
(1713562096.032108) can0 120#00000000070000C4
(1713562096.032352) can0 121#00000000000000D4
(1713562096.032594) can0 129#00000001000000D0
(1713562096.033956) can0 174#F87F005834790492
(1713562096.034190) can0 178#028003321F9304A5
(1713562096.034428) can0 17C#028001004A6904E8
(1713562096.034662) can0 410#3B4000829E6E9D79
(1713562096.036105) can0 541#0440E00000008F9F
(1713562096.036353) can0 12D#00000000000000BE
(1713562096.036600) can0 12F#00000000000000BE
(1713562096.036847) can0 290#00000000000000BE
(1713562096.037097) can0 400#64000000000000DF
(1713562096.044012) can0 174#F67F00583479058E
(1713562096.044239) can0 178#048004331C930571
(1713562096.044481) can0 17C#02800100466905FF
(1713562096.044715) can0 410#4240007F9E6E9D91
(1713562096.044965) can0 4EA#0000000000000000
(1713562096.045210) can0 5B2#0800000000000000
(1713562096.045454) can0 310#FFFFFFFF7D7D2100
(1713562096.046098) can0 12F#00000000000000D4
(1713562096.046334) can0 128#1388030000EC78C9
(1713562096.046586) can0 12D#00000000000000D4
(1713562096.046826) can0 12E#00000000000000D4
(1713562096.047071) can0 290#00000000000000D4
(1713562096.047348) can0 400#640000000000003E
(1713562096.047567) can0 551#000000000004C000
(1713562096.047809) can0 540#000000108C03BE00
(1713562096.048050) can0 5B0#6342000000000077
(1713562096.048292) can0 5D1#9958000200000000
(1713562096.051294) can0 550#40003C00010000A9
(1713562096.052049) can0 120#0000000007000025
(1713562096.052296) can0 121#0000000000000035
(1713562096.052540) can0 129#0000000100000031
(1713562096.052790) can0 140#0000030000000000
(1713562096.053959) can0 174#F47F00583579069C
(1713562096.054191) can0 178#048005311193069E
(1713562096.054437) can0 17C#FE7F01003D69060B
(1713562096.054670) can0 410#4940007B9E6E9DBC
(1713562096.056120) can0 541#0440E00000008FAA
(1713562096.056357) can0 12A#1028103C005800D9
(1713562096.056604) can0 12D#0000000000000035
(1713562096.056850) can0 12F#0000000000000035
(1713562096.057098) can0 290#0000000000000035
(1713562096.057346) can0 400#6400000000000054
(1713562096.057593) can0 552#00FFFFFFFFFFFF2E
(1713562096.057838) can0 450#005400001B004A00
(1713562096.064016) can0 174#F47F00583479070E
(1713562096.064250) can0 178#068006300A930782
(1713562096.064488) can0 17C#FE7F01003169071C
(1713562096.064726) can0 410#504000789E6E9DCF
(1713562096.066152) can0 12F#000000000000005F
(1713562096.066390) can0 128#1388030000EC7828
(1713562096.066640) can0 12D#000000000000005F
(1713562096.066896) can0 12E#0000000000000035
(1713562096.067140) can0 290#000000000000005F
(1713562096.067389) can0 400#6400000000000061
(1713562096.067632) can0 551#000000000004C000
(1713562096.067879) can0 5D1#9958000200000000
(1713562096.072145) can0 120#000000000700004F
(1713562096.072391) can0 121#000000000000005F
(1713562096.072636) can0 129#000000010000005B
(1713562096.072916) can0 140#0000030000000000
(1713562096.073962) can0 174#F27F005832790863
(1713562096.074192) can0 178#088007310C9308CA
(1713562096.074428) can0 17C#FE7F01002F6908B6
(1713562096.074660) can0 410#584000749E6E9D31
(1713562096.076171) can0 541#0440E00000008FC0
(1713562096.076416) can0 12D#000000000000006A
(1713562096.076662) can0 12F#000000000000006A
(1713562096.076913) can0 290#000000000000006A
(1713562096.077161) can0 400#6400000000000080
(1713562096.084019) can0 174#F27F005935790969
(1713562096.084252) can0 178#068008380F930927
(1713562096.084492) can0 17C#0080010032690997
(1713562096.084730) can0 410#5D4000729E6E9D40
(1713562096.086101) can0 12F#000000000000008B
(1713562096.086336) can0 128#1388030000EC7842
(1713562096.086576) can0 12D#000000000000008B
(1713562096.086823) can0 12E#000000000000005F
(1713562096.087083) can0 290#000000000000008B
(1713562096.087350) can0 400#64000000000000B5
(1713562096.087566) can0 551#000000000004C000
(1713562096.087814) can0 5D1#9958000200000000
(1713562096.092244) can0 120#000000000700007A
(1713562096.092494) can0 121#000000000000006A
(1713562096.092742) can0 129#000000010000006E
(1713562096.093432) can0 140#0000030000000000
(1713562096.093973) can0 174#F47F005837790A03
(1713562096.094213) can0 178#FE7F00000F930AF6
(1713562096.094449) can0 17C#FE7F010038690A1E
(1713562096.094683) can0 410#604000709E6E9D67
(1713562096.096104) can0 541#0440E00000008F21
(1713562096.096352) can0 12D#00000000000000BE
(1713562096.096598) can0 12F#00000000000000BE
(1713562096.096845) can0 290#00000000000000BE
(1713562096.097194) can0 400#64000000000000DF
(1713562096.099534) can0 5D0#9958010200000000
(1713562096.099766) can0 5B1#008A9A6800000042
(1713562096.100006) can0 5CF#8474630000000000
(1713562096.101346) can0 550#40003C00010000C3
(1713562096.104020) can0 174#F27F00593A790BD5
(1713562096.104255) can0 178#F47F00000D930B80
(1713562096.104494) can0 17C#FA7F010037690BEC
(1713562096.104729) can0 410#6240006F9E6E9D8C
(1713562096.106109) can0 12F#00000000000000D4
(1713562096.106343) can0 128#1388030000EC7877
(1713562096.106580) can0 12A#1028103C00580038
(1713562096.106825) can0 12D#00000000000000D4
(1713562096.107073) can0 12E#000000000000006A
(1713562096.107347) can0 290#00000000000000D4
(1713562096.107568) can0 400#640000000000003E
(1713562096.107812) can0 551#000000000004C000
(1713562096.108107) can0 552#00FFFFFFFFFFFF44
(1713562096.108358) can0 5D1#9958000200000000
(1713562096.108603) can0 5D2#8474630000000000
(1713562096.108850) can0 450#005400001B004A00
(1713562096.112339) can0 120#000000000700009B
(1713562096.112582) can0 121#000000000000008B
(1713562096.112824) can0 129#000000010000008F
(1713562096.113961) can0 140#0000030000000000
(1713562096.114194) can0 174#F27F005840790C5C
(1713562096.114431) can0 178#F27F01520F930CFF
(1713562096.114667) can0 17C#FC7F01002D690C7B
(1713562096.114899) can0 410#6440006E9E6E9DAC
(1713562096.116105) can0 541#0440E00000008F4B
(1713562096.116349) can0 12D#0000000000000035
(1713562096.116595) can0 12F#0000000000000035
(1713562096.116843) can0 290#0000000000000035
(1713562096.117296) can0 400#6400000000000054
(1713562096.124036) can0 174#F07F005945790DEF
(1713562096.124261) can0 178#F67F026F11930D04
(1713562096.124497) can0 17C#FC7F01002A690DEC
(1713562096.124732) can0 410#6440006D9E6E9DCA
(1713562096.126100) can0 12F#000000000000005F
(1713562096.126334) can0 128#1388030000EC7896
(1713562096.126583) can0 12D#000000000000005F
(1713562096.126828) can0 12E#000000000000008B
(1713562096.127078) can0 290#000000000000005F
(1713562096.127356) can0 551#000000000004C000
(1713562096.127573) can0 400#6400000000000061
(1713562096.127813) can0 5D1#9958000200000000
(1713562096.132435) can0 120#00000000070000AE
(1713562096.132681) can0 121#00000000000000BE
(1713562096.132923) can0 129#00000001000000BA
(1713562096.133995) can0 174#F07F005943790ECD
(1713562096.134231) can0 178#FC7F03620F930E7F
(1713562096.134470) can0 17C#FC7F010034690EDA
(1713562096.134719) can0 140#0000030000000000
(1713562096.134958) can0 410#6440006D9E6E9D2B
(1713562096.136157) can0 541#0440E00000008F7E
(1713562096.136402) can0 12D#000000000000006A
(1713562096.136648) can0 12F#000000000000006A
(1713562096.136898) can0 290#000000000000006A
(1713562096.137397) can0 400#6400000000000080
(1713562096.144002) can0 4EA#0000000000000000
(1713562096.144231) can0 174#F47F00583D790F65
(1713562096.144465) can0 178#FC7F04650D930F9E
(1713562096.144699) can0 17C#FE7F010038690F77
(1713562096.144931) can0 410#6440006C9E6E9D45
(1713562096.145180) can0 5B2#0800000000000000
(1713562096.145421) can0 310#FFFFFFFF7D7D2100
(1713562096.146089) can0 12F#000000000000008B
(1713562096.146325) can0 128#1388030000EC78A3
(1713562096.146571) can0 12D#000000000000008B
(1713562096.146817) can0 12E#00000000000000BE
(1713562096.147065) can0 290#000000000000008B
(1713562096.147312) can0 551#000000000004C000
(1713562096.147568) can0 400#64000000000000B5
(1713562096.147799) can0 5D1#9958000200000000
(1713562096.148144) can0 540#000000108C03BE00
(1713562096.148386) can0 5B0#6342000000000096
(1713562096.151349) can0 550#40003C0001000022
(1713562096.152532) can0 120#00000000070000C4
(1713562096.152774) can0 121#00000000000000D4
(1713562096.153017) can0 129#00000001000000D0
(1713562096.154005) can0 174#F67F005835790068
(1713562096.154237) can0 178#F67F0572119300E4
(1713562096.154475) can0 17C#068001003A6900BD
(1713562096.154707) can0 410#6440006B9E6E9D6C
(1713562096.155019) can0 140#0000030000000000
(1713562096.156116) can0 541#0440E80000008F92
(1713562096.156363) can0 12D#00000000000000BE
(1713562096.156601) can0 12A#1028103C00580052
(1713562096.156848) can0 12F#00000000000000BE
(1713562096.157096) can0 290#00000000000000BE
(1713562096.157340) can0 552#00FFFFFFFFFFFF71
(1713562096.157591) can0 400#64000000000000DF
(1713562096.157831) can0 450#005400001B004A00
(1713562096.164062) can0 174#F67F0058307901FC
(1713562096.164291) can0 178#F27F0674149301CE
(1713562096.164528) can0 17C#0A80010038690118
(1713562096.164764) can0 410#6440006A9E6E9D89
(1713562096.166159) can0 12F#00000000000000D4
(1713562096.166393) can0 128#1388030000EC78C9
(1713562096.166638) can0 12D#00000000000000D4
(1713562096.166888) can0 12E#00000000000000D4
(1713562096.167130) can0 290#00000000000000D4
(1713562096.167418) can0 551#000000000004C000
(1713562096.167630) can0 400#640000000000003E
(1713562096.167870) can0 5D1#9958000200000000
(1713562096.172634) can0 120#0000000007000025
(1713562096.172878) can0 121#0000000000000035
(1713562096.173122) can0 129#0000000100000031
(1713562096.174012) can0 174#F47F005834790267
(1713562096.174245) can0 178#F47F0720129302AA
(1713562096.174484) can0 17C#088001003469028F
(1713562096.174718) can0 410#644000699E6E9DB0
(1713562096.175539) can0 140#0000030000000000
(1713562096.176101) can0 541#0440E80000008FA7
(1713562096.176344) can0 12D#0000000000000035
(1713562096.176589) can0 12F#0000000000000035
(1713562096.176837) can0 290#0000000000000035
(1713562096.177595) can0 400#6400000000000054
(1713562096.184057) can0 174#F47F00593F790367
(1713562096.184287) can0 178#FA7F08420D9303AD
(1713562096.184525) can0 17C#04800100356903A6
(1713562096.184759) can0 410#644000699E6E9DDA
(1713562096.186107) can0 12F#000000000000005F
(1713562096.186345) can0 128#1388030000EC7828
(1713562096.186595) can0 12D#000000000000005F
(1713562096.186846) can0 12E#0000000000000035
(1713562096.187094) can0 290#000000000000005F
(1713562096.187353) can0 551#000000000004C000
(1713562096.187591) can0 5D1#9958000200000000
(1713562096.187836) can0 400#6400000000000061
(1713562096.192786) can0 120#000000000700004F
(1713562096.193025) can0 121#000000000000005F
(1713562096.193267) can0 129#000000010000005B
(1713562096.194051) can0 174#F47F00584B7904E7
(1713562096.194284) can0 178#0080096F0C9304D6
(1713562096.194527) can0 17C#0080010038690419
(1713562096.194761) can0 410#644000689E6E9D3F
(1713562096.196114) can0 140#0000030000000000
(1713562096.196357) can0 12D#000000000000006A
(1713562096.196602) can0 12F#000000000000006A
(1713562096.196806) can0 290#000000000000006A
(1713562096.197047) can0 541#0440E80000008FCD
(1713562096.197534) can0 6E2#0544000000000000
(1713562096.197782) can0 400#6400000000000080
(1713562096.199499) can0 5D0#9958010200000000
(1713562096.199734) can0 5B1#008A9A6800000077
(1713562096.199974) can0 5CF#8474630000000000
(1713562096.201299) can0 550#40003C0001000048
(1713562096.204006) can0 174#F27F0059557905A5
(1713562096.204240) can0 178#02800A730F9305B4
(1713562096.204477) can0 17C#FE7F010037690523
(1713562096.204711) can0 410#644000679E6E9D5C
(1713562096.206116) can0 12F#000000000000008B
(1713562096.206350) can0 128#1388030000EC7842
(1713562096.206589) can0 12A#1028103C00580067
(1713562096.206837) can0 12D#000000000000008B
(1713562096.207086) can0 12E#000000000000005F
(1713562096.207349) can0 290#000000000000008B
(1713562096.207581) can0 551#000000000004C000
(1713562096.207832) can0 400#64000000000000B5
(1713562096.208078) can0 552#00FFFFFFFFFFFF90
(1713562096.208328) can0 5D1#9958000200000000
(1713562096.208574) can0 5D2#8474630000000000
(1713562096.208820) can0 450#005400001B004A00
(1713562096.212875) can0 120#000000000700007A
(1713562096.213125) can0 121#000000000000006A
(1713562096.213373) can0 129#000000010000006E
(1713562096.214063) can0 174#F07F005856790629
(1713562096.214297) can0 178#FA7F0B630C930622
(1713562096.214535) can0 17C#FE7F010037690604
(1713562096.214769) can0 410#644000679E6E9D69
(1713562096.216150) can0 541#0440E80000008F2C
(1713562096.216396) can0 12D#00000000000000BE
(1713562096.216644) can0 12F#00000000000000BE
(1713562096.216891) can0 140#0000030000000000
(1713562096.217139) can0 290#00000000000000BE
(1713562096.217846) can0 400#64000000000000DF
(1713562096.224023) can0 174#F27F00585079078B
(1713562096.224254) can0 178#F67F0C6809930720
(1713562096.224498) can0 17C#00800100356907BB
(1713562096.224732) can0 410#644000669E6E9D8C
(1713562096.226086) can0 12F#00000000000000D4
(1713562096.226320) can0 128#1388030000EC7877
(1713562096.226565) can0 12D#00000000000000D4
(1713562096.226810) can0 12E#000000000000006A
(1713562096.227058) can0 290#00000000000000D4
(1713562096.227304) can0 551#000000000004C000
(1713562096.227552) can0 5D1#9958000200000000
(1713562096.227887) can0 400#640000000000003E
(1713562096.232974) can0 120#000000000700009B
(1713562096.233211) can0 121#000000000000008B
(1713562096.233454) can0 129#000000010000008F
(1713562096.234066) can0 174#F47F0058487908F7
(1713562096.234300) can0 178#F67F0D20079308F0
(1713562096.234543) can0 17C#088001002C690849
(1713562096.234770) can0 410#644000659E6E9DB5
(1713562096.236141) can0 541#0440E80000008F46
(1713562096.236384) can0 12D#0000000000000035
(1713562096.236630) can0 12F#0000000000000035
(1713562096.236878) can0 290#0000000000000035
(1713562096.237168) can0 140#0000030000000000
(1713562096.237943) can0 400#6400000000000054
(1713562096.243754) can0 4EA#0000000000000000
(1713562096.243998) can0 5B2#0800000000000000
(1713562096.244226) can0 174#F27F005945790921
(1713562096.244459) can0 178#FA7F0E47079309C2
(1713562096.244695) can0 17C#1080010022690936
(1713562096.244938) can0 310#FFFFFFFF7D7D2100
(1713562096.245175) can0 410#644000659E6E9DDF
(1713562096.246099) can0 12F#000000000000005F
(1713562096.246333) can0 128#1388030000EC7896
(1713562096.246583) can0 12D#000000000000005F
(1713562096.246827) can0 12E#000000000000008B
(1713562096.247077) can0 290#000000000000005F
(1713562096.247347) can0 551#000000000004C000
(1713562096.247575) can0 5D1#9958000200000000
(1713562096.247988) can0 400#6400000000000061
(1713562096.248600) can0 540#000000108C03BE00
(1713562096.248841) can0 5B0#63420000000000A3
(1713562096.251348) can0 550#40003C000100007D
(1713562096.253073) can0 120#00000000070000AE
(1713562096.253320) can0 121#00000000000000BE
(1713562096.253560) can0 129#00000001000000BA
(1713562096.254020) can0 410#644000649E6E9D3A
(1713562096.254253) can0 174#F27F005942790A8C
(1713562096.254479) can0 178#FA7F0F6D09930A77
(1713562096.254724) can0 17C#1280010027690A22
(1713562096.256223) can0 541#0440E80000008F73
(1713562096.256461) can0 12A#1028103C00580086
(1713562096.256707) can0 12D#000000000000006A
(1713562096.256953) can0 12F#000000000000006A
(1713562096.257202) can0 290#000000000000006A
(1713562096.257447) can0 552#00FFFFFFFFFFFFA5
(1713562096.257697) can0 140#0000030000000000
(1713562096.257937) can0 450#005400001B004A00
(1713562096.258185) can0 400#6400000000000080
(1713562096.263950) can0 410#644000649E6E9D50
(1713562096.264179) can0 174#F27F00593D790B5F
(1713562096.264416) can0 178#FC7F00620F930BA8
(1713562096.264652) can0 17C#1080010034690B11
(1713562096.266143) can0 12F#000000000000008B
(1713562096.266381) can0 128#1388030000EC78A3
(1713562096.266627) can0 12D#000000000000008B
(1713562096.266873) can0 12E#00000000000000BE
(1713562096.267121) can0 290#000000000000008B
(1713562096.267395) can0 551#000000000004C000
(1713562096.267618) can0 5D1#9958000200000000
(1713562096.268085) can0 400#64000000000000B5
(1713562096.273170) can0 120#00000000070000C4
(1713562096.273412) can0 121#00000000000000D4
(1713562096.273654) can0 129#00000001000000D0
(1713562096.273970) can0 410#644000639E6E9D79
(1713562096.274203) can0 174#F27F00593F790C0F
(1713562096.274439) can0 178#F87F014814930C91
(1713562096.274675) can0 17C#0C8001003B690CC6
(1713562096.276147) can0 541#0440E80000008F92
(1713562096.276392) can0 12D#00000000000000BE
(1713562096.276638) can0 12F#00000000000000BE
(1713562096.276885) can0 290#00000000000000BE
(1713562096.278144) can0 400#64000000000000DF
(1713562096.278393) can0 140#0000030000000000
(1713562096.283896) can0 410#644000639E6E9D98
(1713562096.284123) can0 174#F27F005842790D42
(1713562096.284355) can0 178#F47F000015930DDA
(1713562096.284591) can0 17C#088001003B690DB2
(1713562096.286047) can0 12F#00000000000000D4
(1713562096.286282) can0 128#1388030000EC78C9
(1713562096.286526) can0 12D#00000000000000D4
(1713562096.286772) can0 12E#00000000000000D4
(1713562096.287019) can0 290#00000000000000D4
(1713562096.287264) can0 551#000000000004C000
(1713562096.287563) can0 5D1#9958000200000000
(1713562096.288185) can0 400#640000000000003E
(1713562096.293265) can0 120#0000000007000025
(1713562096.293509) can0 121#0000000000000035
(1713562096.293752) can0 129#0000000100000031
(1713562096.293985) can0 410#644000629E6E9DA9
(1713562096.294213) can0 174#F47F005942790E2B
(1713562096.294451) can0 178#F87F000015930E46
(1713562096.294691) can0 17C#0080010034690EC1
(1713562096.296154) can0 541#0440E80000008FA7
(1713562096.296391) can0 12D#0000000000000035
(1713562096.296636) can0 12F#0000000000000035
(1713562096.296884) can0 290#0000000000000035
(1713562096.298238) can0 400#6400000000000054
(1713562096.298745) can0 140#0000030000000000
(1713562096.299554) can0 5D0#9958010200000000
(1713562096.299788) can0 5B1#008A9A6800000096
(1713562096.299998) can0 5CF#8474630000000000
(1713562096.301297) can0 550#40003C000100009C
(1713562096.303843) can0 410#644000619E6E9DCF
(1713562096.304076) can0 174#F27F00583F790FB5
(1713562096.304313) can0 178#F67F000D12930F9F
(1713562096.304555) can0 17C#F87F010034690FAE
(1713562096.306061) can0 12F#000000000000005F
(1713562096.306300) can0 128#1388030000EC7828
(1713562096.306541) can0 12A#1028103C005800B3
(1713562096.306791) can0 12D#000000000000005F
(1713562096.307040) can0 12E#0000000000000035
(1713562096.307290) can0 290#000000000000005F
(1713562096.307583) can0 551#000000000004C000
(1713562096.307840) can0 552#00FFFFFFFFFFFFCF
(1713562096.308093) can0 5D1#9958000200000000
(1713562096.308339) can0 400#6400000000000061
(1713562096.308578) can0 5D2#8474630000000000
(1713562096.308825) can0 450#005400001B004A00
(1713562096.313366) can0 120#000000000700004F
(1713562096.313605) can0 121#000000000000005F
(1713562096.313849) can0 129#000000010000005B
(1713562096.314083) can0 410#644000619E6E9D2E
(1713562096.314319) can0 174#F07F0059407900E7
(1713562096.314558) can0 178#EE7F00000C930011
(1713562096.314795) can0 17C#F67F01003A69001D
(1713562096.316218) can0 541#0440E80000008FCD
(1713562096.316456) can0 12D#000000000000006A
(1713562096.316700) can0 12F#000000000000006A
(1713562096.316950) can0 290#000000000000006A
(1713562096.318339) can0 400#6400000000000080
(1713562096.319270) can0 140#0000030000000000
(1713562096.323795) can0 410#644000609E6E9D40
(1713562096.324046) can0 174#F27F0059457901C9
(1713562096.324280) can0 178#EE7F01360F9301EC
(1713562096.324518) can0 17C#FA7F0100346901B2
(1713562096.326044) can0 12F#000000000000008B
(1713562096.326277) can0 128#1388030000EC7842
(1713562096.326523) can0 12D#000000000000008B
(1713562096.326773) can0 12E#000000000000005F
(1713562096.327021) can0 290#000000000000008B
(1713562096.327267) can0 551#000000000004C000
(1713562096.327516) can0 5D1#9958000200000000
(1713562096.328377) can0 400#64000000000000B5
(1713562096.333459) can0 120#000000000700007A
(1713562096.333708) can0 121#000000000000006A
(1713562096.333958) can0 129#000000010000006E
(1713562096.334186) can0 174#F27F005946790262
(1713562096.334418) can0 178#F67F0230189302E5
(1713562096.334660) can0 17C#008001002A69024C
(1713562096.334894) can0 410#644000609E6E9D75
(1713562096.336139) can0 541#0440E80000008F2C
(1713562096.336393) can0 12D#00000000000000BE
(1713562096.336632) can0 12F#00000000000000BE
(1713562096.336878) can0 290#00000000000000BE
(1713562096.338429) can0 400#64000000000000DF
(1713562096.339804) can0 140#0000030000000000
(1713562096.343581) can0 4EA#0000000000000000
(1713562096.343815) can0 410#6440005F9E6E9D89
(1713562096.344060) can0 5B2#0800000000000000
(1713562096.344292) can0 174#F27F0058427903E4
(1713562096.344525) can0 178#FC7F03311C930361
(1713562096.344768) can0 17C#FE7F0100266903FA
(1713562096.345010) can0 310#FFFFFFFF7D7D2100
(1713562096.346077) can0 12F#00000000000000D4
(1713562096.346311) can0 128#1388030000EC7877
(1713562096.346556) can0 12D#00000000000000D4
(1713562096.346801) can0 12E#000000000000006A
(1713562096.347047) can0 290#00000000000000D4
(1713562096.347294) can0 551#000000000004C000
(1713562096.347544) can0 5D1#9958000200000000
(1713562096.348481) can0 400#640000000000003E
(1713562096.349090) can0 540#000000108C03BE00
(1713562096.349331) can0 5B0#63420000000000C9
(1713562096.351343) can0 550#48003C00010000B3
(1713562096.353560) can0 120#000000000700009B
(1713562096.353802) can0 121#000000000000008B
(1713562096.354045) can0 129#000000010000008F
(1713562096.354280) can0 174#F27F00593D7904E4
(1713562096.354517) can0 178#F87F0438119304D4
(1713562096.354757) can0 17C#F67F01001E69045F
(1713562096.354991) can0 410#6440005F9E6E9DBC
(1713562096.356440) can0 12F#0000000000000035
(1713562096.356670) can0 12A#1028103C005800D9
(1713562096.356929) can0 12D#0000000000000035
(1713562096.357177) can0 290#0000000000000035
(1713562096.358538) can0 400#6400000000000054
(1713562096.358769) can0 541#0440E80000008F46
(1713562096.359049) can0 552#00FFFFFFFFFFFF2E
(1713562096.359295) can0 450#005400001B004A00
(1713562096.360287) can0 140#0000030000000000
(1713562096.363709) can0 410#6440005F9E6E9DD6
(1713562096.364065) can0 174#F27F00593F7905FA
(1713562096.364297) can0 178#EE7F053104930559
(1713562096.364534) can0 17C#F27F0100176905A8
(1713562096.366101) can0 551#000000000004C000
(1713562096.366335) can0 128#1388030000EC7896
(1713562096.366586) can0 12D#000000000000005F
(1713562096.366831) can0 12E#000000000000008B
(1713562096.367078) can0 12F#000000000000005F
(1713562096.367330) can0 290#000000000000005F
(1713562096.367569) can0 5D1#9958000200000000
(1713562096.368583) can0 400#6400000000000061
(1713562096.373651) can0 120#00000000070000AE
(1713562096.373894) can0 121#00000000000000BE
(1713562096.374136) can0 129#00000001000000BA
(1713562096.374368) can0 174#F27F00594379069F
(1713562096.374600) can0 178#EA7F0632FC9206DB
(1713562096.374838) can0 17C#F47F010019690655
(1713562096.375072) can0 410#6440005E9E6E9D33
(1713562096.376204) can0 541#0440E80000008F73
(1713562096.376446) can0 12F#000000000000006A
(1713562096.376700) can0 12D#000000000000006A
(1713562096.376944) can0 290#000000000000006A
(1713562096.378621) can0 400#6400000000000080
(1713562096.380807) can0 140#0000030000000000
(1713562096.383652) can0 410#6440005E9E6E9D59
(1713562096.384072) can0 174#F07F0059487907B8
(1713562096.384307) can0 178#F27F0739FC9207E1
(1713562096.384551) can0 17C#FE7F010022690788
(1713562096.386094) can0 551#000000000004C000
(1713562096.386327) can0 128#1388030000EC78A3
(1713562096.386573) can0 12D#000000000000008B
(1713562096.386820) can0 12E#00000000000000BE
(1713562096.387064) can0 12F#000000000000008B
(1713562096.387311) can0 290#000000000000008B
(1713562096.387553) can0 5D1#9958000200000000
(1713562096.388674) can0 400#64000000000000B5
(1713562096.393681) can0 410#6440005E9E6E9D6C
(1713562096.393921) can0 120#00000000070000C4
(1713562096.394177) can0 121#00000000000000D4
(1713562096.394411) can0 129#00000001000000D0
(1713562096.394639) can0 174#EE7F0059467908B2
(1713562096.394871) can0 178#FC7F082D06930887
(1713562096.395111) can0 17C#048001002C6908F2
(1713562096.396145) can0 541#0440E80000008F92
(1713562096.396389) can0 12F#00000000000000BE
(1713562096.396638) can0 12D#00000000000000BE
(1713562096.396885) can0 290#00000000000000BE
(1713562096.398713) can0 400#64000000000000DF
(1713562096.399632) can0 5D0#9958010200000000
(1713562096.400424) can0 5B1#008A9A68000000A3
(1713562096.400666) can0 5CF#8474630000000000
(1713562096.401342) can0 550#48003C00010000D9
(1713562096.401592) can0 140#0000030000000000
(1713562096.403606) can0 410#6440005D9E6E9D81
(1713562096.404071) can0 174#EC7F005942790913
(1713562096.404312) can0 178#008009300F930902
(1713562096.404550) can0 17C#048001002C6909EF
(1713562096.406177) can0 551#000000000004C000
(1713562096.406413) can0 128#1388030000EC78C9
(1713562096.406651) can0 12A#1028103C00580038
(1713562096.406895) can0 12D#00000000000000D4
(1713562096.407141) can0 12E#00000000000000D4
(1713562096.407385) can0 12F#00000000000000D4
(1713562096.407631) can0 290#00000000000000D4
(1713562096.407875) can0 552#00FFFFFFFFFFFF44
(1713562096.408125) can0 5D1#9958000200000000
(1713562096.408372) can0 5D2#8474630000000000
(1713562096.408617) can0 450#005400001B004A00
(1713562096.408866) can0 400#640000000000003E
(1713562096.413624) can0 410#6440005D9E6E9DB4
(1713562096.413876) can0 120#0000000007000025
(1713562096.414125) can0 121#0000000000000035
(1713562096.414369) can0 129#0000000100000031
(1713562096.414602) can0 174#EC7F00593F790AF9
(1713562096.414832) can0 178#04800A3212930A48
(1713562096.415071) can0 17C#028001002C690A1B
(1713562096.416144) can0 541#0440E80000008FA7
(1713562096.416447) can0 12F#F81002200000002E
(1713562096.416693) can0 12D#0000000000000035
(1713562096.416941) can0 290#0000000000000035
(1713562096.418809) can0 400#6400000000000054
(1713562096.421914) can0 140#0000030000000000
(1713562096.423570) can0 410#6440005D9E6E9DDE
(1713562096.424079) can0 174#EC7F00593D790BE7
(1713562096.424317) can0 178#04800B360D930BEF
(1713562096.424558) can0 17C#0080010034690BA8
(1713562096.426094) can0 551#000000000004C000
(1713562096.426336) can0 128#1388010000EC7826
(1713562096.426586) can0 12D#000000000000005F
(1713562096.426830) can0 12E#000000000000C02E
(1713562096.427072) can0 12F#F810022000000044
(1713562096.427333) can0 290#000000000000005F
(1713562096.427562) can0 5D1#9958000200000000
(1713562096.428831) can0 400#6400000000000061
(1713562096.433589) can0 410#6440005D9E6E6E3A
(1713562096.433939) can0 120#000000000700004F
(1713562096.434187) can0 121#000000000000005F
(1713562096.434431) can0 129#000000010000005B
(1713562096.434667) can0 174#EE7F00593F790C0D
(1713562096.434899) can0 178#00800C3009930CB1
(1713562096.435141) can0 17C#048001003F690C12
(1713562096.436196) can0 541#0440E80000008FCD
(1713562096.436437) can0 12F#F810022000000071
(1713562096.436682) can0 12D#000000000000006A
(1713562096.436932) can0 290#000000000000006A
(1713562096.438892) can0 400#6400000000000080
(1713562096.442438) can0 140#0000030000000000
(1713562096.443362) can0 4EA#0000000000000000
(1713562096.443594) can0 410#6440005F9E6E6E58
(1713562096.443840) can0 5B2#0800000000000000
(1713562096.444084) can0 310#FFFFFFFF7D7D2100
(1713562096.444316) can0 174#F07F00593F790DA8
(1713562096.444554) can0 178#0080000007930D08
(1713562096.444788) can0 17C#048001004E690DC8
(1713562096.446091) can0 551#000000000004C000
(1713562096.446326) can0 128#1388010000EC784C
(1713562096.446572) can0 12D#000000000000008B
(1713562096.446817) can0 12E#000000000000C044
(1713562096.447057) can0 12F#F810022000000090
(1713562096.447305) can0 290#000000000000008B
(1713562096.447545) can0 5D1#9958000200000000
(1713562096.448909) can0 400#64000000000000B5
(1713562096.449532) can0 540#000000108C03BE00
(1713562096.449774) can0 5B0#6342000000000028
(1713562096.451350) can0 550#48003C0001000038
(1713562096.453550) can0 410#648000619E6E6E6A
(1713562096.454044) can0 120#000000000700007A
(1713562096.454291) can0 121#000000000000006A
(1713562096.454539) can0 129#000000010000006E
(1713562096.454771) can0 174#EE7F00593F790E37
(1713562096.455009) can0 178#0280013003930E96
(1713562096.455243) can0 17C#008001005C690E9D
(1713562096.456154) can0 541#0440E80000008F2C
(1713562096.456407) can0 552#00FFFFFFFFFFFF71
(1713562096.456639) can0 12A#1428701C6058004C
(1713562096.456887) can0 12D#00000000000000BE
(1713562096.457127) can0 12F#F8100220000000A5
(1713562096.457375) can0 290#00000000000000BE
(1713562096.457615) can0 450#005400001B004A00
(1713562096.459013) can0 400#64000000000000DF
(1713562096.462914) can0 140#0000030000000000
(1713562096.463601) can0 410#648000659E6E6E9B
(1713562096.464109) can0 174#EA7F00593F790F43
(1713562096.464346) can0 178#02800232FC920F50
(1713562096.464584) can0 17C#FE7F010061690F8C
(1713562096.466162) can0 551#000000000004C000
(1713562096.466401) can0 128#1388010000EC7879
(1713562096.466645) can0 12D#00000000000000D4
(1713562096.466892) can0 12E#000000000000C071
(1713562096.467135) can0 12F#F8100220000000CF
(1713562096.467382) can0 290#00000000000000D4
(1713562096.467621) can0 5D1#9958000200000000
(1713562096.469010) can0 400#640000000000003E
(1713562096.473619) can0 410#648000689E6E6EAF
(1713562096.474133) can0 120#000000000700009B
(1713562096.474378) can0 121#000000000000008B
(1713562096.474624) can0 129#000000010000008F
(1713562096.474857) can0 174#E47F00593F7900F9
(1713562096.475094) can0 178#00800336F99200FC
(1713562096.475354) can0 17C#FE7F010059690013
(1713562096.476136) can0 541#0440E80000008F46
(1713562096.476377) can0 12F#F81002200000002E
(1713562096.476625) can0 12D#0000000000000035
(1713562096.476871) can0 290#0000000000000035
(1713562096.479079) can0 400#6400000000000054
(1713562096.483436) can0 140#0000030000000000
(1713562096.483667) can0 410#6480006B9E6E6EC9
(1713562096.484100) can0 174#E47F00593B7901E2
(1713562096.484333) can0 178#FC7F0435F992014B
(1713562096.484572) can0 17C#028001004069018E
(1713562096.486090) can0 551#000000000004C000
(1713562096.486324) can0 128#1388030000EC7896
(1713562096.486574) can0 12D#000000000000005F
(1713562096.486820) can0 12E#000000000000C090
(1713562096.487062) can0 12F#F810022000000044
(1713562096.487312) can0 290#000000000000005F
(1713562096.487553) can0 5D1#9958000200000000
(1713562096.489103) can0 400#6400000000000061
(1713562096.493620) can0 410#6480006C9E6E6E34
(1713562096.494151) can0 174#EC7F005934790291
(1713562096.494397) can0 120#00000000070000AE
(1713562096.494643) can0 121#00000000000000BE
(1713562096.494885) can0 129#00000001000000BA
(1713562096.495119) can0 178#FC7F0530FF9202D0
(1713562096.495384) can0 17C#04800100216902A5
(1713562096.496199) can0 541#0440E80000008F73
(1713562096.496443) can0 12D#000000000000006A
(1713562096.496686) can0 12F#F810022000000071
(1713562096.496936) can0 290#000000000000006A
(1713562096.499180) can0 400#6400000000000080
(1713562096.500526) can0 5D0#9958010200000000
(1713562096.500759) can0 5B1#008A9A68000000C9
(1713562096.500999) can0 5CF#8474630000000000
(1713562096.501343) can0 550#48003C0001000052
(1713562096.503575) can0 410#6480006D9E6E6E5A
(1713562096.503959) can0 140#0000030000000000
(1713562096.504191) can0 174#F07F00592C79039A
(1713562096.504423) can0 178#FE7F06310C93031C
(1713562096.504661) can0 17C#0480010009690384
(1713562096.506099) can0 12F#F810022000000090
(1713562096.506336) can0 128#1388030000EC78A3
(1713562096.506567) can0 12A#1428701C60580079
(1713562096.506814) can0 12D#000000000000008B
(1713562096.507058) can0 12E#000000000000C0A5
(1713562096.507306) can0 290#000000000000008B
(1713562096.507553) can0 551#000000000004C000
(1713562096.507806) can0 552#00FFFFFFFFFFFF90
(1713562096.508058) can0 5D1#9958000200000000
(1713562096.508306) can0 5D2#8474630000000000
(1713562096.508554) can0 450#005400001B004A00
(1713562096.509195) can0 400#64000000000000B5
(1713562096.513627) can0 410#6480006E9E6E6E63
(1713562096.514160) can0 174#F07F00592C7904C9
(1713562096.514407) can0 120#00000000070000C4
(1713562096.514651) can0 121#00000000000000D4
(1713562096.514893) can0 129#00000001000000D0
(1713562096.515136) can0 178#008007311593041F
(1713562096.515400) can0 17C#088001000C6904E5
(1713562096.516139) can0 541#0440E80000008F92
(1713562096.516378) can0 12F#F8100220000000A5
(1713562096.516626) can0 12D#00000000000000BE
(1713562096.516873) can0 290#00000000000000BE
(1713562096.519276) can0 400#64000000000000DF
(1713562096.523579) can0 410#6480006E9E6E6E82
(1713562096.524112) can0 174#F47F0059327905AC
(1713562096.524348) can0 178#FE7F0831159305DF
(1713562096.524599) can0 140#0000030000000000
(1713562096.524838) can0 17C#06800100226905C0
(1713562096.526149) can0 12F#F8100220000000CF
(1713562096.526385) can0 128#1388030000EC78C9
(1713562096.526629) can0 12D#00000000000000D4
(1713562096.526873) can0 12E#000000000000C0CF
(1713562096.527119) can0 290#00000000000000D4
(1713562096.527366) can0 551#000000000004C000
(1713562096.527613) can0 5D1#9958000200000000
(1713562096.529279) can0 400#640000000000003E
(1713562096.533620) can0 410#6480006E9E6E6EB7
(1713562096.534166) can0 174#F67F0059377906B8
(1713562096.534406) can0 178#F87F09300F9306CB
(1713562096.534654) can0 120#0000000007000025
(1713562096.534902) can0 121#0000000000000035
(1713562096.535146) can0 129#0000000100000031
(1713562096.535394) can0 17C#00800100316906A0
(1713562096.536127) can0 541#0440E80000008FA7
(1713562096.536387) can0 12F#F81002200000002E
(1713562096.536633) can0 12D#0000000000000035
(1713562096.536880) can0 290#000000020000003D
(1713562096.539411) can0 400#6400000000000054
(1713562096.541019) can0 6AB#ACC2A57596A3C162
(1713562096.543235) can0 4EA#0000000000000000
(1713562096.543433) can0 5B2#0800000000000000
(1713562096.543676) can0 310#FFFFFFFF7D7D2100
(1713562096.543911) can0 410#6480006E9E6E6EDD
(1713562096.544144) can0 174#F67F00593A790720
(1713562096.544374) can0 178#EE7F0A380693071D
(1713562096.544614) can0 17C#FC7F01002A69073E
(1713562096.545011) can0 140#0000030000000000
(1713562096.546089) can0 551#000000000004C000
(1713562096.546328) can0 128#1388030000EC7828
(1713562096.546577) can0 12D#000000000000005F
(1713562096.546821) can0 12E#000000000000C02E
(1713562096.547063) can0 12F#F810022000000044
(1713562096.547309) can0 290#0000000200000057
(1713562096.547549) can0 5D1#9958000200000000
(1713562096.549382) can0 400#6400000000000061
(1713562096.549970) can0 540#000000108C03BE00
(1713562096.550212) can0 5B0#6342000000000042
(1713562096.551350) can0 550#48003C0001000067
(1713562096.553619) can0 410#6480006E9E6E6E3C
(1713562096.554170) can0 174#F47F00593D7908AB
(1713562096.554409) can0 178#EE7F00000193087C
(1713562096.554654) can0 120#000000000700004F
(1713562096.554903) can0 121#000000000000005F
(1713562096.555147) can0 129#000000010000005B
(1713562096.555394) can0 17C#FC7F01001B690822
(1713562096.556217) can0 541#0440E80000008FCD
(1713562096.556459) can0 12F#F810022000000071
(1713562096.556694) can0 12A#1428701C60580098
(1713562096.556940) can0 12D#000000000000006A
(1713562096.557187) can0 290#0000000200000062
(1713562096.557432) can0 552#00FFFFFFFFFFFFA5
(1713562096.557682) can0 450#005400001B004A00
(1713562096.559471) can0 400#6400000000000080
(1713562096.563492) can0 410#6480006E9E6E6E56
(1713562096.564129) can0 174#F07F00593D7909DF
(1713562096.564358) can0 178#F47F01300493093C
(1713562096.564596) can0 17C#028001001669091B
(1713562096.565536) can0 140#0000030000000000
(1713562096.566093) can0 551#000000000004C000
(1713562096.566327) can0 128#1388030000EC7842
(1713562096.566574) can0 12D#000000000000008B
(1713562096.566817) can0 12E#000000000000C044
(1713562096.567057) can0 12F#F810022000000090
(1713562096.567307) can0 290#0010000200000088
(1713562096.567548) can0 5D1#9958000200000000
(1713562096.569472) can0 400#64000000000000B5
(1713562096.573612) can0 410#6480006F9E6E6E67
(1713562096.574182) can0 174#EC7F00593B790AFF
(1713562096.574417) can0 178#F67F00000C930AA8
(1713562096.574654) can0 17C#0480010019690A69
(1713562096.574902) can0 120#000000000700007A
(1713562096.575155) can0 121#000000000000006A
(1713562096.575406) can0 129#000000010000006E
(1713562096.576131) can0 541#0440E80000008F2C
(1713562096.576387) can0 12F#F8100220000000A5
(1713562096.576635) can0 12D#00000000000000BE
(1713562096.576884) can0 290#00100002000000BD
(1713562096.579577) can0 400#64000000000000DF
(1713562096.583441) can0 410#6480006E9E6E6E82
(1713562096.584136) can0 174#EC7F005940790B2A
(1713562096.584363) can0 178#EC7F015311930B98
(1713562096.584602) can0 17C#0080010021690B39
(1713562096.586062) can0 140#0000030000000000
(1713562096.586296) can0 128#1388030000EC7877
(1713562096.586540) can0 12D#00000000000000D4
(1713562096.586788) can0 12E#000000000000C071
(1713562096.587029) can0 12F#F8100220000000CF
(1713562096.587282) can0 290#00000002000000DC
(1713562096.587525) can0 551#000000000004C000
(1713562096.587772) can0 5D1#9958000200000000
(1713562096.589575) can0 400#640000000000003E
(1713562096.593330) can0 410#6480006E9E6E6EB7
(1713562096.594193) can0 174#F07F005946790C7E
(1713562096.594421) can0 178#E47F02430F930C93
(1713562096.594657) can0 17C#0280010026690C5A
(1713562096.594903) can0 120#000000000700009B
(1713562096.595147) can0 121#000000000000008B
(1713562096.595394) can0 129#000000010000008F
(1713562096.596133) can0 541#0440E80000008F46
(1713562096.596484) can0 12F#F81002200000002E
(1713562096.596730) can0 12D#0000000000000035
(1713562096.596978) can0 290#000000020000003D
(1713562096.599666) can0 400#6400000000000054
(1713562096.600524) can0 5D0#9958010200000000
(1713562096.600761) can0 5B1#008A9A6800000028
(1713562096.601002) can0 5CF#8474630000000000
(1713562096.601345) can0 550#48003C0001000086
(1713562096.603298) can0 410#6480006E9E6E6EDD
(1713562096.604142) can0 174#F07F005948790D6A
(1713562096.604370) can0 178#E67F033209930D3D
(1713562096.604608) can0 17C#0480010021690D1E
(1713562096.606106) can0 551#000000000004C000
(1713562096.606340) can0 128#1388030000EC7896
(1713562096.606574) can0 12A#1428701C605800AD
(1713562096.606824) can0 12D#000000000000005F
(1713562096.607070) can0 12E#000000000000C090
(1713562096.607312) can0 12F#F810022000000044
(1713562096.607562) can0 140#0000030000000000
(1713562096.607808) can0 290#0000000200000057
(1713562096.608054) can0 552#00FFFFFFFFFFFFCF
(1713562096.608292) can0 5A0#0000006244928029
(1713562096.608532) can0 5D1#9958000200000000
(1713562096.608777) can0 5D2#8474630000000000
(1713562096.609023) can0 450#005400001B004A00
(1713562096.609674) can0 400#6400000000000061
(1713562096.613273) can0 410#6480006E9E6E6E3C
(1713562096.614191) can0 174#F47F005948790E24
(1713562096.614421) can0 178#EE7F043006930E62
(1713562096.614657) can0 17C#0680010017690EAE
(1713562096.614903) can0 120#00000000070000AE
(1713562096.615150) can0 121#00000000000000BE
(1713562096.615395) can0 129#00000001000000BA
(1713562096.616197) can0 541#0440E80000009069
(1713562096.616453) can0 12F#F810022000000071
(1713562096.616699) can0 12D#000000000000006A
(1713562096.616947) can0 290#0000000200000062
(1713562096.619770) can0 400#6400000000000080
(1713562096.623044) can0 410#6480006E9E6E6E56
(1713562096.624153) can0 174#F87F005943790F02
(1713562096.624389) can0 178#F87F05300A930F75
(1713562096.624630) can0 17C#0880010011690FB7
(1713562096.626087) can0 551#000000000004C000
(1713562096.626323) can0 128#1388030000EC78A3
(1713562096.626569) can0 12D#000000000000008B
(1713562096.626814) can0 12E#000000000000C0A5
(1713562096.627054) can0 12F#F810022000000090
(1713562096.627304) can0 140#0000030000000000
(1713562096.627556) can0 290#0000000200000083
(1713562096.627796) can0 5D1#9958000200000000
(1713562096.629765) can0 400#64000000000000B5
(1713562096.632969) can0 410#6480006E9E6E6E63
(1713562096.634162) can0 174#F87F005940790035
(1713562096.634401) can0 178#FE7F06320F93000D
(1713562096.634690) can0 17C#0680010019690001
(1713562096.634942) can0 120#00000000070000C4
(1713562096.635186) can0 121#00000000000000D4
(1713562096.635433) can0 129#00000001000000D0
(1713562096.636125) can0 541#0440E80000009088
(1713562096.636392) can0 12F#F8100220000000A5
(1713562096.636640) can0 12D#00000000000000BE
(1713562096.636887) can0 290#00000002000000B6
(1713562096.639863) can0 400#64000000000000DF
(1713562096.642992) can0 410#6480006E9E6E6E82
(1713562096.643244) can0 4EA#0000000000000000
(1713562096.643489) can0 5B2#0800000000000000
(1713562096.643732) can0 310#FFFFFFFF7D7D2100
(1713562096.644208) can0 174#F87F00594279012B
(1713562096.644444) can0 178#FA7F07370C93014C
(1713562096.644682) can0 17C#028001002F690158
(1713562096.646209) can0 12F#F8100220000000CF
(1713562096.646444) can0 128#1388030000EC78C9
(1713562096.646688) can0 12D#00000000000000D4
(1713562096.646932) can0 12E#000000000000C0CF
(1713562096.647132) can0 290#00000002000000DC
(1713562096.647379) can0 551#000000000004C000
(1713562096.647628) can0 5D1#9958000200000000
(1713562096.647878) can0 140#0000030000000000
(1713562096.649857) can0 400#640000000000003E
(1713562096.650442) can0 540#000000108C03BE00
(1713562096.650683) can0 5B0#6342000000000077
(1713562096.651297) can0 550#48003C00010000B3
(1713562096.652916) can0 410#6480006E9E6E6EB7
(1713562096.654162) can0 174#F47F0059487902B8
(1713562096.654396) can0 178#F47F085FFF92021C
(1713562096.654634) can0 17C#F87F010046690264
(1713562096.654975) can0 120#0000000007000025
(1713562096.655224) can0 121#0000000000000035
(1713562096.655469) can0 129#0000000100000031
(1713562096.656145) can0 541#0440E800000090BD
(1713562096.656397) can0 552#00FFFFFFFFFFFF2E
(1713562096.656632) can0 12A#1428701C605800C7
(1713562096.656879) can0 12D#0000000000000035
(1713562096.657122) can0 12F#F81002200000002E
(1713562096.657369) can0 290#000000020000003D
(1713562096.657609) can0 450#005400001B004A00
(1713562096.659955) can0 400#6400000000000054
(1713562096.662936) can0 410#6480006E9E6E6EDD
(1713562096.664210) can0 174#F47F00594D79032C
(1713562096.664443) can0 178#F07F0930F892033E
(1713562096.664677) can0 17C#F27F01005069030C
(1713562096.666142) can0 551#000000000004C000
(1713562096.666380) can0 128#1388030000EC7828
(1713562096.666630) can0 12D#000000000000005F
(1713562096.666874) can0 12E#000000000000C02E
(1713562096.667119) can0 12F#F810022000000044
(1713562096.667386) can0 290#0000000200000057
(1713562096.667604) can0 5D1#9958000200000000
(1713562096.668178) can0 140#0000030000000000
(1713562096.669953) can0 400#6400000000000061
(1713562096.672861) can0 410#6480006E9E6E6E3C
(1713562096.674164) can0 174#F47F0059487904F6
(1713562096.674397) can0 178#EE7F0A37FE92049A
(1713562096.674631) can0 17C#F47F01004E69049D
(1713562096.675071) can0 120#000000000700004F
(1713562096.675327) can0 121#000000000000005F
(1713562096.675564) can0 129#000000010000005B
(1713562096.676189) can0 541#0440E800000090D7
(1713562096.676434) can0 12D#000000000000006A
(1713562096.676676) can0 12F#F810022000000071
(1713562096.676925) can0 290#0000000200000062
(1713562096.680061) can0 400#6400000000000080
(1713562096.682883) can0 410#6480006E9E6E6E56
(1713562096.684219) can0 174#F47F0059427905E4
(1713562096.684447) can0 178#F47F0B310993051B
(1713562096.684698) can0 17C#0080010050690558
(1713562096.686125) can0 551#000000000004C000
(1713562096.686357) can0 128#1388030000EC7842
(1713562096.686603) can0 12D#000000000000008B
(1713562096.686847) can0 12E#000000000000C044
(1713562096.687087) can0 12F#F810022000000090
(1713562096.687347) can0 290#0000000200000083
(1713562096.687581) can0 5D1#9958000200000000
(1713562096.688698) can0 140#0000030000000000
(1713562096.690050) can0 400#64000000000000B5
(1713562096.692809) can0 410#6480006E9E6E6E63
(1713562096.694170) can0 174#F47F00594379064C
(1713562096.694411) can0 178#00800000119306DA
(1713562096.694650) can0 17C#0A80010051690698
(1713562096.695169) can0 120#000000000700007A
(1713562096.695421) can0 121#000000000000006A
(1713562096.695668) can0 129#000000010000006E
(1713562096.696084) can0 541#0440E80000009036
(1713562096.696377) can0 12D#00000000000000BE
(1713562096.696617) can0 12F#F8100220000000A5
(1713562096.696864) can0 290#00000002000000B6
(1713562096.700159) can0 400#64000000000000DF
(1713562096.700556) can0 5D0#9958010200000000
(1713562096.700792) can0 5B1#008A9A6800000042
(1713562096.701032) can0 5CF#8474630000000000
(1713562096.701347) can0 550#48003C00010000D9
(1713562096.702832) can0 410#6480006E9E6E6E82
(1713562096.704227) can0 174#F47F00594A7907D2
(1713562096.704459) can0 178#0A8001370D93074C
(1713562096.704697) can0 17C#0C8001004B690741
(1713562096.706213) can0 551#000000000004C000
(1713562096.706445) can0 128#1388030000EC7877
(1713562096.706679) can0 12A#1428701C60580026
(1713562096.706923) can0 12D#00000000000000D4
(1713562096.707171) can0 12E#000000000000C071
(1713562096.707416) can0 12F#F8100220000000CF
(1713562096.707661) can0 290#00000002000000DC
(1713562096.707906) can0 552#00FFFFFFFFFFFF44
(1713562096.708143) can0 5A0#0000006244928043
(1713562096.708389) can0 55A#0017830000000000
(1713562096.708630) can0 5D1#9958000200000000
(1713562096.708834) can0 5D2#8474630000000000
(1713562096.709077) can0 450#005420001B004A00
(1713562096.709327) can0 140#0000030000000000
(1713562096.710151) can0 400#640000000000003E
(1713562096.712757) can0 410#6480006E9E6E6EB7
(1713562096.714184) can0 174#F27F0059507908AD
(1713562096.714416) can0 178#0880022E04930854
(1713562096.714654) can0 17C#0A8001003D690864
(1713562096.715251) can0 120#000000000700009B
(1713562096.715496) can0 121#000000000000008B
(1713562096.715737) can0 129#000000010000008F
(1713562096.716099) can0 541#0440E8000000905C
(1713562096.716341) can0 12F#F81002200000002E
(1713562096.716587) can0 12D#0000000000000035
(1713562096.716884) can0 290#000000020000003D
(1713562096.720256) can0 400#6400000000000054
(1713562096.722776) can0 410#6480006E9E6E6EDD
(1713562096.724232) can0 174#F07F005953790986
(1713562096.724466) can0 178#00800331FC920974
(1713562096.724705) can0 17C#068001002D6909DA
(1713562096.726140) can0 551#000000000004C000
(1713562096.726368) can0 128#1388030000EC7896
(1713562096.726617) can0 12D#000000000000005F
(1713562096.726863) can0 12E#000000000000C090
(1713562096.727105) can0 12F#F810022000000044
(1713562096.727376) can0 290#0000000200000057
(1713562096.727592) can0 5D1#9958000200000000
(1713562096.729798) can0 140#0000030000000000
(1713562096.730243) can0 400#6400000000000061
(1713562096.732702) can0 410#6480006E9E6E6E3C
(1713562096.734181) can0 174#EE7F00594E790A84
(1713562096.734417) can0 178#FA7F0430FB920A87
(1713562096.734657) can0 17C#048001001F690A6C
(1713562096.735348) can0 120#00000000070000AE
(1713562096.735594) can0 121#00000000000000BE
(1713562096.735837) can0 129#00000001000000BA
(1713562096.736143) can0 12F#F810022000000071
(1713562096.736388) can0 12D#000000000000006A
(1713562096.736636) can0 290#0000000200000062
(1713562096.736876) can0 541#0440E80000009069
(1713562096.740356) can0 400#6400000000000080
(1713562096.742749) can0 410#6480006E9E6E6E56
(1713562096.742999) can0 4EA#0000000000000000
(1713562096.743245) can0 5B2#0800000000000000
(1713562096.743488) can0 310#FFFFFFFF7D7D2100
(1713562096.744236) can0 174#EE7F005946790B95
(1713562096.744476) can0 178#FA7F000001930B8B
(1713562096.744712) can0 17C#068001001C690B47
(1713562096.746128) can0 551#000000000004C000
(1713562096.746382) can0 12D#000000000000008B
(1713562096.746612) can0 128#1388030000EC78A3
(1713562096.746857) can0 12E#000000000000C0A5
(1713562096.747095) can0 12F#F810022000000090
(1713562096.747349) can0 290#0000000200000083
(1713562096.747588) can0 5D1#9958000200000000
(1713562096.750275) can0 140#0000030000000000
(1713562096.750521) can0 400#64000000000000B5
(1713562096.750931) can0 540#000000108C03BE00
(1713562096.751173) can0 5B0#6342000000000096
(1713562096.751418) can0 550#48003C0001000038
(1713562096.752673) can0 410#6480006E9E6E6E63
(1713562096.754191) can0 174#F27F00593F790C0F
(1713562096.754427) can0 178#028001380F930C3A
(1713562096.754666) can0 17C#0E80010029690C67
(1713562096.755446) can0 120#00000000070000C4
(1713562096.755690) can0 121#00000000000000D4
(1713562096.755932) can0 129#00000001000000D0
(1713562096.756171) can0 541#0440E80000009088
(1713562096.756403) can0 12A#1428701C6058004C
(1713562096.756651) can0 12D#00000000000000BE
(1713562096.756891) can0 12F#F8100220000000A5
(1713562096.757137) can0 290#00000002000000B6
(1713562096.757381) can0 552#00FFFFFFFFFFFF71
(1713562096.757627) can0 450#005400001B004A00
(1713562096.760452) can0 400#64000000000000DF
(1713562096.762700) can0 410#6480006E9E6E6E82
(1713562096.764258) can0 174#F47F00593F790DC1
(1713562096.764488) can0 178#0A80023220930D46
(1713562096.764724) can0 17C#1280010037690D69
(1713562096.766203) can0 551#000000000004C000
(1713562096.766438) can0 128#1388030000EC78C9
(1713562096.766684) can0 12D#00000000000000D4
(1713562096.766927) can0 12E#000000000000C0CF
(1713562096.767171) can0 12F#F8100220000000CF
(1713562096.767417) can0 290#00100002000000D7
(1713562096.767655) can0 5D1#9958000200000000
(1713562096.770441) can0 400#640000000000003E
(1713562096.770801) can0 140#0000030000000000
(1713562096.772624) can0 410#6480006E9E6E6EB7
(1713562096.774203) can0 174#F27F005942790EF8
(1713562096.774435) can0 178#0880033227930E3B
(1713562096.774671) can0 17C#0E8001003B690E46
(1713562096.775546) can0 120#0000000007000025
(1713562096.775793) can0 121#0000000000000035
(1713562096.776037) can0 129#0000000100000031
(1713562096.776283) can0 12D#0000000000000035
(1713562096.776526) can0 12F#F81002200000002E
(1713562096.776770) can0 290#0010000200000036
(1713562096.777010) can0 541#0440E800000090BD
(1713562096.780549) can0 400#6400000000000054
(1713562096.782643) can0 410#6480006E9E6E6EDD
(1713562096.784265) can0 174#F07F005945790FD5
(1713562096.784495) can0 178#0480043528930FE4
(1713562096.784739) can0 17C#0880010037690F82
(1713562096.786124) can0 551#000000000004C000
(1713562096.786368) can0 12F#F810022000000044
(1713562096.786606) can0 128#1388030000EC7828
(1713562096.786862) can0 12D#000000000000005F
(1713562096.787101) can0 12E#000000000000C02E
(1713562096.787356) can0 290#0000000200000057
(1713562096.787587) can0 5D1#9958000200000000
(1713562096.790584) can0 400#6400000000000061
(1713562096.791329) can0 140#0000030000000000
(1713562096.792568) can0 410#6480006E9E6E6E3C
(1713562096.794214) can0 174#F27F005948790051
(1713562096.794459) can0 178#008000002A93003C
(1713562096.794700) can0 17C#008001002A690076
(1713562096.795643) can0 120#000000000700004F
(1713562096.795890) can0 121#000000000000005F
(1713562096.796134) can0 129#000000010000005B
(1713562096.796381) can0 12D#000000000000006A
(1713562096.796623) can0 12F#F810022000000071
(1713562096.796871) can0 290#0000000200000062
(1713562096.797109) can0 541#0440E800000090D7
(1713562096.800549) can0 5D0#9958010200000000
(1713562096.800796) can0 400#6400000000000080
(1713562096.801032) can0 5B1#008A9A6800000077
(1713562096.801272) can0 5CF#8474630000000000
(1713562096.801512) can0 550#48003C0001000052
(1713562096.802589) can0 410#6480006E9E6E6E56
(1713562096.804271) can0 174#F87F00594B7901A8
(1713562096.804507) can0 178#F87F0132239301F2
(1713562096.804743) can0 17C#FA7F0100266901A9
(1713562096.806143) can0 551#000000000004C000
(1713562096.806383) can0 12F#F810022000000090
(1713562096.806617) can0 128#1388030000EC7842
(1713562096.806849) can0 12A#1428701C60580079
(1713562096.807102) can0 12D#000000000000008B
(1713562096.807347) can0 12E#000000000000C044
(1713562096.807593) can0 290#0000000200000083
(1713562096.807838) can0 552#00FFFFFFFFFFFF90
(1713562096.808076) can0 5A0#0000006244928076
(1713562096.808316) can0 5D1#9958000200000000
(1713562096.808564) can0 5D2#8474630000000000
(1713562096.808808) can0 450#005420001B004A00
(1713562096.810680) can0 400#64000000000000B5
(1713562096.811855) can0 140#0000030000000000
(1713562096.812487) can0 410#6480006E9E6E6E63
(1713562096.814216) can0 174#FC7F00594E79026F
(1713562096.814448) can0 178#F27F02301C93028A
(1713562096.814686) can0 17C#F47F01002C690280
(1713562096.815741) can0 120#000000000700007A
(1713562096.815992) can0 121#000000000000006A
(1713562096.816240) can0 129#000000010000006E
(1713562096.816489) can0 12D#00000000000000BE
(1713562096.816729) can0 12F#F8100220000000A5
(1713562096.816974) can0 290#00000002000000B6
(1713562096.817215) can0 541#0440E80000009036
(1713562096.820742) can0 400#64000000000000DF
(1713562096.822514) can0 410#6480006E9E6E6E82
(1713562096.824274) can0 174#FA7F00594E7903A1
(1713562096.824504) can0 178#EC7F03321A930367
(1713562096.824741) can0 17C#EE7F0100316903D1
(1713562096.826195) can0 551#000000000004C000
(1713562096.826426) can0 128#1388030000EC7877
(1713562096.826670) can0 12D#00000000000000D4
(1713562096.826917) can0 12E#000000000000C071
(1713562096.827160) can0 12F#F8100220000000CF
(1713562096.827419) can0 290#00000002000000DC
(1713562096.827650) can0 5D1#9958000200000000
(1713562096.830787) can0 400#640000000000003E
(1713562096.832381) can0 140#0000030000000000
(1713562096.832614) can0 410#6480006E9E6E6EB7
(1713562096.834224) can0 174#F67F00594A79044F
(1713562096.834456) can0 178#E67F0433189304C9
(1713562096.834696) can0 17C#F07F01002C6904A7
(1713562096.835835) can0 120#000000000700009B
(1713562096.836078) can0 121#000000000000008B
(1713562096.836321) can0 129#000000010000008F
(1713562096.836568) can0 12D#0000000000000035
(1713562096.836809) can0 12F#F81002200000002E
(1713562096.837057) can0 290#000000020000003D
(1713562096.838574) can0 541#0440E8000000905C
(1713562096.840838) can0 400#6400000000000054
(1713562096.842455) can0 410#6480006E9E6E6EDD
(1713562096.842704) can0 4EA#0000000000000000
(1713562096.842949) can0 5B2#0800000000000000
(1713562096.843192) can0 310#FFFFFFFF7D7D2100
(1713562096.844275) can0 174#F67F00594279055E
(1713562096.844504) can0 178#E67F053114930593
(1713562096.844743) can0 17C#FA7F0100226905DB
(1713562096.846125) can0 551#000000000004C000
(1713562096.846367) can0 12F#F810022000000044
(1713562096.846601) can0 128#1388030000EC7896
(1713562096.846851) can0 12D#000000000000005F
(1713562096.847100) can0 12E#000000000000C090
(1713562096.847351) can0 290#001000020000005C
(1713562096.847588) can0 5D1#9958000200000000
(1713562096.850883) can0 400#6400000000000061
(1713562096.851354) can0 550#48003C0001000067
(1713562096.851592) can0 540#000000108C03BE00
(1713562096.851832) can0 5B0#63420000000000A3
(1713562096.852444) can0 410#6480006E9E6E6E3C
(1713562096.852955) can0 140#0000030000000000
(1713562096.854285) can0 174#F67F00594079067A
(1713562096.854519) can0 178#EC7F0630129306FA
(1713562096.854727) can0 17C#028001001B690625
(1713562096.855933) can0 120#00000000070000AE
(1713562096.856177) can0 121#00000000000000BE
(1713562096.856419) can0 129#00000001000000BA
(1713562096.856653) can0 12A#1428701C60580098
(1713562096.856900) can0 12D#000000000000006A
(1713562096.857141) can0 12F#F810022000000071
(1713562096.857385) can0 290#0010000200000069
(1713562096.857625) can0 541#0440E80000009069
(1713562096.857877) can0 552#00FFFFFFFFFFFFA5
(1713562096.858123) can0 450#005420001B004A00
(1713562096.860885) can0 400#6400000000000080
(1713562096.862420) can0 410#6480006E9E6E6E56
(1713562096.864279) can0 174#F67F00593F7907A9
(1713562096.864510) can0 178#F27F0731129307A8
(1713562096.864752) can0 17C#028001001F69073E
(1713562096.866134) can0 551#000000000004C000
(1713562096.866384) can0 5D1#9958000200000000
(1713562096.866620) can0 128#1388030000EC78A3
(1713562096.866867) can0 12D#000000000000008B
(1713562096.867110) can0 12E#000000000000C0A5
(1713562096.867378) can0 12F#F810022000000090
(1713562096.867603) can0 290#0000000200000083
(1713562096.870971) can0 400#64000000000000B5
(1713562096.872423) can0 410#6480006E9E6E6E63
(1713562096.873481) can0 140#0000030000000000
(1713562096.874283) can0 174#F67F00593779081E
(1713562096.874516) can0 178#F47F08380D930823
(1713562096.874755) can0 17C#FA7F01002D6908DC
(1713562096.876031) can0 120#00000000070000C4
(1713562096.876273) can0 121#00000000000000D4
(1713562096.876515) can0 129#00000001000000D0
(1713562096.876763) can0 12D#00000000000000BE
(1713562096.877003) can0 12F#F8100220000000A5
(1713562096.877250) can0 290#00000002000000B6
(1713562096.877488) can0 541#0440E80000009088
(1713562096.880982) can0 400#64000000000000DF
(1713562096.882366) can0 410#6480006E9E6E6E82
(1713562096.884283) can0 174#F67F00592D790914
(1713562096.884514) can0 178#F47F00000C930935
(1713562096.884755) can0 17C#F87F01003A6909E9
(1713562096.886183) can0 551#000000000004C000
(1713562096.886427) can0 12D#00000000000000D4
(1713562096.886663) can0 128#1388030000EC78C9
(1713562096.886907) can0 12E#000000000000C0CF
(1713562096.887149) can0 12F#F8100220000000CF
(1713562096.887399) can0 290#00000002000000DC
(1713562096.887637) can0 5D1#9958000200000000
(1713562096.891069) can0 400#640000000000003E
(1713562096.892416) can0 410#6480006E9E6E6EB7
(1713562096.894010) can0 140#0000030000000000
(1713562096.894284) can0 174#F67F005929790A35
(1713562096.894522) can0 178#F67F00000F930A24
(1713562096.894765) can0 17C#FC7F01003F690A2E
(1713562096.896071) can0 541#0440E800000090BD
(1713562096.896318) can0 120#0000000007000025
(1713562096.896566) can0 121#0000000000000035
(1713562096.896811) can0 129#0000000100000031
(1713562096.897057) can0 12D#0000000000000035
(1713562096.897299) can0 12F#F81002200000002E
(1713562096.897547) can0 290#000000020000003D
(1713562096.900556) can0 5D0#9958010200000000
(1713562096.900791) can0 5B1#008A9A6800000096
(1713562096.901031) can0 5CF#8474630000000000
(1713562096.901280) can0 400#6400000000000054
(1713562096.901520) can0 550#48003C0001000086
(1713562096.902360) can0 410#6480006E9E6E6EDD
(1713562096.904292) can0 174#F67F00592F790B2D
(1713562096.904517) can0 178#FE7F015214930B8F
(1713562096.904757) can0 17C#028001003F690B92
(1713562096.906141) can0 551#000000000004C000
(1713562096.906383) can0 12F#F810022000000044
(1713562096.906621) can0 128#1388030000EC7828
(1713562096.906856) can0 12A#1428701C605800AD
(1713562096.907106) can0 12D#000000000000005F
(1713562096.907376) can0 12E#000000000000C02E
(1713562096.907599) can0 290#001000020000005C
(1713562096.907842) can0 552#00FFFFFFFFFFFFCF
(1713562096.908078) can0 5A0#0000006244928097
(1713562096.908318) can0 5D1#9958000200000000
(1713562096.908564) can0 5D2#8474630000000000
(1713562096.908809) can0 450#005420001B004A00
(1713562096.911171) can0 400#6400000000000061
(1713562096.912418) can0 410#6480006E9E6E6E3C
(1713562096.914296) can0 174#F67F00593B790C60
(1713562096.914531) can0 178#0480026F15930C05
(1713562096.914779) can0 140#0000030000000000
(1713562096.915017) can0 17C#048001003B690C14
(1713562096.916192) can0 12F#F810022000000071
(1713562096.916387) can0 120#000000000700004F
(1713562096.916635) can0 121#000000000000005F
(1713562096.916879) can0 129#000000010000005B
(1713562096.917125) can0 12D#000000000000006A
(1713562096.917369) can0 290#0010000200000069
(1713562096.917607) can0 541#0440E800000090D7
(1713562096.921174) can0 400#6400000000000080
(1713562096.922360) can0 410#6480006E9E6E6E56
(1713562096.924303) can0 174#F47F005940790D0F
(1713562096.924531) can0 178#0880036215930D86
(1713562096.924767) can0 17C#028001003B690DDA
(1713562096.926124) can0 551#000000000004C000
(1713562096.926365) can0 12F#F810022000000090
(1713562096.926597) can0 128#1388030000EC7842
(1713562096.926843) can0 12D#000000000000008B
(1713562096.927087) can0 12E#000000000000C044
(1713562096.927349) can0 290#0000000200000083
(1713562096.927581) can0 5D1#9958000200000000
(1713562096.931264) can0 400#64000000000000B5
(1713562096.932402) can0 410#6480006E9E6E6E63
(1713562096.934304) can0 174#F07F00593F790E8F
(1713562096.934538) can0 178#0880046511930E58
(1713562096.934774) can0 17C#FE7F010040690E2E
(1713562096.935070) can0 140#0000030000000000
(1713562096.936122) can0 541#0440E80000009036
(1713562096.936342) can0 12D#00000000000000BE
(1713562096.936566) can0 120#000000000700007A
(1713562096.936818) can0 121#000000000000006A
(1713562096.937067) can0 129#000000010000006E
(1713562096.937306) can0 12F#F8100220000000A5
(1713562096.937553) can0 290#00000002000000B6
(1713562096.941276) can0 400#64000000000000DF
(1713562096.942328) can0 410#6480006E9E6E6E82
(1713562096.942577) can0 4EA#0000000000000000
(1713562096.942823) can0 5B2#0800000000000000
(1713562096.943066) can0 310#FFFFFFFF7D7D2100
(1713562096.944307) can0 174#EC7F00593A790F19
(1713562096.944541) can0 178#048005720F930F54
(1713562096.944776) can0 17C#FE7F01004B690FB3
(1713562096.946182) can0 551#000000000004C000
(1713562096.946424) can0 12D#00000000000000D4
(1713562096.946658) can0 128#1388030000EC7877
(1713562096.946907) can0 12E#000000000000C071
(1713562096.947148) can0 12F#F8100220000000CF
(1713562096.947401) can0 290#00000002000000DC
(1713562096.947636) can0 5D1#9958000200000000
(1713562096.951351) can0 550#48003C00010000B3
(1713562096.951597) can0 400#640000000000003E
(1713562096.951949) can0 540#000000108C03BE00
(1713562096.952189) can0 5B0#63420000000000C9
(1713562096.952423) can0 410#6480006E9E6E6EB7
(1713562096.954316) can0 174#EA7F00593B7900FE
(1713562096.954547) can0 178#0080067415930046
(1713562096.954786) can0 17C#0080010056690034
(1713562096.955590) can0 140#0000030000000000
(1713562096.956132) can0 541#0440E8000000905C
(1713562096.956368) can0 12A#1428701C605800C7
(1713562096.956615) can0 120#000000000700009B
(1713562096.956858) can0 121#000000000000008B
(1713562096.957101) can0 129#000000010000008F
(1713562096.957349) can0 12D#0000000000000035
(1713562096.957589) can0 12F#F81002200000002E
(1713562096.957837) can0 290#000000020000003D
(1713562096.958084) can0 552#00FFFFFFFFFFFF2E
(1713562096.958282) can0 450#005420001B004A00
(1713562096.961369) can0 400#6400000000000054
(1713562096.962272) can0 410#6480006E9E6E6EDD
(1713562096.964263) can0 174#EA7F00594A790124
(1713562096.964497) can0 178#FC7F07201D9301D9
(1713562096.964734) can0 17C#088001005E6901F7
(1713562096.966131) can0 551#000000000004C000
(1713562096.966381) can0 5D1#9958000200000000
(1713562096.966615) can0 128#1388030000EC7896
(1713562096.966864) can0 12D#000000000000005F
(1713562096.967110) can0 12E#000000000000C090
(1713562096.967379) can0 12F#F810022000000044
(1713562096.967602) can0 290#0020000200000041
(1713562096.971459) can0 400#6400000000000061
(1713562096.972293) can0 410#6480006E9E6E6E3C
(1713562096.974315) can0 174#EC7F005951790248
(1713562096.974551) can0 178#F87F08421D930212
(1713562096.974789) can0 17C#10800100566902B7
(1713562096.976118) can0 140#0000030000000000
(1713562096.976361) can0 12D#000000000000006A
(1713562096.976603) can0 12F#F810022000000071
(1713562096.976849) can0 120#00000000070000AE
(1713562096.977096) can0 121#00000000000000BE
(1713562096.977337) can0 129#00000001000000BA
(1713562096.977583) can0 290#0020000200000074
(1713562096.977823) can0 541#0440E80000009069
(1713562096.981463) can0 400#6400000000000080
(1713562096.982219) can0 410#6480006E9E6E6E56
(1713562096.984272) can0 174#EE7F00594B7903F8
(1713562096.984503) can0 178#FA7F096F1A930350
(1713562096.984743) can0 17C#128001003F6903C3
(1713562096.986115) can0 551#000000000004C000
(1713562096.986355) can0 12F#F810022000000090
(1713562096.986590) can0 128#1388030000EC78A3
(1713562096.986836) can0 12D#000000000000008B
(1713562096.987081) can0 12E#000000000000C0A5
(1713562096.987349) can0 290#0000000200000083
(1713562096.987576) can0 5D1#9958000200000000
(1713562096.991557) can0 400#64000000000000B5
(1713562096.992240) can0 410#6480006E9E6E6E63
(1713562096.994320) can0 174#EE7F00593F7904E5
(1713562096.994555) can0 178#00800A7317930407
(1713562096.994803) can0 17C#108001002C6904BE
(1713562096.996118) can0 541#0440E80000009088
(1713562096.996364) can0 12D#00000000000000BE
(1713562096.996602) can0 12F#F8100220000000A5
(1713562096.996848) can0 120#00000000070000C4
(1713562096.997092) can0 121#00000000000000D4
(1713562096.997334) can0 129#00000001000000D0
(1713562096.997584) can0 140#0000030000000000
(1713562096.997830) can0 290#00000002000000B6
(1713562097.001302) can0 550#48003C00010000D9
(1713562097.001543) can0 5D0#9958010200000000
(1713562097.001793) can0 400#64000000000000DF
(1713562097.002029) can0 410#6480006E9E6E6E82
(1713562097.002265) can0 5B1#008A9A68000000A3
(1713562097.002505) can0 5CF#8474630000000000
(1713562097.004281) can0 174#F07F0059307905C6
(1713562097.004511) can0 178#06800B631493050A
(1713562097.004752) can0 17C#08800100226905C1
(1713562097.006151) can0 551#000000000004C000
(1713562097.006444) can0 12D#00000000000000D4
(1713562097.006683) can0 128#1388030000EC78C9
(1713562097.006912) can0 12A#1428701C60580026
(1713562097.007152) can0 12E#000000000000C0CF
(1713562097.007420) can0 12F#F8100220000000CF
(1713562097.007653) can0 290#00000002000000DC
(1713562097.007891) can0 552#00FFFFFFFFFFFF44
(1713562097.008129) can0 5A0#00000062449280A2
(1713562097.008369) can0 5D1#9958000200000000
(1713562097.008614) can0 5D2#8474630000000000
(1713562097.008858) can0 450#005420001B004A00
(1713562097.011658) can0 400#640000000000003E
(1713562097.012003) can0 410#6480006E9E6E6EB7
(1713562097.014325) can0 174#F47F00592779061A
(1713562097.014561) can0 178#04800C680D930621
(1713562097.014802) can0 17C#048001002269065D
(1713562097.016128) can0 541#0440E800000090BD
(1713562097.016365) can0 12D#0000000000000035
(1713562097.016605) can0 12F#F81002200000002E
(1713562097.016857) can0 120#0000000007000025
(1713562097.017102) can0 121#0000000000000035
(1713562097.017346) can0 129#0000000100000031
(1713562097.017596) can0 140#0000030000000000
(1713562097.017844) can0 290#000000020000003D
(1713562097.021653) can0 400#6400000000000054
(1713562097.021926) can0 410#6480006E9E6E6EDD
(1713562097.024285) can0 174#F47F005927790707
(1713562097.024518) can0 178#FC7F0D2003930725
(1713562097.024759) can0 17C#0280010022690793
(1713562097.026071) can0 551#000000000004C000
(1713562097.026314) can0 12F#F810022000000044
(1713562097.026552) can0 128#1388030000EC7828
(1713562097.026801) can0 12D#000000000000005F
(1713562097.027045) can0 12E#000000000000C02E
(1713562097.027292) can0 290#0000000200000057
(1713562097.027582) can0 5D1#9958000200000000
(1713562097.031756) can0 400#6400000000000061
(1713562097.031984) can0 410#6480006E9E6E6E3C
(1713562097.034332) can0 174#F67F00592F79080A
(1713562097.034565) can0 178#F27F0E47FE92084A
(1713562097.034802) can0 17C#0680010024690844
(1713562097.036132) can0 12F#F810022000000071
(1713562097.036378) can0 12D#000000000000006A
(1713562097.036625) can0 290#0000000200000062
(1713562097.036863) can0 541#0440E800000090D7
(1713562097.037109) can0 120#000000000700004F
(1713562097.037357) can0 121#000000000000005F
(1713562097.037604) can0 129#000000010000005B
(1713562097.037851) can0 140#0000030000000000
(1713562097.041752) can0 400#6400000000000080
(1713562097.041984) can0 410#6480006E9E6E6E56
(1713562097.042233) can0 4EA#0000000000000000
(1713562097.042479) can0 5B2#0800000000000000
(1713562097.042722) can0 310#FFFFFFFF7D7D2100
(1713562097.044286) can0 174#F67F00593B790909
(1713562097.044513) can0 178#EA7F0F6D039309E6
(1713562097.044751) can0 17C#0A8001002769096E
(1713562097.046063) can0 551#000000000004C000
(1713562097.046304) can0 12F#F810022000000090
(1713562097.046538) can0 128#1388030000EC7842
(1713562097.046783) can0 12D#000000000000008B
(1713562097.047027) can0 12E#000000000000C044
(1713562097.047280) can0 290#0000000200000083
(1713562097.047521) can0 5D1#9958000200000000
(1713562097.051382) can0 550#48003C0001000038
(1713562097.051854) can0 400#64000000000000B5
(1713562097.052084) can0 410#6480006E9E6E6E63
(1713562097.052459) can0 540#000000108C03BE00
(1713562097.052700) can0 5B0#6342000000000028
(1713562097.054337) can0 174#F67F00594B790A66
(1713562097.054567) can0 178#E27F00620A930A84
(1713562097.054805) can0 17C#0E8001002C690AA0
(1713562097.056130) can0 541#0440E80000009036
(1713562097.056359) can0 12A#1428701C6058004C
(1713562097.056615) can0 12D#00000000000000BE
(1713562097.056849) can0 12F#F8100220000000A5
(1713562097.057095) can0 120#000000000700007A
(1713562097.057347) can0 121#000000000000006A
(1713562097.057595) can0 129#000000010000006E
(1713562097.057844) can0 290#00000002000000B6
(1713562097.058086) can0 552#00FFFFFFFFFFFF71
(1713562097.058335) can0 140#0000030000000000
