(1713559789.512121) can0 178#06800E470F930E86
(1713559789.511988) can0 17C#0280010021690EEA
(1713559789.512231) can0 551#000000000004C000
(1713559789.512466) can0 410#2880008B9F6E8B7E
(1713559789.512706) can0 5D1#9958000200000000
(1713559789.514278) can0 400#2880000000000094
(1713559789.519541) can0 12F#F810032000000043
(1713559789.519771) can0 128#1388030000EC7828
(1713559789.520018) can0 12D#000000000000005F
(1713559789.520262) can0 12E#000000000000C02E
(1713559789.520508) can0 290#0000000200000057
(1713559789.521410) can0 174#EC7F005D45790F99
(1713559789.521640) can0 178#12800F6D0A930F59
(1713559789.521878) can0 17C#FE7F010027690FE9
(1713559789.522122) can0 541#0440E800007FFF38
(1713559789.522363) can0 410#2880008B9F6E8B9F
(1713559789.524337) can0 400#28800000000000A1
(1713559789.525024) can0 540#000000104000A000
(1713559789.525265) can0 5B0#6342000000000096
(1713559789.527090) can0 5D0#9958010200000000
(1713559789.527332) can0 5B1#008A9A6800000028
(1713559789.527566) can0 5CF#7444540000000000
(1713559789.529356) can0 12F#F810032000000076
(1713559789.529600) can0 120#00000008070000D1
(1713559789.529844) can0 121#00000000000000D4
(1713559789.530086) can0 129#00000001000000D0
(1713559789.530332) can0 12D#000000000000006A
(1713559789.530581) can0 290#0000000200000062
(1713559789.531400) can0 174#EA7F005D50790060
(1713559789.531649) can0 140#0000030000000000
(1713559789.531885) can0 178#1280006207930073
(1713559789.532123) can0 17C#FC7F0100376900F0
(1713559789.532359) can0 410#2880008B9F6E8BAA
(1713559789.532606) can0 551#000000000004C000
(1713559789.532857) can0 552#00FFFFFFFFFFFF44
(1713559789.533105) can0 55A#0017160000000000
(1713559789.533351) can0 5D1#9958000200000000
(1713559789.533683) can0 5D2#7444540000000000
(1713559789.533932) can0 450#005620001B004A00
(1713559789.534370) can0 400#28800000000000CB
(1713559789.539583) can0 12F#F810032000000097
(1713559789.539815) can0 128#1388030000EC7842
(1713559789.540061) can0 12D#000000000000008B
(1713559789.540304) can0 12E#000000000000C044
(1713559789.540556) can0 290#0000000200000083
(1713559789.541427) can0 174#EC7F005D4579013F
(1713559789.541663) can0 178#0C8001480C9301CD
(1713559789.541903) can0 17C#FC7F01003F6901E1
(1713559789.542145) can0 541#0440E800007FFF52
(1713559789.542385) can0 410#2880008B9F6E8BC0
(1713559789.544458) can0 400#288000000000002A
(1713559789.544833) can0 6B9#0020400000000000
(1713559789.545076) can0 5A2#1410140000000000
(1713559789.549320) can0 12F#F8100320000000A2
(1713559789.549568) can0 12D#00000000000000BE
(1713559789.549814) can0 120#0000000807000030
(1713559789.550062) can0 121#0000000000000035
(1713559789.550307) can0 129#0000000100000031
(1713559789.550553) can0 290#00000002000000B6
(1713559789.550802) can0 4EA#0000000000000000
(1713559789.551048) can0 5B2#0800000000000000
(1713559789.551294) can0 310#FFFFFFFF7D7D0000
(1713559789.551530) can0 174#EC7F005D347902DF
(1713559789.551770) can0 178#088000001593027A
(1713559789.552010) can0 17C#FC7F01003B6902C0
(1713559789.552260) can0 140#0000030000000000
(1713559789.552496) can0 410#2880008B9F6E8B21
(1713559789.552742) can0 551#000000000004C000
(1713559789.552990) can0 5D1#9958000200000000
(1713559789.554475) can0 400#2880000000000040
(1713559789.559536) can0 12F#F8100320000000C8
(1713559789.559766) can0 128#1388030000EC7877
(1713559789.560000) can0 12A#1428701C60580026
(1713559789.560244) can0 12D#00000000000000D4
(1713559789.560492) can0 12E#000000000000C071
(1713559789.560740) can0 290#00000002000000DC
(1713559789.560982) can0 550#48000C00010000C2
(1713559789.561220) can0 5A0#0000006244928043
(1713559789.561459) can0 174#EA7F005D30790317
(1713559789.561698) can0 178#0A8000001C93035E
(1713559789.561941) can0 17C#008001003A690349
(1713559789.562185) can0 541#0440E800007FFF67
(1713559789.562423) can0 410#2880008B9F6E8B4B
(1713559789.564557) can0 400#2880000000000075
(1713559789.569351) can0 12F#F810032000000029
(1713559789.569596) can0 12D#0000000000000035
(1713559789.569840) can0 120#000000080700005A
(1713559789.570089) can0 121#000000000000005F
(1713559789.570333) can0 129#000000010000005B
(1713559789.570581) can0 290#000000020000003D
(1713559789.571423) can0 174#EA7F005D3A79044B
(1713559789.571655) can0 178#0E80000D1D9304A4
(1713559789.571895) can0 17C#068001003769044C
(1713559789.572142) can0 551#000000000004C000
(1713559789.572382) can0 410#2880008B9F6E8B7E
(1713559789.572622) can0 5D1#9958000200000000
(1713559789.572872) can0 140#0000030000000000
(1713559789.574558) can0 400#2880000000000094
(1713559789.579567) can0 12F#F810032000000043
(1713559789.579797) can0 128#1388030000EC7896
(1713559789.580046) can0 12D#000000000000005F
(1713559789.580292) can0 12E#000000000000C090
(1713559789.580538) can0 290#0000000200000057
(1713559789.581476) can0 174#EA7F005D45790598
(1713559789.581717) can0 178#0E8000001D9305F6
(1713559789.581954) can0 17C#108001002D69052C
(1713559789.582197) can0 541#0440E800007FFF86
(1713559789.582437) can0 410#2880008B9F6E8B9F
(1713559789.582681) can0 552#00FFFFFFFFFFFF71
(1713559789.582927) can0 450#005620001B004A00
(1713559789.584674) can0 400#28800000000000A1
(1713559789.589366) can0 12F#F810032000000076
(1713559789.589611) can0 12D#000000000000006A
(1713559789.589859) can0 120#000000080700006F
(1713559789.590112) can0 121#000000000000006A
(1713559789.590359) can0 129#000000010000006E
(1713559789.590608) can0 290#0000000200000062
(1713559789.591414) can0 174#E87F005D46790689
(1713559789.591648) can0 178#088001361F93066D
(1713559789.591890) can0 17C#168001002A690652
(1713559789.592164) can0 410#2880008B9F6E8BAA
(1713559789.592410) can0 551#000000000004C000
(1713559789.592660) can0 5D1#9958000200000000
(1713559789.593202) can0 140#0000030000000000
(1713559789.594655) can0 400#28800000000000CB
(1713559789.599549) can0 12F#F810032000000097
(1713559789.599781) can0 128#1388030000EC78A3
(1713559789.600027) can0 12D#000000000000008B
(1713559789.600271) can0 12E#000000000000C0A5
(1713559789.600522) can0 290#0000000200000083
(1713559789.601469) can0 174#E87F005D387907D5
(1713559789.601707) can0 178#FE7F0230259307F3
(1713559789.601947) can0 17C#16800100296907C3
(1713559789.602189) can0 541#0440E800007FFFB3
(1713559789.602429) can0 410#2880008B9F6E8BC0
(1713559789.604766) can0 400#288000000000002A
(1713559789.609314) can0 12F#F8100320000000A2
(1713559789.609546) can0 12A#1428701C6058004C
(1713559789.609793) can0 12D#00000000000000BE
(1713559789.610040) can0 120#000000080700008E
(1713559789.610284) can0 121#000000000000008B
(1713559789.610526) can0 129#000000010000008F
(1713559789.610772) can0 290#00000002000000B6
(1713559789.611014) can0 550#48000C0001000023
(1713559789.611421) can0 174#E87F005D2C790870
(1713559789.611655) can0 178#F87F03312593086C
(1713559789.611893) can0 17C#128001002169081D
(1713559789.612139) can0 551#000000000004C000
(1713559789.612375) can0 410#2880008B9F6E8B21
(1713559789.612615) can0 5D1#9958000200000000
(1713559789.613726) can0 140#0000030000000000
(1713559789.614756) can0 400#2880000000000040
(1713559789.619577) can0 12F#F8100320000000C8
(1713559789.619808) can0 128#1388030000EC78C9
(1713559789.620053) can0 12D#00000000000000D4
(1713559789.620296) can0 12E#000000000000C0CF
(1713559789.620545) can0 290#00000002000000DC
(1713559789.621473) can0 174#E87F005D2D7909E2
(1713559789.621705) can0 178#F47F04381C93096B
(1713559789.621944) can0 17C#1280010021690900
(1713559789.622187) can0 541#0440E800007FFFD9
(1713559789.622425) can0 410#2880008B9F6E8B4B
(1713559789.624861) can0 400#2880000000000075
(1713559789.625505) can0 540#0000001040009F00
(1713559789.625746) can0 5B0#63420000000000A3
(1713559789.627152) can0 5D0#9958010200000000
(1713559789.627391) can0 5B1#008A9A6800000042
(1713559789.627626) can0 5CF#7444540000000000
(1713559789.629360) can0 12F#F810032000000029
(1713559789.629606) can0 12D#0000000000000035
(1713559789.629854) can0 290#000000020000003D
(1713559789.630098) can0 120#00000008070000BB
(1713559789.630344) can0 121#00000000000000BE
(1713559789.630586) can0 129#00000001000000BA
(1713559789.631427) can0 174#EA7F005D38790AEE
(1713559789.631657) can0 178#EE7F053114930AFA
(1713559789.631893) can0 17C#0E80010031690A3D
(1713559789.632139) can0 551#000000000004C000
(1713559789.632379) can0 410#2880008B9F6E8B7E
(1713559789.632626) can0 552#00FFFFFFFFFFFF90
(1713559789.632871) can0 5D1#9958000200000000
(1713559789.633115) can0 5D2#7444540000000000
(1713559789.633359) can0 450#005620001B004A00
(1713559789.634249) can0 140#0000030000000000
(1713559789.634852) can0 400#2880000000000094
(1713559789.639632) can0 12F#F810032000000043
(1713559789.639866) can0 128#1388030000EC7828
(1713559789.640116) can0 12D#000000000000005F
(1713559789.640360) can0 12E#000000000000C02E
(1713559789.640607) can0 290#0000000200000057
(1713559789.641485) can0 174#EE7F005D3F790B10
(1713559789.641715) can0 178#EE7F063211930B6A
(1713559789.641955) can0 17C#0A8001003D690B43
(1713559789.642200) can0 541#0440E800007FFF38
(1713559789.642439) can0 410#2880008B9F6E8B9F
(1713559789.644957) can0 400#28800000000000A1
(1713559789.645197) can0 6B9#0020400000000000
(1713559789.645440) can0 5A2#1410140000000000
(1713559789.649318) can0 12F#F810032000000076
(1713559789.649563) can0 12D#000000000000006A
(1713559789.649811) can0 290#0000000200000062
(1713559789.650061) can0 4EA#0000000000000000
(1713559789.650305) can0 120#00000008070000D1
(1713559789.650549) can0 121#00000000000000D4
(1713559789.650791) can0 129#00000001000000D0
(1713559789.651037) can0 5B2#0800000000000000
(1713559789.651283) can0 310#FFFFFFFF7D7D0000
(1713559789.651513) can0 174#EC7F005D3A790C70
(1713559789.651743) can0 178#F67F073914930C97
(1713559789.651981) can0 17C#088001003B690CAF
(1713559789.652217) can0 410#2880008B9F6E8BAA
(1713559789.652463) can0 551#000000000004C000
(1713559789.652711) can0 5D1#9958000200000000
(1713559789.654772) can0 140#0000030000000000
(1713559789.655018) can0 400#28800000000000CB
(1713559789.659549) can0 12F#F810032000000097
(1713559789.659778) can0 128#1388030000EC7842
(1713559789.660011) can0 12A#1428701C60580079
(1713559789.660256) can0 12D#000000000000008B
(1713559789.660500) can0 12E#000000000000C044
(1713559789.660752) can0 290#0000000200000083
(1713559789.660997) can0 550#48000C0001000049
(1713559789.661234) can0 5A0#0000006244928076
(1713559789.661486) can0 174#E87F005D3A790D04
(1713559789.661720) can0 178#0080082D17930D62
(1713559789.661957) can0 17C#0C80010034690D5D
(1713559789.662199) can0 541#0440E800007FFF52
(1713559789.662439) can0 410#2880008B9F6E8BC0
(1713559789.665047) can0 400#288000000000002A
(1713559789.669350) can0 12F#F8100320000000A2
(1713559789.669597) can0 12D#00000000000000BE
(1713559789.669843) can0 290#00000002000000B6
(1713559789.670137) can0 120#0000000807000030
(1713559789.670386) can0 121#0000000000000035
(1713559789.670630) can0 129#0000000100000031
(1713559789.671441) can0 174#EA7F005D45790E57
(1713559789.671672) can0 178#0A80093012930EA4
(1713559789.671910) can0 17C#128001002F690E5A
(1713559789.672156) can0 551#000000000004C000
(1713559789.672393) can0 410#2880008B9F6E8B21
(1713559789.672633) can0 5D1#9958000200000000
(1713559789.675051) can0 400#2880000000000040
(1713559789.675304) can0 140#0000030000000000
(1713559789.679562) can0 12F#F8100320000000C8
(1713559789.679792) can0 128#1388030000EC7877
(1713559789.680036) can0 12D#00000000000000D4
(1713559789.680283) can0 12E#000000000000C071
(1713559789.680531) can0 290#00000002000000DC
(1713559789.681492) can0 174#F27F005D4B790F28
(1713559789.681722) can0 178#0E800A3212930F49
(1713559789.681962) can0 17C#1480010027690F98
(1713559789.682206) can0 541#0440E800007FFF67
(1713559789.682444) can0 410#2880008B9F6E8B4B
(1713559789.682688) can0 552#00FFFFFFFFFFFFA5
(1713559789.682932) can0 450#005620001B004A00
(1713559789.685143) can0 400#2880000000000075
(1713559789.689361) can0 12F#F810032000000029
(1713559789.689607) can0 12D#0000000000000035
(1713559789.689855) can0 290#000000020000003D
(1713559789.690231) can0 120#000000080700005A
(1713559789.690479) can0 121#000000000000005F
(1713559789.690723) can0 129#000000010000005B
(1713559789.691450) can0 174#F67F005D457900F3
(1713559789.691681) can0 178#0C800B36179300E5
(1713559789.691923) can0 17C#108001001C6900E2
(1713559789.692170) can0 551#000000000004C000
(1713559789.692410) can0 410#2880008B9F6E8B7E
(1713559789.692650) can0 5D1#9958000200000000
(1713559789.695147) can0 400#2880000000000094
(1713559789.695820) can0 140#0000030000000000
(1713559789.699553) can0 12F#F810032000000043
(1713559789.699783) can0 128#1388030000EC7896
(1713559789.700032) can0 12D#000000000000005F
(1713559789.700278) can0 12E#000000000000C090
(1713559789.700525) can0 290#0000000200000057
(1713559789.701507) can0 174#F87F005D3B7901AE
(1713559789.701743) can0 178#06800C30179301F2
(1713559789.701984) can0 17C#0C800100166901F2
(1713559789.702224) can0 410#2880008B9F6E8B9F
(1713559789.702466) can0 541#0440E800007FFF86
(1713559789.705249) can0 400#28800000000000A1
(1713559789.709321) can0 12F#F810032000000076
(1713559789.709553) can0 12A#1428701C60580098
(1713559789.709798) can0 12D#000000000000006A
(1713559789.710046) can0 290#0000000200000062
(1713559789.710290) can0 550#48000C000100007C
(1713559789.710538) can0 120#000000080700006F
(1713559789.710790) can0 121#000000000000006A
(1713559789.711039) can0 129#000000010000006E
(1713559789.711460) can0 174#FA7F005D3579023A
(1713559789.711698) can0 178#00800000159302A8
(1713559789.711939) can0 17C#0C8001001F690256
(1713559789.712175) can0 410#2880008B9F6E8BAA
(1713559789.712421) can0 551#000000000004C000
(1713559789.712669) can0 5D1#9958000200000000
(1713559789.715245) can0 400#28800000000000CB
(1713559789.716346) can0 140#0000030000000000
(1713559789.719572) can0 12F#F810032000000097
(1713559789.719804) can0 128#1388030000EC78A3
(1713559789.720050) can0 12D#000000000000008B
(1713559789.720295) can0 12E#000000000000C0A5
(1713559789.720547) can0 290#0000000200000083
(1713559789.721517) can0 174#F87F005D30790314
(1713559789.721751) can0 178#FE7F01301493039E
(1713559789.721989) can0 17C#0880010034690392
(1713559789.722229) can0 410#2880008B9F6E8BC0
(1713559789.722472) can0 541#0440E800007FFFB3
(1713559789.725343) can0 400#288000000000002A
(1713559789.725997) can0 540#000000104000A000
(1713559789.726231) can0 5B0#63420000000000C9
(1713559789.727177) can0 5D0#9958010200000000
(1713559789.727415) can0 5B1#008A9A6800000077
(1713559789.727651) can0 5CF#7444540000000000
(1713559789.729356) can0 12F#F8100320000000A2
(1713559789.729605) can0 12D#00000000000000BE
(1713559789.729850) can0 290#00000002000000B6
(1713559789.730428) can0 120#000000080700008E
(1713559789.730673) can0 121#000000000000008B
(1713559789.730915) can0 129#000000010000008F
(1713559789.731464) can0 174#F27F005D357904A6
(1713559789.731697) can0 178#FA7F023212930438
(1713559789.731937) can0 17C#0480010040690434
(1713559789.732173) can0 410#2880008B9F6E8B21
(1713559789.732419) can0 551#000000000004C000
(1713559789.732675) can0 552#00FFFFFFFFFFFFCF
(1713559789.732921) can0 5D1#9958000200000000
(1713559789.733165) can0 5D2#7444540000000000
(1713559789.733409) can0 450#005620001B004A00
(1713559789.735345) can0 400#2880000000000040
(1713559789.736922) can0 140#0000030000000000
(1713559789.739596) can0 12F#F8100320000000C8
(1713559789.739828) can0 128#1388030000EC78C9
(1713559789.740072) can0 12D#00000000000000D4
(1713559789.740316) can0 12E#000000000000C0CF
(1713559789.740564) can0 290#00000002000000DC
(1713559789.741514) can0 174#EE7F005D3B7905B0
(1713559789.741752) can0 178#F87F0336129305BB
(1713559789.741993) can0 17C#00800100436905CC
(1713559789.742231) can0 410#2880008B9F6E8B4B
(1713559789.742473) can0 541#0440E800007FFFD9
(1713559789.745210) can0 6B9#0020400000000000
(1713559789.745459) can0 5A2#1410140000000000
(1713559789.745699) can0 400#2880000000000075
(1713559789.749322) can0 12F#F810032000000029
(1713559789.749568) can0 12D#0000000000000035
(1713559789.749815) can0 290#000000020000003D
(1713559789.750065) can0 4EA#0000000000000000
(1713559789.750310) can0 5B2#0800000000000000
(1713559789.750556) can0 310#FFFFFFFF7D7D0000
(1713559789.750800) can0 120#00000008070000BB
(1713559789.751047) can0 121#00000000000000BE
(1713559789.751289) can0 129#00000001000000BA
(1713559789.751521) can0 174#EA7F005D3D7906FB
(1713559789.751753) can0 178#FA7F04351593061D
(1713559789.751993) can0 17C#FE7F0100406906C6
(1713559789.752233) can0 410#2880008B9F6E8B7E
(1713559789.752480) can0 551#000000000004C000
(1713559789.752728) can0 5D1#9958000200000000
(1713559789.755438) can0 400#2880000000000094
(1713559789.757446) can0 140#0000030000000000
(1713559789.759546) can0 12F#F810032000000043
(1713559789.759781) can0 128#1388030000EC7828
(1713559789.760015) can0 12A#1428701C605800AD
(1713559789.760264) can0 12D#000000000000005F
(1713559789.760509) can0 12E#000000000000C02E
(1713559789.760755) can0 290#0000000200000057
(1713559789.760997) can0 550#48000C000100009D
(1713559789.761233) can0 5A0#0000006244928097
(1713559789.761525) can0 174#EA7F005D3879076F
(1713559789.761763) can0 178#FE7F05301A930756
(1713559789.762007) can0 17C#FA7F01003D69077F
(1713559789.762247) can0 410#2880008B9F6E8B9F
(1713559789.762491) can0 541#0440E800007FFF38
(1713559789.765532) can0 400#28800000000000A1
(1713559789.769410) can0 12F#F810032000000076
(1713559789.769602) can0 12D#000000000000006A
(1713559789.769850) can0 290#0000000200000062
(1713559789.770622) can0 120#00000008070000D1
(1713559789.770866) can0 121#00000000000000D4
(1713559789.771109) can0 129#00000001000000D0
(1713559789.771473) can0 174#EA7F005D37790852
(1713559789.771707) can0 178#008006311A93086F
(1713559789.771945) can0 17C#F87F010037690871
(1713559789.772181) can0 410#2880008B9F6E8BAA
(1713559789.772427) can0 551#000000000004C000
(1713559789.772677) can0 5D1#9958000200000000
(1713559789.775535) can0 400#28800000000000CB
(1713559789.777970) can0 140#0000030000000000
(1713559789.779554) can0 12F#F810032000000097
(1713559789.779784) can0 128#1388030000EC7842
(1713559789.780030) can0 12D#000000000000008B
(1713559789.780274) can0 12E#000000000000C044
(1713559789.780526) can0 290#0000000200000083
(1713559789.781526) can0 174#EA7F005D3779094F
(1713559789.781757) can0 178#FA7F0731149309D9
(1713559789.781995) can0 17C#FE7F010034690933
(1713559789.782234) can0 410#2880008B9F6E8BC0
(1713559789.784275) can0 541#0440E800007FFF52
(1713559789.784529) can0 552#00FFFFFFFFFFFF2E
(1713559789.784773) can0 450#005620001B004A00
(1713559789.785643) can0 400#288000000000002A
(1713559789.789417) can0 12F#F8100320000000A2
(1713559789.789610) can0 12D#00000000000000BE
(1713559789.789857) can0 290#00000002000000B6
(1713559789.790727) can0 120#0000000807000030
(1713559789.790975) can0 121#0000000000000035
(1713559789.791219) can0 129#0000000100000031
(1713559789.791478) can0 174#EA7F005D34790AE4
(1713559789.791711) can0 178#F67F083111930AB0
(1713559789.791947) can0 17C#0A80010031690A54
(1713559789.792183) can0 410#2880008B9F6E8B21
(1713559789.792430) can0 551#000000000004C000
(1713559789.792678) can0 5D1#9958000200000000
(1713559789.795633) can0 400#2880000000000040
(1713559789.798493) can0 140#0000030000000000
(1713559789.799542) can0 12F#F8100320000000C8
(1713559789.799773) can0 128#1388030000EC7877
(1713559789.800017) can0 12D#00000000000000D4
(1713559789.800265) can0 12E#000000000000C071
(1713559789.800514) can0 290#00000002000000DC
(1713559789.801540) can0 174#EA7F005D30790BFF
(1713559789.801772) can0 178#FC7F093012930BBE
(1713559789.802010) can0 17C#108001002C690B05
(1713559789.802248) can0 410#2880008B9F6E8B4B
(1713559789.802492) can0 541#0440E800007FFF67
(1713559789.805724) can0 400#2880000000000075
(1713559789.809373) can0 12F#F810032000000029
(1713559789.809605) can0 12A#1428701C605800C7
(1713559789.809800) can0 12D#0000000000000035
(1713559789.810048) can0 290#000000020000003D
(1713559789.810292) can0 550#48000C00010000A8
(1713559789.810848) can0 120#000000080700005A
(1713559789.811096) can0 121#000000000000005F
(1713559789.811356) can0 129#000000010000005B
(1713559789.811571) can0 174#EA7F005D2D790C31
(1713559789.811803) can0 178#06800A3817930C8E
(1713559789.812041) can0 17C#0E80010029690C67
(1713559789.812281) can0 410#2880008B9F6E8B7E
(1713559789.812528) can0 551#000000000004C000
(1713559789.812778) can0 5D1#9958000200000000
(1713559789.815731) can0 400#2880000000000094
(1713559789.819018) can0 140#0000030000000000
(1713559789.819615) can0 12F#F810032000000043
(1713559789.819847) can0 128#1388030000EC7896
(1713559789.820097) can0 12D#000000000000005F
(1713559789.820343) can0 12E#000000000000C090
(1713559789.820588) can0 290#0000000200000057
(1713559789.821505) can0 410#2880008B9F6E8B9F
(1713559789.821735) can0 174#EA7F005D2D790D2C
(1713559789.821971) can0 178#0E80000018930D97
(1713559789.822207) can0 17C#0680010026690D2E
(1713559789.822450) can0 541#0440E800007FFF86
(1713559789.825821) can0 400#28800000000000A1
(1713559789.826475) can0 540#0000001040009F00
(1713559789.826716) can0 5B0#6342000000000028
(1713559789.827184) can0 5D0#9958010200000000
(1713559789.827423) can0 5B1#008A9A6800000096
(1713559789.827658) can0 5CF#7444540000000000
(1713559789.829418) can0 12F#F810032000000076
(1713559789.829665) can0 12D#000000000000006A
(1713559789.829862) can0 290#0000000200000062
(1713559789.830929) can0 120#000000080700006F
(1713559789.831181) can0 121#000000000000006A
(1713559789.831430) can0 129#000000010000006E
(1713559789.831659) can0 174#E67F005D32790E2E
(1713559789.831893) can0 178#108001301A930E0E
(1713559789.832129) can0 17C#FE7F010027690EF4
(1713559789.832365) can0 410#2880008B9F6E8BAA
(1713559789.832611) can0 551#000000000004C000
(1713559789.832864) can0 552#00FFFFFFFFFFFF44
(1713559789.833109) can0 5D1#9958000200000000
(1713559789.833354) can0 5D2#7444540000000000
(1713559789.833672) can0 450#005620001B004A00
(1713559789.835825) can0 400#28800000000000CB
(1713559789.839543) can0 140#0000030000000000
(1713559789.839776) can0 128#1388030000EC78A3
(1713559789.840023) can0 12D#000000000000008B
(1713559789.840266) can0 12E#000000000000C0A5
(1713559789.840509) can0 12F#F810032000000097
(1713559789.840760) can0 290#0000000200000083
(1713559789.841451) can0 410#2880008B9F6E8BC0
(1713559789.841683) can0 174#E27F005D3B790FD9
(1713559789.841925) can0 178#108000001F930F9F
(1713559789.842163) can0 17C#0080010027690F48
(1713559789.842405) can0 541#0440E800007FFFB3
(1713559789.845390) can0 6B9#0020400000000000
(1713559789.845632) can0 5A2#1410140000000000
(1713559789.845919) can0 400#288000000000002A
(1713559789.849376) can0 12F#F8100320000000A2
(1713559789.849616) can0 12D#00000000000000BE
(1713559789.849860) can0 290#00000002000000B6
(1713559789.850109) can0 4EA#0000000000000000
(1713559789.850354) can0 5B2#0800000000000000
(1713559789.850601) can0 310#FFFFFFFF7D7D0000
(1713559789.851073) can0 120#000000080700008E
(1713559789.851317) can0 121#000000000000008B
(1713559789.851560) can0 129#000000010000008F
(1713559789.851792) can0 174#E27F005D43790026
(1713559789.852025) can0 178#0E8001531D9300FE
(1713559789.852266) can0 17C#0880010029690028
(1713559789.852501) can0 410#2880008B9F6E8B21
(1713559789.852747) can0 551#000000000004C000
(1713559789.852996) can0 5D1#9958000200000000
(1713559789.855927) can0 400#2880000000000040
(1713559789.859515) can0 12F#F8100320000000C8
(1713559789.859750) can0 128#1388030000EC78C9
(1713559789.859984) can0 12A#1428701C60580026
(1713559789.860228) can0 12D#00000000000000D4
(1713559789.860472) can0 12E#000000000000C0CF
(1713559789.860722) can0 140#0000030000000000
(1713559789.861016) can0 290#00000002000000DC
(1713559789.861263) can0 550#48000C00010000C2
(1713559789.861500) can0 410#2880008B9F6E8B4B
(1713559789.861730) can0 174#E87F005D45790156
(1713559789.861965) can0 178#0C8002431893014B
(1713559789.862205) can0 17C#0A8001002C690106
(1713559789.862451) can0 541#0440E800007FFFD9
(1713559789.862689) can0 5A0#00000062449280A2
(1713559789.866019) can0 400#2880000000000075
(1713559789.869401) can0 12F#F810032000000029
(1713559789.869650) can0 12D#0000000000000035
(1713559789.869891) can0 290#000000020000003D
(1713559789.871171) can0 120#00000008070000BB
(1713559789.871429) can0 121#00000000000000BE
(1713559789.871655) can0 129#00000001000000BA
(1713559789.871890) can0 174#F07F005D4879029F
(1713559789.872138) can0 178#0A800332189302B3
(1713559789.872367) can0 17C#068001002F690216
(1713559789.872609) can0 410#2880008B9F6E8B7E
(1713559789.872853) can0 551#000000000004C000
(1713559789.873103) can0 5D1#9958000200000000
(1713559789.876021) can0 400#2880000000000094
(1713559789.879492) can0 12F#F810032000000043
(1713559789.879730) can0 128#1388030000EC7828
(1713559789.879980) can0 12D#000000000000005F
(1713559789.880224) can0 12E#000000000000C02E
(1713559789.880470) can0 290#001000020000005C
(1713559789.880720) can0 140#0000030000000000
(1713559789.881343) can0 410#2880008B9F6E8B9F
(1713559789.881580) can0 174#F27F005D5079032C
(1713559789.881819) can0 178#068004301C93033F
(1713559789.882057) can0 17C#04800100356903A6
(1713559789.882301) can0 541#0440E800007FFF38
(1713559789.882560) can0 552#00FFFFFFFFFFFF71
(1713559789.882802) can0 450#005620001B004A00
(1713559789.886114) can0 400#28800000000000A1
(1713559789.889413) can0 12F#F810032000000076
(1713559789.889657) can0 12D#000000000000006A
(1713559789.889908) can0 290#0010000200000069
(1713559789.891273) can0 120#00000008070000D1
(1713559789.891516) can0 121#00000000000000D4
(1713559789.891758) can0 129#00000001000000D0
(1713559789.891988) can0 174#F27F005D5679047A
(1713559789.892222) can0 178#FE7F053022930455
(1713559789.892463) can0 17C#04800100376904F6
(1713559789.892698) can0 410#2880008B9F6E8BAA
(1713559789.892945) can0 551#000000000004C000
(1713559789.893192) can0 5D1#9958000200000000
(1713559789.896118) can0 400#28800000000000CB
(1713559789.899537) can0 12F#F82003200000008A
(1713559789.899771) can0 128#1388030000EC7842
(1713559789.900017) can0 12D#000000000000008B
(1713559789.900262) can0 12E#000000000000C044
(1713559789.900513) can0 290#0000000200000083
(1713559789.901065) can0 140#0000030000000000
(1713559789.901306) can0 410#2880008B9F6E8BC0
(1713559789.901591) can0 174#EE7F005D5B7905E0
(1713559789.901829) can0 178#FA7F06322B93053B
(1713559789.902066) can0 17C#048001003A69056E
(1713559789.902308) can0 541#0440E800007FFF52
(1713559789.906214) can0 400#288000000000002A
(1713559789.909368) can0 12F#F8100320000000A2
(1713559789.909598) can0 12A#1428701C6058004C
(1713559789.909845) can0 12D#00000000000000BE
(1713559789.910092) can0 290#00000002000000B6
(1713559789.910342) can0 550#48000C0001000023
(1713559789.911294) can0 410#2880008B9F6E8B21
(1713559789.911532) can0 120#0000000807000030
(1713559789.911775) can0 121#0000000000000035
(1713559789.912019) can0 129#0000000100000031
(1713559789.912253) can0 174#EC7F005D5979067E
(1713559789.912484) can0 178#F67F07373593060F
(1713559789.912722) can0 17C#02800100406906DD
(1713559789.912983) can0 551#000000000004C000
(1713559789.913223) can0 5D1#9958000200000000
(1713559789.916218) can0 400#2880000000000040
(1713559789.917961) can0 6AB#ACC2A57596A3C162
(1713559789.919516) can0 12F#F8100320000000C8
(1713559789.919749) can0 128#1388030000EC7877
(1713559789.919993) can0 12D#00000000000000D4
(1713559789.920241) can0 12E#000000000000C071
(1713559789.920490) can0 290#00000002000000DC
(1713559789.921211) can0 410#2880008B9F6E8B4B
(1713559789.921527) can0 174#EE7F005D5679075F
(1713559789.921824) can0 140#0000030000000000
(1713559789.922055) can0 178#F47F085F38930713
(1713559789.922290) can0 17C#0280010045690749
(1713559789.922534) can0 541#0440E800007FFF67
(1713559789.926305) can0 400#2880000000000075
(1713559789.926987) can0 540#000000104000A000
(1713559789.927229) can0 5B0#6342000000000042
(1713559789.927467) can0 5B1#008A9A68000000A3
(1713559789.927707) can0 5D0#9958010200000000
(1713559789.927946) can0 5CF#7444540000000000
(1713559789.929403) can0 12F#F810032000000029
(1713559789.929649) can0 12D#0000000000000035
(1713559789.929897) can0 290#000000020000003D
(1713559789.931240) can0 410#2880008B9F6E8B7E
(1713559789.931487) can0 120#000000080700005A
(1713559789.931730) can0 121#000000000000005F
(1713559789.931974) can0 129#000000010000005B
(1713559789.932204) can0 174#F27F005D5579086A
(1713559789.932432) can0 178#F47F09302E930869
(1713559789.932669) can0 17C#0080010045690848
(1713559789.932915) can0 551#000000000004C000
(1713559789.933168) can0 552#00FFFFFFFFFFFF90
(1713559789.933415) can0 5D1#9958000200000000
(1713559789.933715) can0 5D2#7444540000000000
(1713559789.933962) can0 450#005620001B004A00
(1713559789.936305) can0 400#2880000000000094
(1713559789.939544) can0 12F#F810032000000043
(1713559789.939777) can0 128#1388030000EC7896
(1713559789.940027) can0 12D#000000000000005F
(1713559789.940273) can0 12E#000000000000C090
(1713559789.940520) can0 290#0000000200000057
(1713559789.941157) can0 410#2880008B9F6E8B9F
(1713559789.941528) can0 174#F27F005D51790971
(1713559789.941757) can0 178#F47F0A371F930999
(1713559789.941993) can0 17C#FE7F010046690978
(1713559789.942243) can0 140#0000030000000000
(1713559789.942485) can0 541#0440E800007FFF86
(1713559789.945599) can0 6B9#0020400000000000
(1713559789.945840) can0 5A2#1410140000000000
(1713559789.946398) can0 400#28800000000000A1
(1713559789.949317) can0 4EA#0000000000000000
(1713559789.949560) can0 12D#000000000000006A
(1713559789.949805) can0 12F#F810032000000076
(1713559789.950052) can0 290#0000000200000062
(1713559789.950298) can0 5B2#0800000000000000
(1713559789.950544) can0 310#FFFFFFFF7D7D0000
(1713559789.951176) can0 410#2880008B9F6E8BAA
(1713559789.951573) can0 120#000000080700006F
(1713559789.951817) can0 121#000000000000006A
(1713559789.952064) can0 129#000000010000006E
(1713559789.952294) can0 174#F47F005D46790A17
(1713559789.952522) can0 178#F07F0B3114930A54
(1713559789.952756) can0 17C#FE7F010048690A56
(1713559789.953002) can0 551#000000000004C000
(1713559789.953255) can0 5D1#9958000200000000
(1713559789.956400) can0 400#28800000000000CB
(1713559789.959489) can0 12F#F810032000000097
(1713559789.959724) can0 128#1388030000EC78A3
(1713559789.959955) can0 12A#1428701C60580079
(1713559789.960202) can0 12D#000000000000008B
(1713559789.960445) can0 12E#000000000000C0A5
(1713559789.960698) can0 290#0000000200000083
(1713559789.960943) can0 550#48000C0001000049
(1713559789.961182) can0 410#2880008B9F6E8BC0
(1713559789.961418) can0 5A0#00000062449280C8
(1713559789.961647) can0 174#F47F005D37790BCD
(1713559789.961881) can0 178#EC7F000011930BF9
(1713559789.962115) can0 17C#FE7F01004A690B48
(1713559789.962357) can0 541#0440E800007FFFB3
(1713559789.962645) can0 140#0000030000000000
(1713559789.966508) can0 400#288000000000002A
(1713559789.969412) can0 12F#F8100320000000A2
(1713559789.969650) can0 12D#00000000000000BE
(1713559789.969896) can0 290#00000002000000B6
(1713559789.971112) can0 410#2880008B9F6E8B21
(1713559789.971591) can0 174#F47F005D2D790C89
(1713559789.971843) can0 120#000000080700008E
(1713559789.972082) can0 121#000000000000008B
(1713559789.972322) can0 129#000000010000008F
(1713559789.972550) can0 178#EC7F013712930CD7
(1713559789.972784) can0 17C#FE7F01004B690C94
(1713559789.973030) can0 551#000000000004C000
(1713559789.973281) can0 5D1#9958000200000000
(1713559789.976503) can0 400#2880000000000040
(1713559789.979495) can0 12F#F8200320000000D5
(1713559789.979730) can0 128#1388030000EC78C9
(1713559789.979974) can0 12D#00000000000000D4
(1713559789.980218) can0 12E#000000000000C0CF
(1713559789.980466) can0 290#00000002000000DC
(1713559789.981116) can0 410#2880008B9F6E8B4B
(1713559789.981544) can0 174#F27F005D29790D41
(1713559789.981777) can0 178#E87F022E0C930D28
(1713559789.982015) can0 17C#008001004E690DA1
(1713559789.982257) can0 541#0440E800007FFFD9
(1713559789.982511) can0 552#00FFFFFFFFFFFFA5
(1713559789.982757) can0 450#005620001B004A00
(1713559789.983165) can0 140#0000030000000000
(1713559789.986604) can0 400#2880000000000075
(1713559789.989417) can0 12F#F810032000000029
(1713559789.989661) can0 12D#0000000000000035
(1713559789.989908) can0 290#000000020000003D
(1713559789.991116) can0 410#2880008B9F6E8B7E
(1713559789.991599) can0 174#F27F005D29790E66
(1713559789.991840) can0 120#00000008070000BB
(1713559789.992094) can0 121#00000000000000BE
(1713559789.992331) can0 129#00000001000000BA
(1713559789.992559) can0 178#E87F033101930EAD
(1713559789.992793) can0 17C#0480010051690E71
(1713559789.993039) can0 551#000000000004C000
(1713559789.993287) can0 5D1#9958000200000000
(1713559789.996595) can0 400#2880000000000094
(1713559789.999492) can0 12F#F810032000000043
(1713559789.999729) can0 128#1388030000EC7828
(1713559789.999979) can0 12D#000000000000005F
(1713559790.000224) can0 12E#000000000000C02E
(1713559790.000470) can0 290#0000000200000057
(1713559790.001121) can0 410#2880008B9F6E8B9F
(1713559790.001561) can0 174#F07F005D25790FCB
(1713559790.001792) can0 178#EC7F0430FE920F0D
(1713559790.002032) can0 17C#0480010046690FFE
(1713559790.002273) can0 541#0440E800007FFF38
(1713559790.003749) can0 140#0000030000000000
(1713559790.006702) can0 400#28800000000000A1
(1713559790.009374) can0 12F#F810032000000076
(1713559790.009612) can0 12A#1428701C60580098
(1713559790.009851) can0 12D#000000000000006A
(1713559790.010098) can0 290#0000000200000062
(1713559790.010346) can0 550#48000C000100007C
(1713559790.011113) can0 410#2880008B9F6E8BAA
(1713559790.011610) can0 174#F07F005D21790076
(1713559790.011847) can0 178#F07F00000393002F
(1713559790.012091) can0 120#00000008070000D1
(1713559790.012345) can0 121#00000000000000D4
(1713559790.012581) can0 129#00000001000000D0
(1713559790.012820) can0 17C#008001002C690073
(1713559790.013066) can0 551#000000000004C000
(1713559790.013314) can0 5D1#9958000200000000
(1713559790.016694) can0 400#28800000000000CB
(1713559790.019522) can0 12F#F810032000000097
(1713559790.019756) can0 128#1388030000EC7842
(1713559790.020002) can0 12D#000000000000008B
(1713559790.020246) can0 12E#000000000000C044
(1713559790.020498) can0 290#0000000200000083
(1713559790.021118) can0 410#2880008B9F6E8BC0
(1713559790.021560) can0 174#F07F005D1E7901C5
(1713559790.021793) can0 178#F27F013806930198
(1713559790.022031) can0 17C#FE7F0100166901E8
(1713559790.022273) can0 541#0440E800007FFF52
(1713559790.024273) can0 140#0000030000000000
(1713559790.026800) can0 400#288000000000002A
(1713559790.027207) can0 5D0#9958010200000000
(1713559790.027439) can0 5B1#008A9A68000000C9
(1713559790.027688) can0 540#000000104000A000
(1713559790.027928) can0 5B0#6342000000000077
(1713559790.028166) can0 5CF#7444540000000000
(1713559790.029403) can0 12F#F8100320000000A2
(1713559790.029651) can0 12D#00000000000000BE
(1713559790.029897) can0 290#00000002000000B6
(1713559790.031110) can0 410#2880008B9F6E8B21
(1713559790.031613) can0 174#EE7F005D1E79025A
(1713559790.031845) can0 178#F07F02320193028A
(1713559790.032091) can0 120#0000000807000030
(1713559790.032339) can0 121#0000000000000035
(1713559790.032591) can0 129#0000000100000031
(1713559790.032824) can0 17C#028001001B690251
(1713559790.033068) can0 551#000000000004C000
(1713559790.033323) can0 552#00FFFFFFFFFFFFCF
(1713559790.033570) can0 5D1#9958000200000000
(1713559790.033818) can0 5D2#7444540000000000
(1713559790.034066) can0 450#005620001B004A00
(1713559790.036790) can0 400#2880000000000040
(1713559790.039534) can0 12F#F8100320000000C8
(1713559790.039768) can0 128#1388030000EC7877
(1713559790.040012) can0 12D#00000000000000D4
(1713559790.040260) can0 12E#000000000000C071
(1713559790.040508) can0 290#00000002000000DC
(1713559790.041116) can0 410#2880008B9F6E8B4B
(1713559790.041564) can0 174#EA7F005D2279030C
(1713559790.041798) can0 178#EE7F033201930345
(1713559790.042038) can0 17C#0080010032690345
(1713559790.042282) can0 541#0440E800007FFF67
(1713559790.044742) can0 140#0000030000000000
(1713559790.045715) can0 6B9#0020400000000000
(1713559790.045959) can0 5A2#1410140000000000
(1713559790.046894) can0 400#2880000000000075
(1713559790.049115) can0 4EA#0000000000000000
(1713559790.049359) can0 5B2#0800000000000000
(1713559790.049605) can0 12D#0000000000000035
(1713559790.049847) can0 12F#F810032000000029
(1713559790.050096) can0 290#000000020000003D
(1713559790.050341) can0 310#FFFFFFFF7D7D0000
(1713559790.051115) can0 410#2880008B9F6E8B7E
(1713559790.051622) can0 174#E67F005D2A7904E8
(1713559790.051853) can0 178#F07F04350993045D
(1713559790.052097) can0 120#000000080700005A
(1713559790.052346) can0 121#000000000000005F
(1713559790.052589) can0 129#000000010000005B
(1713559790.052826) can0 17C#FE7F0100486904F0
(1713559790.053072) can0 551#000000000004C000
(1713559790.053320) can0 5D1#9958000200000000
(1713559790.055996) can0 6E2#0544000000000000
(1713559790.056938) can0 400#2880000000000094
(1713559790.059555) can0 12F#F82003200000005E
(1713559790.059786) can0 128#1388030000EC7896
(1713559790.059970) can0 12A#1428701C605800AD
(1713559790.060221) can0 12D#000000000000005F
(1713559790.060466) can0 12E#000000000000C090
(1713559790.060712) can0 290#0000000200000057
(1713559790.060955) can0 550#48000C000100009D
(1713559790.061194) can0 410#2880008B9F6E8B9F
(1713559790.061433) can0 5A0#0000006244928029
(1713559790.061665) can0 174#E67F005D347905E4
(1713559790.061899) can0 178#F67F00001193058E
(1713559790.062137) can0 17C#FE7F01004A6905EE
(1713559790.062379) can0 541#0440E800007FFF86
(1713559790.065264) can0 140#0000030000000000
(1713559790.066941) can0 400#28800000000000A1
(1713559790.069404) can0 12F#F810032000000076
(1713559790.069649) can0 12D#000000000000006A
(1713559790.069897) can0 290#0000000200000062
(1713559790.071110) can0 410#2880008B9F6E8BAA
(1713559790.071629) can0 174#E87F005D3A7906CB
(1713559790.071863) can0 178#FC7F013218930660
(1713559790.072105) can0 17C#FE7F010035690607
(1713559790.072353) can0 120#000000080700006F
(1713559790.072605) can0 121#000000000000006A
(1713559790.072854) can0 129#000000010000006E
(1713559790.073100) can0 551#000000000004C000
(1713559790.073350) can0 5D1#9958000200000000
(1713559790.077042) can0 400#28800000000000CB
(1713559790.079542) can0 12F#F810032000000097
(1713559790.079776) can0 128#1388030000EC78A3
(1713559790.080022) can0 12D#000000000000008B
(1713559790.080266) can0 12E#000000000000C0A5
(1713559790.080518) can0 290#0000000200000083
(1713559790.081062) can0 410#2880008B9F6E8BC0
(1713559790.081578) can0 174#EC7F005D3B790730
(1713559790.081818) can0 178#FC7F0230209307C0
(1713559790.082062) can0 17C#FE7F010022690788
(1713559790.082304) can0 541#0440E800007FFFB3
(1713559790.082560) can0 552#00FFFFFFFFFFFF2E
(1713559790.082806) can0 450#005620001B004A00
(1713559790.085787) can0 140#0000030000000000
(1713559790.087039) can0 400#288000000000002A
(1713559790.089424) can0 12F#F8100320000000A2
(1713559790.089668) can0 12D#00000000000000BE
(1713559790.089920) can0 290#00000002000000B6
(1713559790.091082) can0 410#2880008B9F6E8B21
(1713559790.091634) can0 174#EC7F005D38790807
(1713559790.091863) can0 178#FC7F03321F930898
(1713559790.092101) can0 17C#FE7F010022690833
(1713559790.092347) can0 120#000000080700008E
(1713559790.092592) can0 121#000000000000008B
(1713559790.092834) can0 129#000000010000008F
(1713559790.093080) can0 551#000000000004C000
(1713559790.093328) can0 5D1#9958000200000000
(1713559790.097134) can0 400#2880000000000040
(1713559790.099546) can0 12F#F8100320000000C8
(1713559790.099777) can0 128#1388030000EC78C9
(1713559790.100021) can0 12D#00000000000000D4
(1713559790.100264) can0 12E#000000000000C0CF
(1713559790.100512) can0 290#00000002000000DC
(1713559790.101056) can0 410#2880008B9F6E8B4B
(1713559790.101585) can0 174#E87F005D38790973
(1713559790.101814) can0 178#FA7F04331893094A
(1713559790.102050) can0 17C#02800100296909B5
(1713559790.102293) can0 541#0440E800007FFFD9
(1713559790.106308) can0 140#0000030000000000
(1713559790.107135) can0 400#2880000000000075
(1713559790.109372) can0 12F#F810032000000029
(1713559790.109604) can0 12A#1428701C605800C7
(1713559790.109850) can0 12D#0000000000000035
(1713559790.110100) can0 290#000000020000003D
(1713559790.110342) can0 550#48000C00010000A8
(1713559790.111032) can0 410#2880008B9F6E8B7E
(1713559790.111639) can0 174#E67F005D3B790AD9
(1713559790.111875) can0 178#F87F053115930A1F
(1713559790.112111) can0 17C#068001002A690A77
(1713559790.112357) can0 551#000000000004C000
(1713559790.112601) can0 120#00000008070000BB
(1713559790.112849) can0 121#00000000000000BE
(1713559790.113089) can0 129#00000001000000BA
(1713559790.113329) can0 5D1#9958000200000000
(1713559790.117234) can0 400#2880000000000094
(1713559790.119573) can0 12F#F810032000000043
(1713559790.119807) can0 128#1388030000EC7828
(1713559790.120056) can0 12D#000000000000005F
(1713559790.120300) can0 12E#000000000000C02E
(1713559790.120546) can0 290#0000000200000057
(1713559790.121006) can0 410#2880008B9F6E8B9F
(1713559790.121592) can0 174#E67F005D3D790BC1
(1713559790.121826) can0 178#FA7F063015930B9B
(1713559790.122062) can0 17C#0A8001002D690B5B
(1713559790.122306) can0 541#0440E800007FFF38
(1713559790.126834) can0 140#0000030000000000
(1713559790.127144) can0 5D0#9958010200000000
(1713559790.127392) can0 400#28800000000000A1
(1713559790.127631) can0 5B1#008A9A6800000028
(1713559790.127867) can0 5CF#7444540000000000
(1713559790.128113) can0 540#000000104000A000
(1713559790.128355) can0 5B0#6342000000000096
(1713559790.129410) can0 12F#F810032000000076
(1713559790.129657) can0 12D#000000000000006A
(1713559790.129904) can0 290#0000000200000062
(1713559790.130976) can0 410#2880008B9F6E8BAA
(1713559790.131651) can0 174#EA7F005D3A790CA3
(1713559790.131879) can0 178#FE7F073118930CD3
(1713559790.132121) can0 17C#0A80010027690C07
(1713559790.132367) can0 551#000000000004C000
(1713559790.132611) can0 120#00000008070000D1
(1713559790.132855) can0 121#00000000000000D4
(1713559790.133097) can0 129#00000001000000D0
(1713559790.133342) can0 552#00FFFFFFFFFFFF44
(1713559790.133588) can0 5D1#9958000200000000
(1713559790.133835) can0 5D2#7444540000000000
(1713559790.134082) can0 450#005620001B004A00
(1713559790.137326) can0 400#28800000000000CB
(1713559790.139599) can0 12F#F82003200000008A
(1713559790.139826) can0 128#1388030000EC7842
(1713559790.140071) can0 12D#000000000000008B
(1713559790.140314) can0 12E#000000000000C044
(1713559790.140565) can0 290#0010000200000088
(1713559790.140953) can0 410#2880008B9F6E8BC0
(1713559790.141657) can0 174#EA7F005D37790D3B
(1713559790.141895) can0 178#008008381F930D98
(1713559790.142133) can0 17C#0280010017690DE0
(1713559790.142375) can0 541#0440E800007FFF52
(1713559790.145932) can0 6B9#0020400000000000
(1713559790.146175) can0 5A2#1410140000000000
(1713559790.147339) can0 400#288000000000002A
(1713559790.147579) can0 140#0000030000000000
(1713559790.148859) can0 4EA#0000000000000000
(1713559790.149104) can0 5B2#0800000000000000
(1713559790.149350) can0 310#FFFFFFFF7D7D0000
(1713559790.149599) can0 12D#00000000000000BE
(1713559790.149839) can0 12F#F8100320000000A2
(1713559790.150084) can0 290#00100002000000BD
(1713559790.150566) can0 410#2880008B9F6E8B21
(1713559790.151658) can0 174#E67F005D3B790EAD
(1713559790.151889) can0 178#FE7F000025930EBD
(1713559790.152131) can0 17C#FA7F010010690E3F
(1713559790.152380) can0 551#000000000004C000
(1713559790.152625) can0 120#0000000807000030
(1713559790.152872) can0 121#0000000000000035
(1713559790.153116) can0 129#0000000100000031
(1713559790.153356) can0 5D1#9958000200000000
(1713559790.157426) can0 400#2880000000000040
(1713559790.159543) can0 12F#F8100320000000C8
(1713559790.159783) can0 128#1388030000EC7877
(1713559790.160009) can0 12A#1428701C60580026
(1713559790.160251) can0 12D#00000000000000D4
(1713559790.160499) can0 12E#000000000000C071
(1713559790.160745) can0 290#00300002000000C1
(1713559790.160983) can0 410#2880008B9F6E8B4B
(1713559790.161225) can0 550#48000C00010000C2
(1713559790.161463) can0 5A0#0000006244928043
(1713559790.161691) can0 174#E67F005D42790F7B
(1713559790.161932) can0 178#0080000027930F02
(1713559790.162165) can0 17C#F47F010016690F26
(1713559790.162410) can0 541#0440E800007FFF67
(1713559790.167427) can0 400#2880000000000075
(1713559790.167886) can0 140#0000030000000000
(1713559790.169346) can0 12F#F810032000000029
(1713559790.169592) can0 12D#0000000000000035
(1713559790.169839) can0 290#0030000200000020
(1713559790.170517) can0 410#2880008B9F6E8B7E
(1713559790.171678) can0 174#E27F005D3F790064
(1713559790.171911) can0 178#008001521F930061
(1713559790.172155) can0 17C#F87F01001F6900A5
(1713559790.172402) can0 551#000000000004C000
(1713559790.172652) can0 120#000000080700005A
(1713559790.172901) can0 121#000000000000005F
(1713559790.173144) can0 129#000000010000005B
(1713559790.173384) can0 5D1#9958000200000000
(1713559790.177521) can0 400#2880000000000094
(1713559790.179548) can0 12F#F810032000000043
(1713559790.179781) can0 128#1388030000EC7896
(1713559790.180039) can0 12D#000000000000005F
(1713559790.180278) can0 12E#000000000000C090
(1713559790.180523) can0 290#0020000200000041
(1713559790.180763) can0 410#2880008B9F6E8B9F
(1713559790.181667) can0 174#E27F005D37790175
(1713559790.181901) can0 178#FC7F026F1293017C
(1713559790.182143) can0 17C#FC7F010024690179
(1713559790.182385) can0 541#0440E800007FFF86
(1713559790.182677) can0 552#00FFFFFFFFFFFF71
(1713559790.182920) can0 450#005620001B004A00
(1713559790.187525) can0 400#28800000000000A1
(1713559790.188409) can0 140#0000030000000000
(1713559790.189375) can0 12F#F810032000000076
(1713559790.189621) can0 12D#000000000000006A
(1713559790.189867) can0 290#0020000200000074
(1713559790.190460) can0 410#2880008B9F6E8BAA
(1713559790.191619) can0 174#E47F005D38790207
(1713559790.191857) can0 178#F87F03620993028F
(1713559790.192148) can0 17C#0280010021690276
(1713559790.192394) can0 551#000000000004C000
(1713559790.192671) can0 5D1#9958000200000000
(1713559790.192918) can0 120#000000080700006F
(1713559790.193171) can0 121#000000000000006A
(1713559790.193420) can0 129#000000010000006E
(1713559790.197621) can0 400#28800000000000CB
(1713559790.199541) can0 12F#F810032000000097
(1713559790.199776) can0 128#1388030000EC78A3
(1713559790.200022) can0 12D#000000000000008B
(1713559790.200265) can0 12E#000000000000C0A5
(1713559790.200518) can0 290#0000000200000083
(1713559790.200766) can0 410#2880008B9F6E8BC0
(1713559790.201670) can0 174#EA7F005D4279035C
(1713559790.201906) can0 178#F87F0465069303EB
(1713559790.202146) can0 17C#02800100226903E7
(1713559790.202388) can0 541#0440E800007FFFB3
(1713559790.207624) can0 400#288000000000002A
(1713559790.208934) can0 140#0000030000000000
(1713559790.209310) can0 12F#F8100320000000A2
(1713559790.209542) can0 12A#1428701C6058004C
(1713559790.209790) can0 12D#00000000000000BE
(1713559790.210036) can0 290#00000002000000B6
(1713559790.210278) can0 550#48000C0001000023
(1713559790.210515) can0 410#2880008B9F6E8B21
(1713559790.211628) can0 174#EE7F005D46790460
(1713559790.211859) can0 178#FA7F05721193042B
(1713559790.212097) can0 17C#FE7F01002F69042A
(1713559790.212343) can0 551#000000000004C000
(1713559790.212617) can0 5D1#9958000200000000
(1713559790.212863) can0 120#000000080700008E
(1713559790.213158) can0 121#000000000000008B
(1713559790.213401) can0 129#000000010000008F
(1713559790.217720) can0 400#2880000000000040
(1713559790.219567) can0 12F#F8200320000000D5
(1713559790.219800) can0 128#1388030000EC78C9
(1713559790.220045) can0 12D#00000000000000D4
(1713559790.220289) can0 12E#000000000000C0CF
(1713559790.220535) can0 290#00100002000000D7
(1713559790.220773) can0 410#2880008B9F6E8B4B
(1713559790.221681) can0 174#F27F005D42790579
(1713559790.221917) can0 178#FA7F0674239305CA
(1713559790.222159) can0 17C#FA7F01003F690546
(1713559790.222401) can0 541#0440E800007FFFD9
(1713559790.227172) can0 5D0#9958010200000000
(1713559790.227406) can0 5B1#008A9A6800000042
(1713559790.227641) can0 5CF#7444540000000000
(1713559790.227887) can0 400#2880000000000075
(1713559790.228363) can0 540#000000104000A000
(1713559790.228606) can0 5B0#63420000000000A3
(1713559790.229354) can0 12F#F810032000000029
(1713559790.229600) can0 12D#0000000000000035
(1713559790.229850) can0 140#0000030000000000
(1713559790.230094) can0 290#0010000200000036
(1713559790.230356) can0 410#2880008B9F6E8B7E
(1713559790.231645) can0 174#F27F005D3779069F
(1713559790.231881) can0 178#FA7F07202E9306FD
(1713559790.232119) can0 17C#F87F01004B690695
(1713559790.232365) can0 551#000000000004C000
(1713559790.232624) can0 552#00FFFFFFFFFFFF90
(1713559790.232875) can0 120#00000008070000BB
(1713559790.233121) can0 121#00000000000000BE
(1713559790.233413) can0 129#00000001000000BA
(1713559790.233653) can0 5D1#9958000200000000
(1713559790.233901) can0 5D2#7444540000000000
(1713559790.234147) can0 450#005620001B004A00
(1713559790.237813) can0 400#2880000000000094
(1713559790.239594) can0 12F#F810032000000043
(1713559790.239828) can0 128#1388030000EC7828
(1713559790.240079) can0 12D#000000000000005F
(1713559790.240323) can0 12E#000000000000C02E
(1713559790.240568) can0 290#0000000200000057
(1713559790.240808) can0 410#2880008B9F6E8B9F
(1713559790.241682) can0 174#F07F005D2D79072F
(1713559790.241917) can0 178#FA7F08422B9307EC
(1713559790.242158) can0 17C#FE7F01005369074F
(1713559790.242399) can0 541#0440E800007FFF38
(1713559790.246124) can0 6B9#0020400000000000
(1713559790.246367) can0 5A2#1410140000000000
(1713559790.247814) can0 400#28800000000000A1
(1713559790.248656) can0 4EA#0000000000000000
(1713559790.248901) can0 5B2#0800000000000000
(1713559790.249147) can0 310#FFFFFFFF7D7D0000
(1713559790.249393) can0 12D#000000000000006A
(1713559790.249638) can0 12F#F810032000000076
(1713559790.249885) can0 290#0000000200000062
(1713559790.250135) can0 140#0000030000000000
(1713559790.250371) can0 410#2880008B9F6E8BAA
(1713559790.251636) can0 174#F07F005D2F790897
(1713559790.251865) can0 178#FA7F096F1D930815
(1713559790.252103) can0 17C#02800100596908E0
(1713559790.252349) can0 551#000000000004C000
(1713559790.252618) can0 5D1#9958000200000000
(1713559790.252946) can0 120#00000008070000D1
(1713559790.253190) can0 121#00000000000000D4
(1713559790.253433) can0 129#00000001000000D0
(1713559790.257907) can0 400#28800000000000CB
(1713559790.259546) can0 12F#F810032000000097
(1713559790.259777) can0 128#1388030000EC7842
(1713559790.260009) can0 12A#1428701C60580079
(1713559790.260256) can0 12D#000000000000008B
(1713559790.260499) can0 12E#000000000000C044
(1713559790.260752) can0 290#0000000200000083
(1713559790.260992) can0 410#2880008B9F6E8BC0
(1713559790.261236) can0 550#48000C0001000049
(1713559790.261474) can0 5A0#0000006244928076
(1713559790.261708) can0 174#F07F005D34790912
(1713559790.261938) can0 178#FC7F0A730F930989
(1713559790.262174) can0 17C#02800100516909F1
(1713559790.264196) can0 541#0440E800007FFF52
(1713559790.267967) can0 400#288000000000002A
(1713559790.269345) can0 12F#F8100320000000A2
(1713559790.269592) can0 12D#00000000000000BE
(1713559790.269838) can0 290#00000002000000B6
(1713559790.270299) can0 410#2880008B9F6E8B21
(1713559790.270549) can0 140#0000030000000000
(1713559790.271641) can0 174#F27F005D38790A85
(1713559790.271874) can0 178#FE7F0B6307930A57
(1713559790.272113) can0 17C#0680010040690A28
(1713559790.272359) can0 551#000000000004C000
(1713559790.272619) can0 5D1#9958000200000000
(1713559790.273045) can0 120#0000000807000030
(1713559790.273294) can0 121#0000000000000035
(1713559790.273537) can0 129#0000000100000031
(1713559790.277955) can0 400#2880000000000040
(1713559790.279544) can0 12F#F8100320000000C8
(1713559790.279774) can0 128#1388030000EC7877
(1713559790.280019) can0 12D#00000000000000D4
(1713559790.280267) can0 12E#000000000000C071
(1713559790.280514) can0 290#00000002000000DC
(1713559790.280753) can0 410#2880008B9F6E8B4B
(1713559790.281697) can0 174#EE7F005D3A790B99
(1713559790.281931) can0 178#00800C6809930BCF
(1713559790.282173) can0 17C#0A80010037690B4C
(1713559790.282417) can0 541#0440E800007FFF67
(1713559790.282673) can0 552#00FFFFFFFFFFFFA5
(1713559790.282917) can0 450#005620001B004A00
(1713559790.288062) can0 400#2880000000000075
(1713559790.289417) can0 12F#F810032000000029
(1713559790.289661) can0 12D#0000000000000035
(1713559790.289910) can0 290#000000020000003D
(1713559790.290318) can0 410#2880008B9F6E8B7E
(1713559790.291080) can0 140#0000030000000000
(1713559790.291704) can0 174#EC7F005D32790C7C
(1713559790.291911) can0 178#00800D200F930CFB
(1713559790.292126) can0 17C#0A80010034690C93
(1713559790.292372) can0 551#000000000004C000
(1713559790.292620) can0 5D1#9958000200000000
(1713559790.293140) can0 120#000000080700005A
(1713559790.293388) can0 121#000000000000005F
(1713559790.293633) can0 129#000000010000005B
(1713559790.298050) can0 400#2880000000000094
(1713559790.299547) can0 12F#F82003200000005E
(1713559790.299784) can0 128#1388030000EC7896
(1713559790.300034) can0 12D#000000000000005F
(1713559790.300280) can0 12E#000000000000C090
(1713559790.300526) can0 290#0000000200000057
(1713559790.300766) can0 410#2880008B9F6E8B9F
(1713559790.301702) can0 174#EE7F005D29790D43
(1713559790.301928) can0 178#FE7F0E4714930D4B
(1713559790.302166) can0 17C#0C8001002A690D4C
(1713559790.302409) can0 541#0440E800007FFF86
(1713559790.308157) can0 400#28800000000000A1
(1713559790.309364) can0 12F#F810032000000076
(1713559790.309597) can0 12A#1428701C60580098
(1713559790.309843) can0 12D#000000000000006A
(1713559790.310091) can0 290#0000000200000062
(1713559790.310326) can0 410#2880008B9F6E8BAA
(1713559790.310579) can0 550#48000C000100007C
(1713559790.311610) can0 140#0000030000000000
(1713559790.311832) can0 174#EE7F005D25790E6E
(1713559790.312059) can0 178#FA7F0F6D15930E11
(1713559790.312298) can0 17C#108001001C690E44
(1713559790.312544) can0 551#000000000004C000
(1713559790.312750) can0 5D1#9958000200000000
(1713559790.313242) can0 120#000000080700006F
(1713559790.313494) can0 121#000000000000006A
(1713559790.313742) can0 129#000000010000006E
(1713559790.318154) can0 400#28800000000000CB
(1713559790.319520) can0 12F#F810032000000097
(1713559790.319805) can0 128#1388030000EC78A3
(1713559790.320051) can0 12D#000000000000008B
(1713559790.320294) can0 12E#000000000000C0A5
(1713559790.320547) can0 290#0000000200000083
(1713559790.320789) can0 410#2880008B9F6E8BC0
(1713559790.321707) can0 174#EA7F005D2D790F16
(1713559790.321939) can0 178#F87F006217930FA1
(1713559790.322179) can0 17C#128001001E690FE0
(1713559790.322422) can0 541#0440E800007FFFB3
(1713559790.327235) can0 5D0#9958010200000000
(1713559790.327466) can0 5B1#008A9A6800000077
(1713559790.327707) can0 5CF#7444540000000000
(1713559790.328247) can0 400#288000000000002A
(1713559790.328937) can0 540#000000104000A000
(1713559790.329175) can0 5B0#63420000000000C9
(1713559790.329415) can0 12F#F8100320000000A2
(1713559790.329663) can0 12D#00000000000000BE
(1713559790.329909) can0 290#00000002000000B6
(1713559790.330313) can0 410#2880008B9F6E8B21
(1713559790.331719) can0 174#E67F005D3079008B
(1713559790.331951) can0 178#FC7F01481893006E
(1713559790.332184) can0 140#0000030000000000
(1713559790.332392) can0 17C#148001002D69002C
(1713559790.332637) can0 551#000000000004C000
(1713559790.332891) can0 552#00FFFFFFFFFFFFCF
(1713559790.333137) can0 5D1#9958000200000000
(1713559790.333389) can0 120#000000080700008E
(1713559790.333634) can0 121#000000000000008B
(1713559790.333876) can0 129#000000010000008F
(1713559790.334114) can0 5D2#7444540000000000
(1713559790.334362) can0 450#005620001B004A00
(1713559790.338251) can0 400#2880000000000040
(1713559790.339584) can0 12F#F8100320000000C8
(1713559790.339869) can0 128#1388030000EC78C9
(1713559790.340113) can0 12D#00000000000000D4
(1713559790.340357) can0 12E#000000000000C0CF
(1713559790.340605) can0 290#00000002000000DC
(1713559790.340843) can0 410#2880008B9F6E8B4B
(1713559790.341717) can0 174#E47F005D2D7901B1
(1713559790.341957) can0 178#008000001893010A
(1713559790.342200) can0 17C#128001003F6901F9
(1713559790.342442) can0 541#0440E800007FFFD9
(1713559790.346363) can0 6B9#0020400000000000
(1713559790.346604) can0 5A2#1410140000000000
(1713559790.348343) can0 400#2880000000000075
(1713559790.348592) can0 4EA#0000000000000000
(1713559790.348835) can0 5B2#0800000000000000
(1713559790.349081) can0 310#FFFFFFFF7D7D0000
(1713559790.349361) can0 12F#F810032000000029
(1713559790.349607) can0 12D#0000000000000035
(1713559790.349855) can0 290#000000020000003D
(1713559790.350290) can0 410#2880008B9F6E8B7E
(1713559790.351722) can0 174#E47F005D2D790296
(1713559790.351962) can0 178#008000001A93022E
(1713559790.352202) can0 17C#0C8001003A6902EF
(1713559790.352398) can0 551#000000000004C000
(1713559790.352649) can0 140#0000030000000000
(1713559790.352888) can0 5D1#9958000200000000
(1713559790.353430) can0 120#00000008070000BB
(1713559790.353676) can0 121#00000000000000BE
(1713559790.353919) can0 129#00000001000000BA
(1713559790.358346) can0 400#2880000000000094
(1713559790.359495) can0 12F#F810032000000043
(1713559790.359732) can0 128#1388030000EC7828
(1713559790.360015) can0 12A#1428701C605800AD
(1713559790.360266) can0 12D#000000000000005F
(1713559790.360510) can0 12E#000000000000C02E
(1713559790.360756) can0 290#0000000200000057
(1713559790.360996) can0 410#2880008B9F6E8B9F
(1713559790.361240) can0 550#48000C000100009D
(1713559790.361475) can0 5A0#0000006244928097
(1713559790.361721) can0 174#E87F005D2F790333
(1713559790.361957) can0 178#0280000D15930340
(1713559790.362197) can0 17C#0480010022690334
(1713559790.362441) can0 541#0440E800007FFF38
(1713559790.368442) can0 400#28800000000000A1
(1713559790.369425) can0 12F#F810032000000076
(1713559790.369669) can0 12D#000000000000006A
(1713559790.369918) can0 290#0000000200000062
(1713559790.370314) can0 410#2880008B9F6E8BAA
(1713559790.371736) can0 551#000000000004C000
(1713559790.371966) can0 174#EC7F005D2A790480
(1713559790.372206) can0 178#048000000D93049B
(1713559790.372398) can0 17C#00800100176904AF
(1713559790.372639) can0 5D1#9958000200000000
(1713559790.373122) can0 140#0000030000000000
(1713559790.373528) can0 120#00000008070000D1
(1713559790.373772) can0 121#00000000000000D4
(1713559790.374015) can0 129#00000001000000D0
(1713559790.378450) can0 400#28800000000000CB
(1713559790.379490) can0 12F#F82003200000008A
(1713559790.379723) can0 128#1388030000EC7842
(1713559790.380019) can0 12D#000000000000008B
(1713559790.380263) can0 12E#000000000000C044
(1713559790.380515) can0 290#0000000200000083
(1713559790.380755) can0 410#2880008B9F6E8BC0
(1713559790.381729) can0 174#EC7F005D2579051B
(1713559790.381963) can0 178#0680013609930556
(1713559790.382210) can0 17C#0080010024690516
(1713559790.382452) can0 541#0440E800007FFF52
(1713559790.382708) can0 552#00FFFFFFFFFFFF2E
(1713559790.382952) can0 450#005620001B004A00
(1713559790.388577) can0 400#288000000000002A
(1713559790.389406) can0 12F#F8100320000000A2
(1713559790.389652) can0 12D#00000000000000BE
(1713559790.389898) can0 290#00000002000000B6
(1713559790.390314) can0 410#2880008B9F6E8B21
(1713559790.391737) can0 551#000000000004C000
(1713559790.391969) can0 174#EE7F005D25790686
(1713559790.392201) can0 178#06800230079306AF
(1713559790.392414) can0 17C#00800100316906A0
(1713559790.392633) can0 5D1#9958000200000000
(1713559790.393629) can0 120#0000000807000030
(1713559790.393877) can0 121#0000000000000035
(1713559790.394121) can0 129#0000000100000031
(1713559790.394371) can0 140#0000030000000000
(1713559790.398543) can0 400#2880000000000040
(1713559790.399487) can0 12F#F8100320000000C8
(1713559790.399720) can0 128#1388030000EC7877
(1713559790.399966) can0 12D#00000000000000D4
(1713559790.400263) can0 12E#000000000000C071
(1713559790.400511) can0 290#00000002000000DC
(1713559790.400748) can0 410#2880008B9F6E8B4B
(1713559790.401735) can0 541#0440E800007FFF67
(1713559790.401967) can0 174#F07F005D29790729
(1713559790.402205) can0 178#0480033106930770
(1713559790.402452) can0 17C#00800100376907B8
(1713559790.408634) can0 400#2880000000000075
(1713559790.409407) can0 12F#F810032000000029
(1713559790.409642) can0 12A#1428701C605800C7
(1713559790.409888) can0 12D#0000000000000035
(1713559790.410136) can0 290#000000020000003D
(1713559790.410376) can0 410#2880008B9F6E8B7E
(1713559790.410620) can0 550#48000C00010000A8
(1713559790.411733) can0 551#000000000004C000
(1713559790.411962) can0 174#F27F005D2F79082D
(1713559790.412198) can0 178#0080043807930827
(1713559790.412436) can0 17C#0480010043690824
(1713559790.412626) can0 5D1#9958000200000000
(1713559790.413725) can0 120#000000080700005A
(1713559790.413973) can0 121#000000000000005F
(1713559790.414217) can0 129#000000010000005B
(1713559790.414467) can0 140#0000030000000000
(1713559790.418640) can0 400#2880000000000094
(1713559790.419525) can0 12F#F810032000000043
(1713559790.419757) can0 128#1388030000EC7896
(1713559790.420007) can0 12D#000000000000005F
(1713559790.420304) can0 12E#000000000000C090
(1713559790.420550) can0 290#0000000200000057
(1713559790.420790) can0 410#2880008B9F6E8B9F
(1713559790.421738) can0 541#0440E800007FFF86
(1713559790.421965) can0 174#F27F005D3A7909A1
(1713559790.422195) can0 178#028005310C93096B
(1713559790.422433) can0 17C#02800100556909F7
(1713559790.427254) can0 5D0#9958010200000000
(1713559790.427491) can0 5B1#008A9A6800000096
(1713559790.427726) can0 5CF#7444540000000000
(1713559790.428730) can0 400#28800000000000A1
(1713559790.429364) can0 12F#F810032000000076
(1713559790.429609) can0 12D#000000000000006A
(1713559790.429856) can0 290#0000000200000062
(1713559790.430102) can0 540#000000104000A000
(1713559790.430338) can0 410#2880008B9F6E8BAA
(1713559790.430580) can0 5B0#6342000000000028
(1713559790.431748) can0 174#F27F005D42790AC2
(1713559790.431977) can0 178#0680063214930A35
(1713559790.432215) can0 17C#FE7F01005E690A4B
(1713559790.432464) can0 551#000000000004C000
(1713559790.432680) can0 552#00FFFFFFFFFFFF44
(1713559790.432911) can0 5D1#9958000200000000
(1713559790.433155) can0 5D2#7444540000000000
(1713559790.433399) can0 450#005620001B004A00
(1713559790.433823) can0 120#000000080700006F
(1713559790.434075) can0 121#000000000000006A
(1713559790.434323) can0 129#000000010000006E
(1713559790.434688) can0 140#0000030000000000
(1713559790.438737) can0 400#28800000000000CB
(1713559790.439575) can0 12F#F810032000000097
(1713559790.439810) can0 128#1388030000EC78A3
(1713559790.440056) can0 12D#000000000000008B
(1713559790.440349) can0 12E#000000000000C0A5
(1713559790.440602) can0 290#0000000200000083
(1713559790.440842) can0 410#2880008B9F6E8BC0
(1713559790.441728) can0 541#0440E800007FFFB3
(1713559790.441965) can0 174#EE7F005D43790B52
(1713559790.442183) can0 178#0680073918930B6E
(1713559790.442421) can0 17C#FE7F010059690BDC
(1713559790.446529) can0 6B9#0020400000000000
(1713559790.446774) can0 5A2#1410140000000000
(1713559790.448307) can0 4EA#0000000000000000
(1713559790.448549) can0 5B2#0800000000000000
(1713559790.448794) can0 310#FFFFFFFF7D7D0000
(1713559790.449051) can0 400#288000000000002A
(1713559790.449364) can0 12F#F8100320000000A2
(1713559790.449611) can0 12D#00000000000000BE
(1713559790.449857) can0 290#00000002000000B6
(1713559790.450276) can0 410#2880008B9F6E8B21
(1713559790.451737) can0 551#000000000004C000
(1713559790.451963) can0 174#EE7F005D42790C8E
(1713559790.452193) can0 178#FE7F082D1C930C5E
(1713559790.452429) can0 17C#0080010048690CB9
(1713559790.452671) can0 5D1#9958000200000000
(1713559790.453918) can0 120#000000080700008E
(1713559790.454161) can0 121#000000000000008B
(1713559790.454403) can0 129#000000010000008F
(1713559790.455210) can0 140#0000030000000000
(1713559790.458833) can0 400#2880000000000040
(1713559790.459491) can0 12F#F8200320000000D5
(1713559790.459727) can0 128#1388030000EC78C9
(1713559790.459960) can0 12A#1428701C60580026
(1713559790.460204) can0 12D#00000000000000D4
(1713559790.460448) can0 12E#000000000000C0CF
(1713559790.460697) can0 290#00000002000000DC
(1713559790.460958) can0 410#2880008B9F6E8B4B
(1713559790.461227) can0 550#48000C00010000C2
(1713559790.461465) can0 5A0#00000062449280A2
(1713559790.461746) can0 541#0440E800007FFFD9
(1713559790.461976) can0 174#F27F005D45790D1B
(1713559790.462206) can0 178#F67F09301F930D1D
(1713559790.462446) can0 17C#0080010035690D69
(1713559790.468925) can0 400#2880000000000075
(1713559790.469397) can0 12F#F810032000000029
(1713559790.469651) can0 12D#0000000000000035
(1713559790.469892) can0 290#000000020000003D
(1713559790.470131) can0 410#2880008B9F6E8B7E
(1713559790.471736) can0 551#000000000004C000
(1713559790.471963) can0 174#F47F005D4D790EE3
(1713559790.472193) can0 178#F27F0A3220930E64
(1713559790.472431) can0 17C#FE7F010029690EFD
(1713559790.472672) can0 5D1#9958000200000000
(1713559790.474014) can0 120#00000008070000BB
(1713559790.474260) can0 121#00000000000000BE
(1713559790.474502) can0 129#00000001000000BA
(1713559790.475733) can0 140#0000030000000000
(1713559790.478928) can0 400#2880000000000094
(1713559790.479493) can0 12F#F810032000000043
(1713559790.479731) can0 128#1388030000EC7828
(1713559790.479981) can0 12D#000000000000005F
(1713559790.480225) can0 12E#000000000000C02E
(1713559790.480471) can0 290#0000000200000057
(1713559790.480711) can0 410#2880008B9F6E8B9F
(1713559790.481756) can0 541#0440E800007FFF38
(1713559790.481985) can0 174#EE7F005D4B790F2A
(1713559790.482216) can0 178#F27F0B361D930FF0
(1713559790.482458) can0 17C#F87F010021690F3F
(1713559790.482704) can0 552#00FFFFFFFFFFFF71
(1713559790.482946) can0 450#005620001B004A00
(1713559790.489023) can0 400#28800000000000A1
(1713559790.489413) can0 12F#F810032000000076
(1713559790.489658) can0 12D#000000000000006A
(1713559790.489914) can0 290#0000000200000062
(1713559790.490144) can0 410#2880008B9F6E8BAA
(1713559790.491735) can0 551#000000000004C000
(1713559790.491965) can0 174#E87F005D3D79000F
(1713559790.492196) can0 178#F47F0C30159300F6
(1713559790.492435) can0 17C#F67F01001B6900A2
(1713559790.492675) can0 5D1#9958000200000000
(1713559790.494112) can0 120#00000008070000D1
(1713559790.494355) can0 121#00000000000000D4
(1713559790.494598) can0 129#00000001000000D0
(1713559790.496254) can0 140#0000030000000000
(1713559790.499024) can0 400#28800000000000CB
(1713559790.499491) can0 12F#F810032000000097
(1713559790.499724) can0 128#1388030000EC7842
(1713559790.499970) can0 12D#000000000000008B
(1713559790.500215) can0 12E#000000000000C044
(1713559790.500466) can0 290#0000000200000083
(1713559790.500706) can0 410#2880008B9F6E8BC0
(1713559790.501739) can0 541#0440E800007FFF52
(1713559790.501962) can0 174#E67F005D2D79010B
(1713559790.502203) can0 178#F87F00000D9301E9
(1713559790.502441) can0 17C#FE7F010011690162
(1713559790.509131) can0 400#288000000000002A
(1713559790.509369) can0 12F#F8100320000000A2
(1713559790.509593) can0 12A#1428701C6058004C
(1713559790.509840) can0 12D#00000000000000BE
(1713559790.510096) can0 290#00000002000000B6
(1713559790.510325) can0 410#2880008B9F6E8B21
(1713559790.510565) can0 550#48000C0001000023
(1713559790.511729) can0 551#000000000004C000
(1713559790.511960) can0 174#EA7F005D2179029D
(1713559790.512195) can0 178#FE7F01300C930297
(1713559790.512438) can0 17C#0480010010690202
(1713559790.512677) can0 5D1#9958000200000000
(1713559790.514210) can0 120#0000000807000030
(1713559790.514457) can0 121#0000000000000035
(1713559790.514701) can0 129#0000000100000031
(1713559790.516780) can0 140#0000030000000000
(1713559790.519126) can0 400#2880000000000040
(1713559790.519515) can0 12F#F8100320000000C8
(1713559790.519748) can0 128#1388030000EC7877
(1713559790.519992) can0 12D#00000000000000D4
(1713559790.520241) can0 12E#000000000000C071
(1713559790.520488) can0 290#00000002000000DC
(1713559790.520726) can0 410#2880008B9F6E8B4B
(1713559790.521735) can0 541#0440E800007FFF67
(1713559790.521965) can0 174#EA7F005D1E79032E
(1713559790.522200) can0 178#028002320D930387
(1713559790.522443) can0 17C#0680010021690302
(1713559790.527264) can0 5D0#9958010200000000
(1713559790.527490) can0 5B1#008A9A68000000A3
(1713559790.527734) can0 5CF#7444540000000000
(1713559790.529215) can0 400#2880000000000075
(1713559790.529461) can0 12D#0000000000000035
(1713559790.529703) can0 12F#F810032000000029
(1713559790.529951) can0 290#000000020000003D
(1713559790.530199) can0 410#2880008B9F6E8B7E
(1713559790.530439) can0 540#000000104000A000
(1713559790.530679) can0 5B0#6342000000000042
(1713559790.531761) can0 551#000000000004C000
(1713559790.531987) can0 174#E87F005D2779046C
(1713559790.532224) can0 178#088003360F93049B
(1713559790.532464) can0 17C#0280010031690420
(1713559790.532710) can0 552#00FFFFFFFFFFFF90
(1713559790.532960) can0 55A#0017160000000000
(1713559790.533206) can0 5D1#9958000200000000
(1713559790.533450) can0 5D2#7444540000000000
(1713559790.533694) can0 450#005620001B004A00
(1713559790.534298) can0 120#000000080700005A
(1713559790.534546) can0 121#000000000000005F
(1713559790.534790) can0 129#000000010000005B
(1713559790.537305) can0 140#0000030000000000
(1713559790.539221) can0 400#2880000000000094
(1713559790.539527) can0 410#2880008B9F6E8B9F
(1713559790.539761) can0 128#1388030000EC7896
(1713559790.540011) can0 12D#000000000000005F
(1713559790.540257) can0 12E#000000000000C090
(1713559790.540501) can0 12F#F82003200000005E
(1713559790.540747) can0 290#0000000200000057
(1713559790.541673) can0 541#0440E800007FFF86
(1713559790.541954) can0 174#E67F005D3D790567
(1713559790.542188) can0 178#0C800435129305C3
(1713559790.542428) can0 17C#FE7F01002F690537
(1713559790.546745) can0 6B9#0020400000000000
(1713559790.546984) can0 5A2#1410140000000000
(1713559790.548100) can0 4EA#0000000000000000
(1713559790.548344) can0 5B2#0800000000000000
(1713559790.548590) can0 310#FFFFFFFF7D7D0000
(1713559790.549312) can0 400#28800000000000A1
(1713559790.549558) can0 12D#000000000000006A
(1713559790.549802) can0 12F#F810032000000076
(1713559790.550050) can0 290#0000000200000062
(1713559790.550286) can0 410#2880008B9F6E8BAA
(1713559790.551807) can0 174#EA7F005D5079062E
(1713559790.552038) can0 178#0880053014930631
(1713559790.552278) can0 17C#FE7F010029690615
(1713559790.552526) can0 551#000000000004C000
(1713559790.552775) can0 5D1#9958000200000000
(1713559790.554399) can0 120#000000080700006F
(1713559790.554650) can0 121#000000000000006A
(1713559790.554899) can0 129#000000010000006E
(1713559790.557830) can0 140#0000030000000000
(1713559790.559324) can0 400#28800000000000CB
(1713559790.559564) can0 12D#000000000000008B
(1713559790.559799) can0 128#1388030000EC78A3
(1713559790.560031) can0 12A#1428701C60580079
(1713559790.560275) can0 12E#000000000000C0A5
(1713559790.560518) can0 12F#F810032000000097
(1713559790.560770) can0 290#0000000200000083
(1713559790.561009) can0 410#2880008B9F6E8BC0
(1713559790.561253) can0 550#48000C0001000049
(1713559790.561490) can0 5A0#00000062449280C8
(1713559790.561732) can0 541#0440E800007FFFB3
(1713559790.561978) can0 174#EC7F005D5179076F
(1713559790.562253) can0 178#00800631129307D8
(1713559790.562495) can0 17C#FE7F01002C690781
(1713559790.569403) can0 12F#F8100320000000A2
(1713559790.569647) can0 12D#00000000000000BE
(1713559790.569893) can0 290#00000002000000B6
(1713559790.570141) can0 400#288000000000002A
(1713559790.570377) can0 410#2880008B9F6E8B21
(1713559790.571736) can0 551#000000000004C000
(1713559790.571961) can0 174#F07F005D437908CD
(1713559790.572192) can0 178#FA7F07310F93085C
(1713559790.572430) can0 17C#048001003769086A
(1713559790.572670) can0 5D1#9958000200000000
(1713559790.574551) can0 120#000000080700008E
(1713559790.574794) can0 121#000000000000008B
(1713559790.575036) can0 129#000000010000008F
(1713559790.578353) can0 140#0000030000000000
(1713559790.579415) can0 400#2880000000000040
(1713559790.579650) can0 128#1388030000EC78C9
(1713559790.579894) can0 12D#00000000000000D4
(1713559790.580138) can0 12E#000000000000C0CF
(1713559790.580379) can0 12F#F8100320000000C8
(1713559790.580627) can0 290#00000002000000DC
(1713559790.580865) can0 410#2880008B9F6E8B4B
(1713559790.581700) can0 541#0440E800007FFFD9
(1713559790.581930) can0 174#F07F005D3779099E
(1713559790.582163) can0 178#FC7F08310F9309EE
(1713559790.582402) can0 17C#0A800100426909B7
(1713559790.582646) can0 552#00FFFFFFFFFFFFA5
(1713559790.582892) can0 450#005620001B004A00
(1713559790.589410) can0 12F#F810032000000029
(1713559790.589652) can0 12D#0000000000000035
(1713559790.589901) can0 290#000000020000003D
(1713559790.590147) can0 400#2880000000000075
(1713559790.590387) can0 410#2880008B9F6E8B7E
(1713559790.591727) can0 551#000000000004C000
(1713559790.591961) can0 174#F07F005D38790A3F
(1713559790.592190) can0 178#FE7F093012930A19
(1713559790.592428) can0 17C#0880010042690A2A
(1713559790.592668) can0 5D1#9958000200000000
(1713559790.594640) can0 120#00000008070000BB
(1713559790.594886) can0 121#00000000000000BE
(1713559790.595128) can0 129#00000001000000BA
(1713559790.598876) can0 140#0000030000000000
(1713559790.599367) can0 410#2880008B9F6E8B9F
(1713559790.599604) can0 128#1388030000EC7828
(1713559790.599854) can0 12D#000000000000005F
(1713559790.600098) can0 12E#000000000000C02E
(1713559790.600342) can0 12F#F810032000000043
(1713559790.600588) can0 290#0000000200000057
(1713559790.600834) can0 400#2880000000000094
(1713559790.601677) can0 541#0440E800007FFF38
(1713559790.601909) can0 174#F07F005D4A790B69
(1713559790.602143) can0 178#FE7F0A3818930B29
(1713559790.602383) can0 17C#008001003B690B2E
(1713559790.609370) can0 12F#F810032000000076
(1713559790.609599) can0 12A#1428701C60580098
(1713559790.609847) can0 12D#000000000000006A
(1713559790.610093) can0 290#0000000200000062
(1713559790.610340) can0 400#28800000000000A1
(1713559790.610576) can0 410#2880008B9F6E8BAA
(1713559790.610821) can0 550#48000C000100007C
(1713559790.611725) can0 551#000000000004C000
(1713559790.611950) can0 174#EE7F005D56790C90
(1713559790.612197) can0 178#F87F00001C930CFF
(1713559790.612432) can0 17C#0080010032690CFE
(1713559790.612671) can0 5D1#9958000200000000
(1713559790.614738) can0 120#00000008070000D1
(1713559790.614981) can0 121#00000000000000D4
(1713559790.615224) can0 129#00000001000000D0
(1713559790.619314) can0 410#2880008B9F6E8BC0
(1713559790.619556) can0 12F#F82003200000008A
(1713559790.619789) can0 128#1388030000EC7842
(1713559790.620035) can0 12D#000000000000008B
(1713559790.620279) can0 12E#000000000000C044
(1713559790.620530) can0 140#0000030000000000
(1713559790.620781) can0 290#0000000200000083
(1713559790.621028) can0 400#28800000000000CB
(1713559790.621676) can0 541#0440E800007FFF52
(1713559790.621906) can0 174#EE7F005D55790D01
(1713559790.622138) can0 178#F27F01301C930D8F
(1713559790.622379) can0 17C#0080010022690DFB
(1713559790.627272) can0 5D0#9958010200000000
(1713559790.627512) can0 5B1#008A9A68000000C9
(1713559790.627744) can0 5CF#7444540000000000
(1713559790.629332) can0 410#2880008B9F6E8B21
(1713559790.629580) can0 12D#00000000000000BE
(1713559790.629820) can0 12F#F8100320000000A2
(1713559790.630066) can0 290#00000002000000B6
(1713559790.630315) can0 400#288000000000002A
(1713559790.630561) can0 540#0000001040009F00
(1713559790.630800) can0 5B0#6342000000000077
(1713559790.631756) can0 551#000000000004C000
(1713559790.631987) can0 174#F07F005D50790E17
(1713559790.632221) can0 178#F07F000017930E97
(1713559790.632468) can0 17C#FE7F01001C690E5C
(1713559790.632707) can0 552#00FFFFFFFFFFFFCF
(1713559790.632952) can0 5D1#9958000200000000
(1713559790.633196) can0 5D2#7444540000000000
(1713559790.633439) can0 450#005620001B004A00
(1713559790.634836) can0 120#0000000807000030
(1713559790.635084) can0 121#0000000000000035
(1713559790.635347) can0 129#0000000100000031
(1713559790.639280) can0 410#2880008B9F6E8B4B
(1713559790.639576) can0 12F#F8100320000000C8
(1713559790.639810) can0 128#1388030000EC7877
(1713559790.640054) can0 12D#00000000000000D4
(1713559790.640302) can0 12E#000000000000C071
(1713559790.640552) can0 140#0000030000000000
(1713559790.640800) can0 290#00000002000000DC
(1713559790.641048) can0 400#2880000000000040
(1713559790.641674) can0 541#0440E800007FFF67
(1713559790.641906) can0 174#F07F005D4B790F92
(1713559790.642137) can0 178#F07F015312930F62
(1713559790.642379) can0 17C#0080010026690FC7
(1713559790.646960) can0 6B9#0020400000000000
(1713559790.647202) can0 5A2#1410140000000000
(1713559790.647895) can0 4EA#0000000000000000
(1713559790.648140) can0 5B2#0800000000000000
(1713559790.648386) can0 310#FFFFFFFF7D7D0000
(1713559790.649310) can0 410#2880008B9F6E8B7E
(1713559790.649556) can0 12D#0000000000000035
(1713559790.649798) can0 12F#F810032000000029
(1713559790.650045) can0 290#000000020000003D
(1713559790.650292) can0 400#2880000000000075
(1713559790.651731) can0 551#000000000004C000
(1713559790.651960) can0 174#F07F005D427900AA
(1713559790.652192) can0 178#F07F024312930042
(1713559790.652434) can0 17C#048001003269000B
(1713559790.652682) can0 5D1#9958000200000000
(1713559790.654932) can0 120#000000080700005A
(1713559790.655179) can0 121#000000000000005F
(1713559790.655426) can0 129#000000010000005B
(1713559790.659233) can0 410#2880008B9F6E8B9F
(1713559790.659530) can0 12F#F810032000000043
(1713559790.659763) can0 128#1388030000EC7896
(1713559790.659997) can0 12A#1428701C605800AD
(1713559790.660247) can0 12D#000000000000005F
(1713559790.660493) can0 12E#000000000000C090
(1713559790.660743) can0 140#0000030000000000
(1713559790.660989) can0 290#0000000200000057
(1713559790.661235) can0 400#2880000000000094
(1713559790.661478) can0 550#48000C000100009D
(1713559790.661720) can0 541#0440E800007FFF86
(1713559790.661954) can0 174#EE7F005D32790147
(1713559790.662186) can0 178#F27F033217930160
(1713559790.662426) can0 17C#FE7F010035690154
(1713559790.662665) can0 5A0#0000006244928029
(1713559790.669256) can0 410#2880008B9F6E8BAA
(1713559790.669497) can0 12D#000000000000006A
(1713559790.669742) can0 12F#F810032000000076
(1713559790.669990) can0 290#0000000200000062
(1713559790.670236) can0 400#28800000000000A1
(1713559790.671724) can0 551#000000000004C000
(1713559790.671954) can0 174#EE7F005D277902F1
(1713559790.672192) can0 178#F67F0430209302A0
(1713559790.672428) can0 17C#F47F010032690291
(1713559790.672668) can0 5D1#9958000200000000
(1713559790.675040) can0 120#000000080700006F
(1713559790.675286) can0 121#000000000000006A
(1713559790.675532) can0 129#000000010000006E
(1713559790.679180) can0 410#2880008B9F6E8BC0
(1713559790.679486) can0 12F#F810032000000097
(1713559790.679721) can0 128#1388030000EC78A3
(1713559790.679967) can0 12D#000000000000008B
(1713559790.680211) can0 12E#000000000000C0A5
(1713559790.680463) can0 290#0000000200000083
(1713559790.680709) can0 400#28800000000000CB
(1713559790.680975) can0 140#0000030000000000
(1713559790.681696) can0 541#0440E800007FFFB3
(1713559790.681927) can0 174#EE7F005D24790360
(1713559790.682165) can0 178#F87F05302593035F
(1713559790.682405) can0 17C#F07F01003569036F
(1713559790.682652) can0 552#00FFFFFFFFFFFF2E
(1713559790.682896) can0 450#005620001B004A00
(1713559790.689149) can0 410#2880008B9F6E8B21
(1713559790.689389) can0 12F#F8100320000000A2
(1713559790.689636) can0 12D#00000000000000BE
(1713559790.689882) can0 290#00000002000000B6
(1713559790.690130) can0 400#288000000000002A
(1713559790.691726) can0 551#000000000004C000
(1713559790.691959) can0 174#EC7F005D1E7904AE
(1713559790.692195) can0 178#F87F06321F9304B2
(1713559790.692436) can0 17C#F67F01003D6904E3
(1713559790.692676) can0 5D1#9958000200000000
(1713559790.695126) can0 120#000000080700008E
(1713559790.695395) can0 121#000000000000008B
(1713559790.695613) can0 129#000000010000008F
(1713559790.699180) can0 410#2880008B9F6E8B4B
(1713559790.699551) can0 12F#F8200320000000D5
(1713559790.699784) can0 128#1388030000EC78C9
(1713559790.700027) can0 12D#00000000000000D4
(1713559790.700271) can0 12E#000000000000C0CF
(1713559790.700519) can0 290#00000002000000DC
(1713559790.700767) can0 400#2880000000000040
(1713559790.701537) can0 140#0000030000000000
(1713559790.701782) can0 541#0440E800007FFFD9
(1713559790.702009) can0 174#EC7F005D17790530
(1713559790.702246) can0 178#FE7F0737159305CA
(1713559790.702488) can0 17C#FE7F01003F69052F
(1713559790.709071) can0 410#2880008B9F6E8B7E
(1713559790.709312) can0 12F#F810032000000029
(1713559790.709549) can0 12A#1428701C605800C7
(1713559790.709794) can0 12D#0000000000000035
(1713559790.710042) can0 290#000000020000003D
(1713559790.710288) can0 400#2880000000000075
(1713559790.710532) can0 550#48000C00010000A8
(1713559790.711716) can0 551#000000000004C000
(1713559790.711945) can0 174#EC7F005D1A790692
(1713559790.712182) can0 178#0680085F119306A7
(1713559790.712423) can0 17C#008001003B6906AF
(1713559790.712663) can0 5D1#9958000200000000
(1713559790.715220) can0 120#00000008070000BB
(1713559790.715466) can0 121#00000000000000BE
(1713559790.715706) can0 129#00000001000000BA
(1713559790.719104) can0 410#2880008B9F6E8B9F
(1713559790.719570) can0 12F#F810032000000043
(1713559790.719800) can0 128#1388030000EC7828
(1713559790.720049) can0 12D#000000000000005F
(1713559790.720292) can0 12E#000000000000C02E
(1713559790.720538) can0 290#001000020000005C
(1713559790.720785) can0 400#2880000000000094
(1713559790.721721) can0 541#0440E800007FFF38
(1713559790.721951) can0 174#E87F005D2779074B
(1713559790.722201) can0 140#0000030000000000
(1713559790.722439) can0 178#068009300F930777
(1713559790.722680) can0 17C#FA7F01003B69077A
(1713559790.727236) can0 5D0#9958010200000000
(1713559790.727474) can0 5B1#008A9A6800000028
(1713559790.727710) can0 5CF#7444540000000000
(1713559790.729052) can0 410#2880008B9F6E8BAA
(1713559790.729310) can0 12F#F810032000000076
(1713559790.729557) can0 12D#000000000000006A
(1713559790.729801) can0 290#0010000200000069
(1713559790.730138) can0 400#28800000000000A1
(1713559790.730923) can0 540#000000104000A000
(1713559790.731213) can0 5B0#6342000000000096
(1713559790.731748) can0 551#000000000004C000
(1713559790.731973) can0 174#E67F005D357908EA
(1713559790.732206) can0 178#00800A37129308C8
(1713559790.732443) can0 17C#F27F010037690819
(1713559790.732686) can0 552#00FFFFFFFFFFFF44
(1713559790.732933) can0 5D1#9958000200000000
(1713559790.733178) can0 5D2#7444540000000000
(1713559790.733427) can0 450#005600001B004A00
(1713559790.735316) can0 120#00000008070000D1
(1713559790.735560) can0 121#00000000000000D4
(1713559790.735801) can0 129#00000001000000D0
(1713559790.739105) can0 410#2880008B9F6E8BC0
(1713559790.739622) can0 12F#F810032000000097
(1713559790.739860) can0 128#1388030000EC7842
(1713559790.740100) can0 12D#000000000000008B
(1713559790.740343) can0 12E#000000000000C044
(1713559790.740595) can0 290#0000000200000083
(1713559790.740841) can0 400#28800000000000CB
(1713559790.741845) can0 174#E47F005D3D790941
(1713559790.742076) can0 178#FA7F0B3111930992
(1713559790.742311) can0 17C#F07F0100316909BB
(1713559790.742581) can0 140#0000030000000000
(1713559790.744136) can0 541#0440E800007FFF52
(1713559790.747086) can0 6B9#0020400000000000
(1713559790.747330) can0 5A2#1410140000000000
(1713559790.747640) can0 4EA#0000000000000000
(1713559790.747885) can0 5B2#0800000000000000
(1713559790.748130) can0 310#FFFFFFFF7D7D0000
(1713559790.749052) can0 410#2880008B9F6E8B21
(1713559790.749308) can0 12F#F8100320000000A2
(1713559790.749556) can0 12D#00000000000000BE
(1713559790.749802) can0 290#00000002000000B6
(1713559790.750245) can0 400#288000000000002A
(1713559790.751723) can0 551#000000000004C000
(1713559790.751949) can0 174#E27F005D3D790AB5
(1713559790.752191) can0 178#F87F00000D930A26
(1713559790.752427) can0 17C#F27F01002C690ABB
(1713559790.752668) can0 5D1#9958000200000000
(1713559790.755417) can0 120#0000000807000030
(1713559790.755663) can0 121#0000000000000035
(1713559790.755904) can0 129#0000000100000031
(1713559790.759102) can0 410#2880008B9F6E8B4B
(1713559790.759536) can0 12F#F8100320000000C8
(1713559790.759768) can0 128#1388030000EC7877
(1713559790.760010) can0 12A#1428701C60580026
(1713559790.760249) can0 12D#00000000000000D4
(1713559790.760495) can0 12E#000000000000C071
(1713559790.760742) can0 290#00000002000000DC
(1713559790.760991) can0 400#2880000000000040
(1713559790.761232) can0 550#48000C00010000C2
(1713559790.761471) can0 5A0#0000006244928043
(1713559790.761715) can0 541#0440E800007FFF67
(1713559790.761942) can0 174#E27F005D3D790BA8
(1713559790.762175) can0 178#0080013711930BAA
(1713559790.762418) can0 17C#F87F01002D690B41
(1713559790.763098) can0 140#0000030000000000
(1713559790.769057) can0 410#2880008B9F6E8B7E
(1713559790.769345) can0 12F#F810032000000029
(1713559790.769591) can0 12D#0000000000000035
(1713559790.769840) can0 290#000000020000003D
(1713559790.770363) can0 400#2880000000000075
(1713559790.771668) can0 551#000000000004C000
(1713559790.771943) can0 174#E67F005D45790CD6
(1713559790.772174) can0 178#0680022E15930CB6
(1713559790.772413) can0 17C#0480010035690C1D
(1713559790.772653) can0 5D1#9958000200000000
(1713559790.775511) can0 120#000000080700005A
(1713559790.775755) can0 121#000000000000005F
(1713559790.775999) can0 129#000000010000005B
(1713559790.779103) can0 410#2880008B9F6E8B9F
(1713559790.779541) can0 12F#F82003200000005E
(1713559790.779776) can0 128#1388030000EC7896
(1713559790.780023) can0 12D#000000000000005F
(1713559790.780269) can0 12E#000000000000C090
(1713559790.780523) can0 290#0000000200000057
(1713559790.780764) can0 400#2880000000000094
(1713559790.781738) can0 541#0440E800007FFF86
(1713559790.781966) can0 174#E67F005D4A790D4D
(1713559790.782196) can0 178#0A80033117930D34
(1713559790.782434) can0 17C#0E8001003D690D64
(1713559790.782678) can0 552#00FFFFFFFFFFFF71
(1713559790.782925) can0 450#005620001B004A00
(1713559790.783621) can0 140#0000030000000000
(1713559790.789054) can0 410#2880008B9F6E8BAA
(1713559790.789359) can0 12F#F810032000000076
(1713559790.789605) can0 12D#000000000000006A
(1713559790.789853) can0 290#0000000200000062
(1713559790.790444) can0 400#28800000000000A1
(1713559790.791667) can0 551#000000000004C000
(1713559790.791944) can0 174#E47F005D40790EDF
(1713559790.792177) can0 178#0C80043014930EDA
(1713559790.792418) can0 17C#0E8001003D690E43
(1713559790.792658) can0 5D1#9958000200000000
(1713559790.795614) can0 120#000000080700006F
(1713559790.795862) can0 121#000000000000006A
(1713559790.796111) can0 129#000000010000006E
(1713559790.799105) can0 410#2880008B9F6E8BC0
(1713559790.799541) can0 12F#F810032000000097
(1713559790.799775) can0 128#1388030000EC78A3
(1713559790.800021) can0 12D#000000000000008B
(1713559790.800265) can0 12E#000000000000C0A5
(1713559790.800517) can0 290#0000000200000083
(1713559790.800765) can0 400#28800000000000CB
(1713559790.801715) can0 541#0440E800007FFFB3
(1713559790.801947) can0 174#E47F005D38790F86
(1713559790.802190) can0 178#0C8000000F930F85
(1713559790.802428) can0 17C#0A80010035690F3B
(1713559790.804145) can0 140#0000030000000000
(1713559790.809054) can0 410#2880008B9F6E8B21
(1713559790.809310) can0 12F#F8100320000000A2
(1713559790.809542) can0 12A#1428701C6058004C
(1713559790.809790) can0 12D#00000000000000BE
(1713559790.810036) can0 290#00000002000000B6
(1713559790.810278) can0 550#48000C0001000023
(1713559790.810543) can0 400#288000000000002A
(1713559790.811664) can0 551#000000000004C000
(1713559790.811897) can0 174#E67F005D3B79000B
(1713559790.812181) can0 178#088001380C930042
(1713559790.812419) can0 17C#048001002F690096
(1713559790.812662) can0 5D1#9958000200000000
(1713559790.815708) can0 120#000000080700008E
(1713559790.815948) can0 121#000000000000008B
(1713559790.816190) can0 129#000000010000008F
(1713559790.819102) can0 410#2880008B9F6E8B4B
(1713559790.819560) can0 12F#F8100320000000C8
(1713559790.819794) can0 128#1388030000EC78C9
(1713559790.820038) can0 12D#00000000000000D4
(1713559790.820282) can0 12E#000000000000C0CF
(1713559790.820531) can0 290#00000002000000DC
(1713559790.820786) can0 400#2880000000000040
(1713559790.821716) can0 541#0440E800007FFFD9
(1713559790.821947) can0 174#E87F005D4A7901D0
(1713559790.822183) can0 178#088002320D9301D5
(1713559790.822423) can0 17C#008001002C69016E
(1713559790.824668) can0 140#0000030000000000
(1713559790.828142) can0 5D0#9958010200000000
(1713559790.828376) can0 5B1#008A9A6800000042
(1713559790.828614) can0 5CF#7444540000000000
(1713559790.829054) can0 410#2880008B9F6E8B7E
(1713559790.829310) can0 12F#F810032000000029
(1713559790.829556) can0 12D#0000000000000035
(1713559790.829805) can0 290#000000020000003D
(1713559790.830637) can0 400#2880000000000075
(1713559790.831341) can0 540#000000104000A000
(1713559790.831568) can0 5B0#63420000000000A3
(1713559790.831813) can0 551#000000000004C000
(1713559790.832043) can0 174#E67F005D5B790261
(1713559790.832277) can0 178#0880033214930203
(1713559790.832518) can0 17C#04800100216902A5
(1713559790.832764) can0 552#00FFFFFFFFFFFF90
(1713559790.833058) can0 5D1#9958000200000000
(1713559790.833304) can0 5D2#7444540000000000
(1713559790.833546) can0 450#005620001B004A00
(1713559790.835809) can0 120#00000008070000BB
(1713559790.836051) can0 121#00000000000000BE
(1713559790.836293) can0 129#00000001000000BA
(1713559790.839075) can0 410#2880008B9F6E8B9F
(1713559790.839659) can0 12F#F82003200000005E
(1713559790.839895) can0 128#1388030000EC7828
(1713559790.840145) can0 12D#000000000000005F
(1713559790.840389) can0 12E#000000000000C02E
(1713559790.840635) can0 290#0000000200000057
(1713559790.840881) can0 400#2880000000000094
(1713559790.841721) can0 541#0440E800007FFF38
(1713559790.841944) can0 174#E67F005D6779035E
(1713559790.842179) can0 178#068004351C9303EC
(1713559790.842417) can0 17C#0A8001001B69039E
(1713559790.845192) can0 140#0000030000000000
(1713559790.847260) can0 6B9#0020400000000000
(1713559790.847510) can0 4EA#0000000000000000
(1713559790.847753) can0 5A2#1410140000000000
(1713559790.847999) can0 5B2#0800000000000000
(1713559790.848244) can0 310#FFFFFFFF7D7D0000
(1713559790.848995) can0 410#2880008B9F6E8BAA
(1713559790.849321) can0 12F#F810032000000076
(1713559790.849567) can0 12D#000000000000006A
(1713559790.849815) can0 290#0000000200000062
(1713559790.850741) can0 400#28800000000000A1
(1713559790.851668) can0 551#000000000004C000
(1713559790.851900) can0 174#EA7F005D697904BF
(1713559790.852140) can0 178#068000001F93043A
(1713559790.852380) can0 17C#0680010021690451
(1713559790.852620) can0 5D1#9958000200000000
(1713559790.855909) can0 120#00000008070000D1
(1713559790.856147) can0 121#00000000000000D4
(1713559790.856388) can0 129#00000001000000D0
(1713559790.859021) can0 410#2880008B9F6E8BC0
(1713559790.859534) can0 12F#F810032000000097
(1713559790.859766) can0 128#1388030000EC7842
(1713559790.859998) can0 12A#1428701C60580079
(1713559790.860245) can0 12D#000000000000008B
(1713559790.860488) can0 12E#000000000000C044
(1713559790.860740) can0 290#0000000200000083
(1713559790.860987) can0 400#28800000000000CB
(1713559790.861231) can0 550#48000C0001000049
(1713559790.861469) can0 5A0#0000006244928076
(1713559790.861711) can0 541#0440E800007FFF52
(1713559790.861956) can0 174#F07F005D6379057C
(1713559790.862182) can0 178#0480013218930535
(1713559790.862423) can0 17C#FE7F01002C6905BB
(1713559790.865723) can0 140#0000030000000000
(1713559790.868945) can0 410#2880008B9F6E8B21
(1713559790.869343) can0 12F#F8100320000000A2
(1713559790.869591) can0 12D#00000000000000BE
(1713559790.869837) can0 290#00000002000000B6
(1713559790.870841) can0 400#288000000000002A
(1713559790.871664) can0 551#000000000004C000
(1713559790.871896) can0 174#F47F005D5E79069F
(1713559790.872133) can0 178#00800230129306ED
(1713559790.872372) can0 17C#F87F01003269065E
(1713559790.872612) can0 5D1#9958000200000000
(1713559790.876006) can0 120#0000000807000030
(1713559790.876249) can0 121#0000000000000035
(1713559790.876493) can0 129#0000000100000031
(1713559790.878966) can0 410#2880008B9F6E8B4B
(1713559790.879558) can0 12F#F8200320000000D5
(1713559790.879788) can0 128#1388030000EC7877
(1713559790.880031) can0 12D#00000000000000D4
(1713559790.880280) can0 12E#000000000000C071
(1713559790.880528) can0 290#00000002000000DC
(1713559790.880925) can0 400#2880000000000040
(1713559790.881735) can0 541#0440E800007FFF67
(1713559790.881975) can0 174#F87F005D5B7907B0
(1713559790.882216) can0 178#FE7F033214930719
(1713559790.882453) can0 17C#F87F010032690743
(1713559790.882696) can0 552#00FFFFFFFFFFFFA5
(1713559790.882941) can0 450#005620001B004A00
(1713559790.886189) can0 140#0000030000000000
(1713559790.888895) can0 410#2880008B9F6E8B7E
(1713559790.889351) can0 12F#F810032000000029
(1713559790.889597) can0 12D#0000000000000035
(1713559790.889846) can0 290#000000020000003D
(1713559790.890936) can0 400#2880000000000075
(1713559790.891661) can0 551#000000000004C000
(1713559790.891893) can0 174#FA7F005D56790834
(1713559790.892122) can0 178#FE7F0433179308B8
(1713559790.892361) can0 17C#FC7F01002F69080C
(1713559790.892601) can0 5D1#9958000200000000
(1713559790.896100) can0 120#000000080700005A
(1713559790.896345) can0 121#000000000000005F
(1713559790.896589) can0 129#000000010000005B
(1713559790.898609) can0 410#2880008B9F6E8B9F
(1713559790.899540) can0 12F#F810032000000043
(1713559790.899772) can0 128#1388030000EC7896
(1713559790.900021) can0 12D#000000000000005F
(1713559790.900267) can0 12E#000000000000C090
(1713559790.900514) can0 290#001000020000005C
(1713559790.901021) can0 400#2880000000000094
(1713559790.901708) can0 541#0440E800007FFF86
(1713559790.901944) can0 174#F87F005D4E790987
(1713559790.902175) can0 178#FA7F053118930907
(1713559790.902425) can0 17C#008001002C690986
(1713559790.906715) can0 140#0000030000000000
(1713559790.908531) can0 410#2880008B9F6E8BAA
(1713559790.909308) can0 12F#F810032000000076
(1713559790.909543) can0 12A#1428701C60580098
(1713559790.909789) can0 12D#000000000000006A
(1713559790.910033) can0 290#0010000200000069
(1713559790.910276) can0 550#48000C000100007C
(1713559790.911033) can0 400#28800000000000A1
(1713559790.911658) can0 551#000000000004C000
(1713559790.911889) can0 174#F27F005D40790AC1
(1713559790.912123) can0 178#EE7F063015930A56
(1713559790.912360) can0 17C#048001002A690ACD
(1713559790.912600) can0 5D1#9958000200000000
(1713559790.916202) can0 120#000000080700006F
(1713559790.916450) can0 121#000000000000006A
(1713559790.916698) can0 129#000000010000006E
(1713559790.918556) can0 410#2880008B9F6E8BC0
(1713559790.919602) can0 12F#F82003200000008A
(1713559790.919836) can0 128#1388030000EC78A3
(1713559790.920082) can0 12D#000000000000008B
(1713559790.920326) can0 12E#000000000000C0A5
(1713559790.920577) can0 290#0010000200000088
(1713559790.921119) can0 400#28800000000000CB
(1713559790.921711) can0 541#0440E800007FFFB3
(1713559790.921941) can0 174#F07F005D3B790BAE
(1713559790.922173) can0 178#EA7F073112930B5F
(1713559790.922413) can0 17C#0880010029690BE7
(1713559790.922979) can0 6AB#A5CD1C2E77A3E100
(1713559790.927238) can0 140#0000030000000000
(1713559790.927475) can0 5B1#008A9A6800000077
(1713559790.927716) can0 5D0#9958010200000000
(1713559790.927954) can0 5CF#7444540000000000
(1713559790.928479) can0 410#2880008B9F6E8B21
(1713559790.929310) can0 12F#F8100320000000A2
(1713559790.929558) can0 12D#00000000000000BE
(1713559790.929804) can0 290#00100002000000BD
(1713559790.931131) can0 400#288000000000002A
(1713559790.931688) can0 551#000000000004C000
(1713559790.931919) can0 174#F27F005D3F790C41
(1713559790.932151) can0 178#EC7F083814930CA7
(1713559790.932389) can0 17C#0A80010029690C0E
(1713559790.932635) can0 540#000000104000A000
(1713559790.932882) can0 552#00FFFFFFFFFFFFCF
(1713559790.933123) can0 5B0#63420000000000C9
(1713559790.933362) can0 5D1#9958000200000000
(1713559790.933646) can0 5D2#7444540000000000
(1713559790.933894) can0 450#005620001B004A00
(1713559790.936294) can0 120#000000080700008E
(1713559790.936536) can0 121#000000000000008B
(1713559790.936779) can0 129#000000010000008F
(1713559790.938500) can0 410#2880008B9F6E8B4B
(1713559790.939616) can0 12F#F8100320000000C8
(1713559790.939851) can0 128#1388030000EC78C9
(1713559790.940094) can0 12D#00000000000000D4
(1713559790.940339) can0 12E#000000000000C0CF
(1713559790.940587) can0 290#00000002000000DC
(1713559790.941215) can0 400#2880000000000040
(1713559790.941706) can0 541#0440E800007FFFD9
(1713559790.941939) can0 174#F47F005D40790D41
(1713559790.942174) can0 178#F47F000017930DD9
(1713559790.942412) can0 17C#0A80010027690D1A
(1713559790.947288) can0 4EA#0000000000000000
(1713559790.947526) can0 5B2#0800000000000000
(1713559790.947769) can0 310#FFFFFFFF7D7D0000
(1713559790.948019) can0 140#0000030000000000
(1713559790.948267) can0 6B9#0020400000000000
(1713559790.948507) can0 410#2880008B9F6E8B7E
(1713559790.948752) can0 5A2#1410140000000000
(1713559790.949358) can0 12F#F810032000000029
(1713559790.949604) can0 12D#0000000000000035
(1713559790.949851) can0 290#000000020000003D
(1713559790.951226) can0 400#2880000000000075
(1713559790.951663) can0 551#000000000004C000
(1713559790.951892) can0 174#F27F005D3A790EF2
(1713559790.952128) can0 178#FA7F000017930EFF
(1713559790.952367) can0 17C#0680010029690E8F
(1713559790.952607) can0 5D1#9958000200000000
(1713559790.956340) can0 120#00000008070000BB
(1713559790.956585) can0 121#00000000000000BE
(1713559790.956827) can0 129#00000001000000BA
(1713559790.958402) can0 410#2880008B9F6E8B9F
(1713559790.959489) can0 12F#F82003200000005E
(1713559790.959725) can0 128#1388030000EC7828
(1713559790.960007) can0 12A#1428701C605800AD
(1713559790.960258) can0 12D#000000000000005F
(1713559790.960502) can0 12E#000000000000C02E
(1713559790.960748) can0 290#0000000200000057
(1713559790.960990) can0 550#48000C000100009D
(1713559790.961229) can0 5A0#0000006244928097
(1713559790.961473) can0 400#2880000000000094
(1713559790.961716) can0 541#0440E800007FFF38
(1713559790.961949) can0 174#EE7F005D32790FE1
(1713559790.962182) can0 178#FC7F015217930FCD
(1713559790.962419) can0 17C#028001002C690F72
(1713559790.968332) can0 140#0000030000000000
(1713559790.968574) can0 410#2880008B9F6E8BAA
(1713559790.969397) can0 12F#F810032000000076
(1713559790.969641) can0 12D#000000000000006A
(1713559790.969889) can0 290#0000000200000062
(1713559790.971396) can0 400#28800000000000A1
(1713559790.971724) can0 551#000000000004C000
(1713559790.971956) can0 174#EA7F005D2D7900AD
(1713559790.972188) can0 178#FC7F026F1A93006D
(1713559790.972412) can0 17C#008001002D6900FC
(1713559790.972625) can0 5D1#9958000200000000
(1713559790.976441) can0 120#00000008070000D1
(1713559790.976684) can0 121#00000000000000D4
(1713559790.976927) can0 129#00000001000000D0
(1713559790.978347) can0 410#2880008B9F6E8BC0
(1713559790.979484) can0 12F#F810032000000097
(1713559790.979718) can0 128#1388030000EC7842
(1713559790.979963) can0 12D#000000000000008B
(1713559790.980207) can0 12E#000000000000C044
(1713559790.980459) can0 290#0000000200000083
(1713559790.981421) can0 400#28800000000000CB
(1713559790.981745) can0 541#0440E800007FFF52
(1713559790.981975) can0 174#EA7F005D2A79013A
(1713559790.982209) can0 178#FC7F0362239301FE
(1713559790.982455) can0 17C#008001003269017F
(1713559790.982700) can0 552#00FFFFFFFFFFFF2E
(1713559790.982944) can0 450#005620001B004A00
(1713559790.988367) can0 410#2880008B9F6E8B21
(1713559790.988852) can0 140#0000030000000000
(1713559790.989404) can0 12F#F8100320000000A2
(1713559790.989658) can0 12D#00000000000000BE
(1713559790.989898) can0 290#00000002000000B6
(1713559790.991473) can0 400#288000000000002A
(1713559790.991717) can0 551#000000000004C000
(1713559790.991951) can0 174#E87F005D2D79022D
(1713559790.992185) can0 178#FC7F0465289302A6
(1713559790.992427) can0 17C#FE7F0100346902FC
(1713559790.992668) can0 5D1#9958000200000000
(1713559790.996543) can0 120#0000000807000030
(1713559790.996789) can0 121#0000000000000035
(1713559790.997034) can0 129#0000000100000031
(1713559790.998292) can0 410#2880008B9F6E8B4B
(1713559790.999485) can0 12F#F8200320000000D5
(1713559790.999719) can0 128#1388030000EC7877
(1713559790.999963) can0 12D#00000000000000D4
(1713559791.000211) can0 12E#000000000000C071
(1713559791.000454) can0 290#00200002000000CA
(1713559791.001524) can0 400#2880000000000040
(1713559791.001769) can0 541#0440E800007FFF67
(1713559791.001999) can0 174#EC7F005D387903C8
(1713559791.002231) can0 178#0280057225930324
(1713559791.002471) can0 17C#FE7F01002C6903F5
(1713559791.008329) can0 410#2880008B9F6E8B7E
(1713559791.009357) can0 12F#F810032000000029
(1713559791.009594) can0 12A#1428701C605800C7
(1713559791.009846) can0 12D#0000000000000035
(1713559791.010091) can0 140#0000030000000000
(1713559791.010335) can0 290#002000020000002B
