(1713559738.183989) can0 541#0440E800007FFF52
(1713559738.184220) can0 552#00FFFFFFFFFFFF2E
(1713559738.184454) can0 174#EE7F005D3279037D
(1713559738.184686) can0 178#F27F00001893032A
(1713559738.184918) can0 17C#FC7F01004B690395
(1713559738.185158) can0 450#005600001B004A00
(1713559738.186670) can0 400#2880000000000040
(1713559738.189079) can0 140#0000030000000000
(1713559738.189933) can0 12F#F8100320000000A2
(1713559738.190178) can0 12D#00000000000000BE
(1713559738.190425) can0 290#00000002000000B6
(1713559738.190660) can0 410#2880008B9F6E8BAA
(1713559738.193895) can0 551#000000000004C000
(1713559738.194145) can0 5D1#9958000200000000
(1713559738.194375) can0 174#EE7F005D377904A7
(1713559738.194609) can0 178#EE7F0000279304D5
(1713559738.194845) can0 17C#F67F01004069042E
(1713559738.196658) can0 400#2880000000000075
(1713559738.199602) can0 12F#F8100320000000C8
(1713559738.199836) can0 128#1388030000EC7877
(1713559738.200079) can0 12D#00000000000000D4
(1713559738.200327) can0 12E#000000000000C071
(1713559738.200576) can0 290#00000002000000DC
(1713559738.200834) can0 410#2880008B9F6E8BC0
(1713559738.201853) can0 120#000000080700005A
(1713559738.202100) can0 121#000000000000005F
(1713559738.202344) can0 129#000000010000005B
(1713559738.203914) can0 541#0440E800007FFF67
(1713559738.204280) can0 174#EE7F005D40790578
(1713559738.204516) can0 178#F07F000D2E9305BC
(1713559738.204756) can0 17C#F67F0100376905F1
(1713559738.206729) can0 400#2880000000000094
(1713559738.209551) can0 140#0000030000000000
(1713559738.209790) can0 550#48000C00010000A8
(1713559738.210026) can0 12A#1428701C605800C7
(1713559738.210272) can0 12D#0000000000000035
(1713559738.210514) can0 12F#F810032000000029
(1713559738.210762) can0 290#000000020000003D
(1713559738.210998) can0 410#2880008B9F6E8B21
(1713559738.213895) can0 551#000000000004C000
(1713559738.214142) can0 5D1#9958000200000000
(1713559738.214372) can0 174#EE7F005D4279065C
(1713559738.214608) can0 178#F67F000027930684
(1713559738.214846) can0 17C#FC7F01003A69063B
(1713559738.216757) can0 400#28800000000000A1
(1713559738.219647) can0 12F#F810032000000043
(1713559738.219878) can0 128#1388030000EC7896
(1713559738.220126) can0 12D#000000000000005F
(1713559738.220379) can0 12E#000000000000C090
(1713559738.220622) can0 290#0000000200000057
(1713559738.220859) can0 410#2880008B9F6E8B4B
(1713559738.221978) can0 120#000000080700006F
(1713559738.222230) can0 121#000000000000006A
(1713559738.222478) can0 129#000000010000006E
(1713559738.222714) can0 5B1#008A9A6800000096
(1713559738.222955) can0 5D0#9958010200000000
(1713559738.223194) can0 5CF#7444540000000000
(1713559738.223938) can0 541#0440E800007FFF86
(1713559738.224310) can0 174#EA7F005D3B7907E3
(1713559738.224546) can0 178#FA7F0136189307E0
(1713559738.224784) can0 17C#028001004369074C
(1713559738.226845) can0 400#28800000000000CB
(1713559738.229887) can0 12F#F810032000000076
(1713559738.230131) can0 12D#000000000000006A
(1713559738.230382) can0 140#0000030000000000
(1713559738.230629) can0 290#0000000200000062
(1713559738.230869) can0 410#2880008B9F6E8B7E
(1713559738.234329) can0 551#000000000004C000
(1713559738.234555) can0 174#E67F005D377908E9
(1713559738.234790) can0 178#FA7F02300F93081E
(1713559738.235025) can0 17C#048001004E6908A1
(1713559738.235269) can0 552#00FFFFFFFFFFFF44
(1713559738.235518) can0 5D1#9958000200000000
(1713559738.235761) can0 5D2#7444540000000000
(1713559738.236011) can0 450#005600001B004A00
(1713559738.236905) can0 400#288000000000002A
(1713559738.239717) can0 12F#F810032000000097
(1713559738.239943) can0 128#1388030000EC78A3
(1713559738.240187) can0 12D#000000000000008B
(1713559738.240431) can0 12E#000000000000C0A5
(1713559738.240683) can0 290#0000000200000083
(1713559738.240923) can0 410#2880008B9F6E8B9F
(1713559738.241171) can0 6B9#0020400000000000
(1713559738.241416) can0 5A2#1410140000000000
(1713559738.242074) can0 120#000000080700008E
(1713559738.242318) can0 121#000000000000008B
(1713559738.242560) can0 129#000000010000008F
(1713559738.243892) can0 541#0440E800007FFFB3
(1713559738.244274) can0 174#E67F005D34790978
(1713559738.244506) can0 178#F87F03310993094B
(1713559738.244747) can0 17C#00800100586909C8
(1713559738.246906) can0 400#2880000000000040
(1713559738.249838) can0 12F#F8100320000000A2
(1713559738.250085) can0 12D#00000000000000BE
(1713559738.250331) can0 290#00000002000000B6
(1713559738.250581) can0 140#0000030000000000
(1713559738.250817) can0 410#2880008B9F6E8BAA
(1713559738.253949) can0 551#000000000004C000
(1713559738.254197) can0 5D1#9958000200000000
(1713559738.254426) can0 174#E67F005D32790A5A
(1713559738.254665) can0 178#FC7F043804930A8A
(1713559738.254896) can0 17C#FE7F01005B690AC2
(1713559738.255709) can0 4EA#0000000000000000
(1713559738.255941) can0 5B2#0800000000000000
(1713559738.256188) can0 310#FFFFFFFF7D7D0000
(1713559738.257005) can0 400#2880000000000075
(1713559738.259666) can0 12F#F8100320000000C8
(1713559738.259899) can0 128#1388030000EC78C9
(1713559738.260135) can0 12A#1428701C60580026
(1713559738.260377) can0 12D#00000000000000D4
(1713559738.260621) can0 12E#000000000000C0CF
(1713559738.260869) can0 290#00000002000000DC
(1713559738.261109) can0 410#2880008B9F6E8BC0
(1713559738.261351) can0 550#48000C00010000C2
(1713559738.261589) can0 5A0#00000062449280A2
(1713559738.262176) can0 120#00000008070000BB
(1713559738.262421) can0 121#00000000000000BE
(1713559738.262664) can0 129#00000001000000BA
(1713559738.263890) can0 541#0440E800007FFFD9
(1713559738.264282) can0 174#E67F005D2D790BD9
(1713559738.264513) can0 178#0680053104930B34
(1713559738.264754) can0 17C#0080010056690BFB
(1713559738.267006) can0 400#2880000000000094
(1713559738.269807) can0 410#2880008B9F6E8B21
(1713559738.270053) can0 12D#0000000000000035
(1713559738.270295) can0 12F#F810032000000029
(1713559738.270542) can0 290#000000020000003D
(1713559738.271082) can0 140#0000030000000000
(1713559738.273947) can0 551#000000000004C000
(1713559738.274195) can0 5D1#9958000200000000
(1713559738.274423) can0 174#E67F005D25790C86
(1713559738.274655) can0 178#088006320D930CE1
(1713559738.274891) can0 17C#008001004A690CBA
(1713559738.277100) can0 400#28800000000000A1
(1713559738.277752) can0 540#0000001040009F00
(1713559738.277994) can0 5B0#6342000000000096
(1713559738.279706) can0 12F#F810032000000043
(1713559738.279942) can0 128#1388030000EC7828
(1713559738.280201) can0 12D#000000000000005F
(1713559738.280438) can0 12E#000000000000C02E
(1713559738.280682) can0 290#0000000200000057
(1713559738.280920) can0 410#2880008B9F6E8B4B
(1713559738.282267) can0 120#00000008070000D1
(1713559738.282511) can0 121#00000000000000D4
(1713559738.282753) can0 129#00000001000000D0
(1713559738.283964) can0 541#0440E800007FFF38
(1713559738.284165) can0 552#00FFFFFFFFFFFF71
(1713559738.284397) can0 174#E47F005D1F790D06
(1713559738.284626) can0 178#0280073917930DCF
(1713559738.284867) can0 17C#008001003D690D65
(1713559738.285107) can0 450#005600001B004A00
(1713559738.287103) can0 400#28800000000000CB
(1713559738.289784) can0 410#2880008B9F6E8B7E
(1713559738.290029) can0 12D#000000000000006A
(1713559738.290274) can0 12F#F810032000000076
(1713559738.290522) can0 290#0000000200000062
(1713559738.291602) can0 140#0000030000000000
(1713559738.293946) can0 551#000000000004C000
(1713559738.294194) can0 5D1#9958000200000000
(1713559738.294426) can0 174#E67F005D25790EBC
(1713559738.294660) can0 178#FC7F082D20930EFC
(1713559738.294898) can0 17C#0080010037690E4D
(1713559738.297199) can0 400#288000000000002A
(1713559738.299662) can0 12F#F810032000000097
(1713559738.299895) can0 128#1388030000EC7842
(1713559738.300141) can0 12D#000000000000008B
(1713559738.300393) can0 12E#000000000000C044
(1713559738.300639) can0 290#0000000200000083
(1713559738.300878) can0 410#2880008B9F6E8B9F
(1713559738.302364) can0 120#0000000807000030
(1713559738.302612) can0 121#0000000000000035
(1713559738.302856) can0 129#0000000100000031
(1713559738.303943) can0 541#0440E800007FFF52
(1713559738.304302) can0 174#EA7F005D34790F8D
(1713559738.304537) can0 178#FA7F093028930F3E
(1713559738.304772) can0 17C#FE7F01003A690F74
(1713559738.307200) can0 400#2880000000000040
(1713559738.309647) can0 550#48000C0001000023
(1713559738.309887) can0 12F#F8100320000000A2
(1713559738.310120) can0 12A#1428701C6058004C
(1713559738.310368) can0 12D#00000000000000BE
(1713559738.310614) can0 290#00000002000000B6
(1713559738.310849) can0 410#2880008B9F6E8BAA
(1713559738.312176) can0 140#0000030000000000
(1713559738.313942) can0 551#000000000004C000
(1713559738.314190) can0 5D1#9958000200000000
(1713559738.314425) can0 174#EA7F005D3F7900B6
(1713559738.314654) can0 178#FA7F0A322793009A
(1713559738.314892) can0 17C#FE7F01003769004A
(1713559738.317292) can0 400#2880000000000075
(1713559738.319693) can0 12F#F8100320000000C8
(1713559738.319925) can0 128#1388030000EC7877
(1713559738.320169) can0 12D#00000000000000D4
(1713559738.320417) can0 12E#000000000000C071
(1713559738.320674) can0 290#00000002000000DC
(1713559738.320907) can0 410#2880008B9F6E8BC0
(1713559738.322360) can0 5D0#9958010200000000
(1713559738.322604) can0 120#000000080700005A
(1713559738.322852) can0 121#000000000000005F
(1713559738.323097) can0 129#000000010000005B
(1713559738.323361) can0 5B1#008A9A68000000A3
(1713559738.323573) can0 5CF#7444540000000000
(1713559738.323961) can0 541#0440E800007FFF67
(1713559738.324363) can0 174#EA7F005C45790171
(1713559738.324542) can0 178#FE7F0B361D9301ED
(1713559738.324783) can0 17C#FE7F01002A6901CA
(1713559738.327297) can0 400#2880000000000094
(1713559738.329673) can0 410#2880008B9F6E8B21
(1713559738.329918) can0 12D#0000000000000035
(1713559738.330160) can0 12F#F810032000000029
(1713559738.330408) can0 290#000000020000003D
(1713559738.332638) can0 140#0000030000000000
(1713559738.333919) can0 551#000000000004C000
(1713559738.334227) can0 552#00FFFFFFFFFFFF90
(1713559738.334462) can0 174#EA7F005D4A79024D
(1713559738.334695) can0 178#06800C30179302D5
(1713559738.334936) can0 17C#02800100226902FA
(1713559738.335176) can0 5D1#9958000200000000
(1713559738.335419) can0 5D2#7444540000000000
(1713559738.335667) can0 450#005600001B004A00
(1713559738.337388) can0 400#28800000000000A1
(1713559738.339701) can0 410#2880008B9F6E8B4B
(1713559738.339932) can0 128#1388030000EC7896
(1713559738.340182) can0 12D#000000000000005F
(1713559738.340428) can0 12E#000000000000C090
(1713559738.340672) can0 12F#F810032000000043
(1713559738.340918) can0 290#0000000200000057
(1713559738.341166) can0 6B9#0020400000000000
(1713559738.341411) can0 5A2#1410140000000000
(1713559738.342555) can0 120#000000080700006F
(1713559738.342814) can0 121#000000000000006A
(1713559738.343057) can0 129#000000010000006E
(1713559738.343942) can0 541#0440E800007FFF86
(1713559738.344376) can0 174#EA7F005D4E790356
(1713559738.344614) can0 178#0E800000159303B4
(1713559738.344854) can0 17C#088001002269038F
(1713559738.347396) can0 400#28800000000000CB
(1713559738.349595) can0 410#2880008B9F6E8B7E
(1713559738.349863) can0 12F#F810032000000076
(1713559738.350110) can0 12D#000000000000006A
(1713559738.350358) can0 290#0000000200000062
(1713559738.353153) can0 140#0000030000000000
(1713559738.353891) can0 551#000000000004C000
(1713559738.354140) can0 5D1#9958000200000000
(1713559738.354372) can0 174#E87F005D4E7904BF
(1713559738.354632) can0 178#0C80013015930458
(1713559738.354897) can0 17C#0A800100216904EA
(1713559738.355493) can0 4EA#0000000000000000
(1713559738.355735) can0 5B2#0800000000000000
(1713559738.355982) can0 310#FFFFFFFF7D7D0000
(1713559738.357489) can0 400#288000000000002A
(1713559738.359643) can0 410#2880008B9F6E8B9F
(1713559738.359878) can0 128#1388030000EC78A3
(1713559738.360110) can0 12A#1428701C60580079
(1713559738.360356) can0 12D#000000000000008B
(1713559738.360604) can0 12E#000000000000C0A5
(1713559738.360849) can0 12F#F810032000000097
(1713559738.361099) can0 290#0000000200000083
(1713559738.361339) can0 550#48000C0001000049
(1713559738.361575) can0 5A0#00000062449280C8
(1713559738.362661) can0 120#000000080700008E
(1713559738.362902) can0 121#000000000000008B
(1713559738.363141) can0 129#000000010000008F
(1713559738.363949) can0 541#0440E800007FFFB3
(1713559738.364370) can0 174#EA7F005D4D790594
(1713559738.364603) can0 178#0680023218930531
(1713559738.364841) can0 17C#06800100166905EE
(1713559738.367546) can0 400#2880000000000040
(1713559738.369589) can0 410#2880008B9F6E8BAA
(1713559738.369869) can0 12F#F8100320000000A2
(1713559738.370117) can0 12D#00000000000000BE
(1713559738.370363) can0 290#00000002000000B6
(1713559738.373673) can0 140#0000030000000000
(1713559738.373918) can0 551#000000000004C000
(1713559738.374168) can0 5D1#9958000200000000
(1713559738.374400) can0 174#F07F005D4B790667
(1713559738.374636) can0 178#008003361D930668
(1713559738.374876) can0 17C#088001000E6906DC
(1713559738.377584) can0 400#2880000000000075
(1713559738.378235) can0 540#000000104000A000
(1713559738.378477) can0 5B0#63420000000000A3
(1713559738.379643) can0 410#2880008B9F6E8BC0
(1713559738.379877) can0 128#1388030000EC78C9
(1713559738.380121) can0 12D#00000000000000D4
(1713559738.380365) can0 12E#000000000000C0CF
(1713559738.380605) can0 12F#F8100320000000C8
(1713559738.380853) can0 290#00000002000000DC
(1713559738.382739) can0 120#00000008070000BB
(1713559738.382985) can0 121#00000000000000BE
(1713559738.383228) can0 129#00000001000000BA
(1713559738.383956) can0 541#0440E800007FFFD9
(1713559738.384212) can0 552#00FFFFFFFFFFFFA5
(1713559738.384442) can0 174#F47F005D46790796
(1713559738.384683) can0 178#008004351F9307C7
(1713559738.384921) can0 17C#0C80010011690736
(1713559738.385160) can0 450#005600001B004A00
(1713559738.387646) can0 400#2880000000000094
(1713559738.389591) can0 410#2880008B9F6E8B21
(1713559738.389927) can0 12F#F810032000000029
(1713559738.390172) can0 12D#0000000000000035
(1713559738.390421) can0 290#000000020000003D
(1713559738.393892) can0 551#000000000004C000
(1713559738.394140) can0 5D1#9958000200000000
(1713559738.394390) can0 140#0000030000000000
(1713559738.394619) can0 174#F47F005D3F7908E6
(1713559738.394851) can0 178#0280053017930873
(1713559738.395091) can0 17C#108001001E690809
(1713559738.397679) can0 400#28800000000000A1
(1713559738.399640) can0 410#2880008B9F6E8B4B
(1713559738.399878) can0 128#1388030000EC7828
(1713559738.400127) can0 12D#000000000000005F
(1713559738.400372) can0 12E#000000000000C02E
(1713559738.400616) can0 12F#F810032000000043
(1713559738.400862) can0 290#0000000200000057
(1713559738.402830) can0 120#00000008070000D1
(1713559738.403074) can0 121#00000000000000D4
(1713559738.403317) can0 129#00000001000000D0
(1713559738.403938) can0 541#0440E800007FFF38
(1713559738.404392) can0 174#F07F005C3B790909
(1713559738.404617) can0 178#F87F06310F930991
(1713559738.404849) can0 17C#0E8001003169091A
(1713559738.407736) can0 400#28800000000000CB
(1713559738.409592) can0 410#2880008B9F6E8B7E
(1713559738.409835) can0 550#48000C000100007C
(1713559738.410069) can0 12A#1428701C60580098
(1713559738.410316) can0 12D#000000000000006A
(1713559738.410559) can0 12F#F810032000000076
(1713559738.410808) can0 290#0000000200000062
(1713559738.413887) can0 551#000000000004C000
(1713559738.414136) can0 5D1#9958000200000000
(1713559738.414369) can0 174#EE7F005D40790AC3
(1713559738.414597) can0 178#EE7F07310D930AB5
(1713559738.414846) can0 140#0000030000000000
(1713559738.415080) can0 17C#0680010042690A2B
(1713559738.417779) can0 400#288000000000002A
(1713559738.419643) can0 410#2880008B9F6E8B9F
(1713559738.419875) can0 128#1388030000EC7842
(1713559738.420121) can0 12D#000000000000008B
(1713559738.420365) can0 12E#000000000000C044
(1713559738.420607) can0 12F#F810032000000097
(1713559738.420857) can0 290#0010000200000088
(1713559738.422367) can0 5D0#9958010200000000
(1713559738.422603) can0 5B1#008A9A68000000C9
(1713559738.422841) can0 5CF#7444540000000000
(1713559738.423088) can0 120#0000000807000030
(1713559738.423350) can0 121#0000000000000035
(1713559738.423581) can0 129#0000000100000031
(1713559738.424386) can0 174#EE7F005D43790B52
(1713559738.424620) can0 178#F07F083112930BF2
(1713559738.424859) can0 17C#FC7F010040690BFD
(1713559738.426410) can0 541#0440E800007FFF52
(1713559738.427843) can0 400#2880000000000040
(1713559738.429587) can0 410#2880008B9F6E8BAA
(1713559738.429840) can0 12F#F8100320000000A2
(1713559738.430089) can0 12D#00000000000000BE
(1713559738.430335) can0 290#00100002000000BD
(1713559738.433910) can0 551#000000000004C000
(1713559738.434166) can0 552#00FFFFFFFFFFFFCF
(1713559738.434395) can0 174#F07F005D43790CB9
(1713559738.434626) can0 178#FC7F093018930CE2
(1713559738.434861) can0 17C#FE7F010031690CD3
(1713559738.435101) can0 5D1#9958000200000000
(1713559738.435352) can0 140#0000030000000000
(1713559738.435589) can0 5D2#7444540000000000
(1713559738.435900) can0 450#005600001B004A00
(1713559738.437873) can0 400#2880000000000075
(1713559738.439645) can0 410#2880008B9F6E8BC0
(1713559738.439876) can0 128#1388030000EC7877
(1713559738.440120) can0 12D#00000000000000D4
(1713559738.440368) can0 12E#000000000000C071
(1713559738.440608) can0 12F#F8100320000000C8
(1713559738.440857) can0 290#00000002000000DC
(1713559738.441105) can0 6B9#0020400000000000
(1713559738.441348) can0 5A2#1410140000000000
(1713559738.443021) can0 120#000000080700005A
(1713559738.443269) can0 121#000000000000005F
(1713559738.443514) can0 129#000000010000005B
(1713559738.443934) can0 541#0440E800007FFF67
(1713559738.444394) can0 174#F47F005D3A790D06
(1713559738.444636) can0 178#00800A381F930D4C
(1713559738.444869) can0 17C#048001002C690D9B
(1713559738.447930) can0 400#2880000000000094
(1713559738.449588) can0 410#2880008B9F6E8B21
(1713559738.449838) can0 12F#F810032000000029
(1713559738.450084) can0 12D#0000000000000035
(1713559738.450332) can0 290#000000020000003D
(1713559738.453889) can0 551#000000000004C000
(1713559738.454138) can0 5D1#9958000200000000
(1713559738.454368) can0 174#F27F005D2F790E63
(1713559738.454607) can0 178#FE7F00001D930E99
(1713559738.454845) can0 17C#0480010031690E21
(1713559738.455240) can0 4EA#0000000000000000
(1713559738.455486) can0 5B2#0800000000000000
(1713559738.455731) can0 310#FFFFFFFF7D7D0000
(1713559738.455981) can0 140#0000030000000000
(1713559738.457971) can0 400#28800000000000A1
(1713559738.459643) can0 410#2880008B9F6E8B4B
(1713559738.459874) can0 128#1388030000EC7896
(1713559738.460108) can0 12A#1428701C605800AD
(1713559738.460358) can0 12D#000000000000005F
(1713559738.460604) can0 12E#000000000000C090
(1713559738.460848) can0 12F#F810032000000043
(1713559738.461094) can0 290#0000000200000057
(1713559738.461336) can0 550#48000C000100009D
(1713559738.461574) can0 5A0#0000006244928029
(1713559738.463127) can0 120#000000080700006F
(1713559738.463403) can0 121#000000000000006A
(1713559738.463627) can0 129#000000010000006E
(1713559738.463943) can0 541#0440E800007FFF86
(1713559738.464399) can0 174#EE7F005D2A790FF5
(1713559738.464633) can0 178#FE7F013014930F02
(1713559738.464879) can0 17C#0080010031690F55
(1713559738.468030) can0 400#28800000000000CB
(1713559738.469588) can0 410#2880008B9F6E8B7E
(1713559738.469877) can0 12F#F810032000000076
(1713559738.470124) can0 12D#000000000000006A
(1713559738.470371) can0 290#0000000200000062
(1713559738.473890) can0 551#000000000004C000
(1713559738.474141) can0 5D1#9958000200000000
(1713559738.474376) can0 174#EC7F005D2A7900F4
(1713559738.474618) can0 178#FE7F00000A9300AD
(1713559738.474856) can0 17C#FC7F010032690079
(1713559738.476261) can0 140#0000030000000000
(1713559738.478071) can0 400#288000000000002A
(1713559738.478719) can0 540#0000001040009F00
(1713559738.478959) can0 5B0#63420000000000C9
(1713559738.479605) can0 410#2880008B9F6E8B9F
(1713559738.479839) can0 128#1388030000EC78A3
(1713559738.480085) can0 12D#000000000000008B
(1713559738.480329) can0 12E#000000000000C0A5
(1713559738.480571) can0 12F#F810032000000097
(1713559738.480823) can0 290#0000000200000083
(1713559738.483201) can0 120#000000080700008E
(1713559738.483446) can0 121#000000000000008B
(1713559738.483688) can0 129#000000010000008F
(1713559738.483966) can0 541#0440E800007FFFB3
(1713559738.484220) can0 552#00FFFFFFFFFFFF2E
(1713559738.484454) can0 174#EC7F005D2F790160
(1713559738.484690) can0 178#FE7F015307930154
(1713559738.484930) can0 17C#F87F010037690184
(1713559738.485178) can0 450#005600001B004A00
(1713559738.488129) can0 400#2880000000000040
(1713559738.489521) can0 410#2880008B9F6E8BAA
(1713559738.489881) can0 12F#F8100320000000A2
(1713559738.490129) can0 12D#00000000000000BE
(1713559738.490375) can0 290#00000002000000B6
(1713559738.493885) can0 551#000000000004C000
(1713559738.494131) can0 5D1#9958000200000000
(1713559738.494367) can0 174#EA7F005D38790206
(1713559738.494601) can0 178#02800243099302FA
(1713559738.494841) can0 17C#F07F010037690271
(1713559738.496777) can0 140#0000030000000000
(1713559738.498114) can0 400#2880000000000075
(1713559738.499554) can0 410#2880008B9F6E8BC0
(1713559738.499786) can0 128#1388030000EC78C9
(1713559738.500028) can0 12D#00000000000000D4
(1713559738.500272) can0 12E#000000000000C0CF
(1713559738.500512) can0 12F#F8100320000000C8
(1713559738.500761) can0 290#00000002000000DC
(1713559738.503297) can0 120#00000008070000BB
(1713559738.503544) can0 121#00000000000000BE
(1713559738.503782) can0 129#00000001000000BA
(1713559738.504024) can0 541#0440E800007FFFD9
(1713559738.504408) can0 174#E87F005D387903A1
(1713559738.504646) can0 178#0A8003320D93033F
(1713559738.504884) can0 17C#EE7F01002D6903C3
(1713559738.508226) can0 400#2880000000000094
(1713559738.509521) can0 410#2880008B9F6E8B21
(1713559738.509759) can0 550#48000C00010000A8
(1713559738.509995) can0 12A#1428701C605800C7
(1713559738.510241) can0 12D#0000000000000035
(1713559738.510484) can0 12F#F810032000000029
(1713559738.510731) can0 290#000000020000003D
(1713559738.513885) can0 551#000000000004C000
(1713559738.514131) can0 5D1#9958000200000000
(1713559738.514371) can0 174#E87F005D307904FE
(1713559738.514607) can0 178#0E800430129304B7
(1713559738.514850) can0 17C#F47F01002A6904CB
(1713559738.517295) can0 140#0000030000000000
(1713559738.518210) can0 400#28800000000000A1
(1713559738.519445) can0 410#2880008B9F6E8B4B
(1713559738.519736) can0 12F#F810032000000043
(1713559738.519973) can0 128#1388030000EC7828
(1713559738.520226) can0 12D#000000000000005F
(1713559738.520467) can0 12E#000000000000C02E
(1713559738.520713) can0 290#001000020000005C
(1713559738.522369) can0 5D0#9958010200000000
(1713559738.522606) can0 5B1#008A9A6800000028
(1713559738.522844) can0 5CF#7444540000000000
(1713559738.523396) can0 120#00000008070000D1
(1713559738.523636) can0 121#00000000000000D4
(1713559738.523878) can0 129#00000001000000D0
(1713559738.524123) can0 541#0440E800007FFF38
(1713559738.524418) can0 174#EA7F005D2D7905C4
(1713559738.524652) can0 178#0880053014930516
(1713559738.524892) can0 17C#FE7F01002C6905BB
(1713559738.528324) can0 400#28800000000000CB
(1713559738.529467) can0 410#2880008B9F6E8B7E
(1713559738.529885) can0 12F#F810032000000076
(1713559738.530134) can0 12D#000000000000006A
(1713559738.530376) can0 290#0010000200000069
(1713559738.533902) can0 551#000000000004C000
(1713559738.534155) can0 552#00FFFFFFFFFFFF44
(1713559738.534391) can0 174#EC7F005D2F790633
(1713559738.534625) can0 178#008006321493067A
(1713559738.534865) can0 17C#068001002C6906EE
(1713559738.535108) can0 55A#0017160000000000
(1713559738.535355) can0 5D1#9958000200000000
(1713559738.535598) can0 5D2#7444540000000000
(1713559738.535846) can0 450#005600001B004A00
(1713559738.537806) can0 140#0000030000000000
(1713559738.538309) can0 400#288000000000002A
(1713559738.539087) can0 410#2880008B9F6E8B9F
(1713559738.539669) can0 12F#F810032000000097
(1713559738.539951) can0 128#1388030000EC7842
(1713559738.540199) can0 12D#000000000000008B
(1713559738.540441) can0 12E#000000000000C044
(1713559738.540693) can0 290#0000000200000083
(1713559738.540941) can0 6B9#0020400000000000
(1713559738.541187) can0 5A2#1410140000000000
(1713559738.543493) can0 120#0000000807000030
(1713559738.543740) can0 121#0000000000000035
(1713559738.543984) can0 129#0000000100000031
(1713559738.544226) can0 541#0440E800007FFF52
(1713559738.544458) can0 174#EA7F005D357907EA
(1713559738.544693) can0 178#FC7F07371593074A
(1713559738.544937) can0 17C#088001002969077B
(1713559738.548415) can0 400#2880000000000040
(1713559738.549106) can0 410#2880008B9F6E8BAA
(1713559738.549887) can0 12F#F8100320000000A2
(1713559738.550135) can0 12D#00000000000000BE
(1713559738.550384) can0 290#00000002000000B6
(1713559738.553883) can0 551#000000000004C000
(1713559738.554132) can0 5D1#9958000200000000
(1713559738.554381) can0 174#E27F005D3F79088C
(1713559738.554613) can0 178#FC7F085F179308CC
(1713559738.554849) can0 17C#0480010027690872
(1713559738.555098) can0 4EA#0000000000000000
(1713559738.555345) can0 5B2#0800000000000000
(1713559738.555590) can0 310#FFFFFFFF7D7D0000
(1713559738.558324) can0 140#0000030000000000
(1713559738.558571) can0 400#2880000000000075
(1713559738.559032) can0 410#2880008B9F6E8BC0
(1713559738.559605) can0 12F#F8100320000000C8
(1713559738.559887) can0 128#1388030000EC7877
(1713559738.560121) can0 12A#1428701C60580026
(1713559738.560365) can0 12D#00000000000000D4
(1713559738.560615) can0 12E#000000000000C071
(1713559738.560861) can0 290#00000002000000DC
(1713559738.561104) can0 550#48000C00010000C2
(1713559738.561343) can0 5A0#0000006244928043
(1713559738.563586) can0 120#000000080700005A
(1713559738.563832) can0 121#000000000000005F
(1713559738.564076) can0 129#000000010000005B
(1713559738.564320) can0 541#0440E800007FFF67
(1713559738.564548) can0 174#DC7F005D4679098D
(1713559738.564778) can0 178#FC7F09301593090E
(1713559738.565016) can0 17C#0680010032690944
(1713559738.568512) can0 400#2880000000000094
(1713559738.569053) can0 410#2880008B9F6E8B21
(1713559738.569917) can0 12F#F810032000000029
(1713559738.570163) can0 12D#0000000000000035
(1713559738.570411) can0 290#000000020000003D
(1713559738.573880) can0 551#000000000004C000
(1713559738.574129) can0 5D1#9958000200000000
(1713559738.574389) can0 174#DC7F005D50790AB7
(1713559738.574621) can0 178#00800A370A930AE6
(1713559738.574859) can0 17C#0E80010040690AFA
(1713559738.578503) can0 400#28800000000000A1
(1713559738.578840) can0 140#0000030000000000
(1713559738.579077) can0 410#2880008B9F6E8B4B
(1713559738.579335) can0 540#0000001040009F00
(1713559738.579567) can0 5B0#6342000000000028
(1713559738.579800) can0 128#1388030000EC7896
(1713559738.580098) can0 12D#000000000000005F
(1713559738.580344) can0 12E#000000000000C090
(1713559738.580589) can0 12F#F810032000000043
(1713559738.580835) can0 290#0000000200000057
(1713559738.583690) can0 120#000000080700006F
(1713559738.583939) can0 121#000000000000006A
(1713559738.584186) can0 129#000000010000006E
(1713559738.584428) can0 541#0440E800007FFF86
(1713559738.584657) can0 174#E27F005D58790B71
(1713559738.584890) can0 178#04800B3101930B11
(1713559738.585130) can0 17C#1280010040690BE5
(1713559738.585374) can0 552#00FFFFFFFFFFFF71
(1713559738.585620) can0 450#005600001B004A00
(1713559738.588607) can0 400#28800000000000CB
(1713559738.589002) can0 410#2880008B9F6E8B7E
(1713559738.589972) can0 12F#F810032000000076
(1713559738.590219) can0 12D#000000000000006A
(1713559738.590467) can0 290#0000000200000062
(1713559738.593879) can0 551#000000000004C000
(1713559738.594129) can0 5D1#9958000200000000
(1713559738.594395) can0 174#EA7F005D59790C7F
(1713559738.594633) can0 178#0680000009930CCF
(1713559738.594871) can0 17C#0C80010038690C4A
(1713559738.598607) can0 400#288000000000002A
(1713559738.598926) can0 410#2880008B9F6E8B9F
(1713559738.599360) can0 140#0000030000000000
(1713559738.599608) can0 12F#F810032000000097
(1713559738.599843) can0 128#1388030000EC78A3
(1713559738.600138) can0 12D#000000000000008B
(1713559738.600382) can0 12E#000000000000C0A5
(1713559738.600634) can0 290#0000000200000083
(1713559738.603787) can0 120#000000080700008E
(1713559738.604027) can0 121#000000000000008B
(1713559738.604268) can0 129#000000010000008F
(1713559738.604499) can0 174#F27F005D51790D05
(1713559738.604731) can0 178#008001371A930D64
(1713559738.604967) can0 17C#0280010038690D56
(1713559738.605211) can0 541#0440E800007FFFB3
(1713559738.608697) can0 400#2880000000000040
(1713559738.608945) can0 410#2880008B9F6E8BAA
(1713559738.609696) can0 550#48000C0001000023
(1713559738.609936) can0 12F#F8100320000000A2
(1713559738.610168) can0 12A#1428701C6058004C
(1713559738.610416) can0 12D#00000000000000BE
(1713559738.610662) can0 290#00000002000000B6
(1713559738.613874) can0 551#000000000004C000
(1713559738.614124) can0 5D1#9958000200000000
(1713559738.614410) can0 174#F47F005D48790E6A
(1713559738.614638) can0 178#F47F022E22930E34
(1713559738.614882) can0 17C#028001003D690EF8
(1713559738.618707) can0 400#2880000000000075
(1713559738.618947) can0 410#2880008B9F6E8BC0
(1713559738.619633) can0 12F#F8100320000000C8
(1713559738.619869) can0 128#1388030000EC78C9
(1713559738.620112) can0 12D#00000000000000D4
(1713559738.620405) can0 12E#000000000000C0CF
(1713559738.620655) can0 140#0000030000000000
(1713559738.620903) can0 290#00000002000000DC
(1713559738.622390) can0 5D0#9958010200000000
(1713559738.622624) can0 5B1#008A9A6800000042
(1713559738.622862) can0 5CF#7444540000000000
(1713559738.623878) can0 120#00000008070000BB
(1713559738.624122) can0 121#00000000000000BE
(1713559738.624364) can0 129#00000001000000BA
(1713559738.624596) can0 174#F27F005D42790FAB
(1713559738.624825) can0 178#EC7F033122930F65
(1713559738.625065) can0 17C#0A80010037690F38
(1713559738.625307) can0 541#0440E800007FFFD9
(1713559738.628811) can0 400#2880000000000094
(1713559738.629042) can0 410#2880008B9F6E8B21
(1713559738.629887) can0 12F#F810032000000029
(1713559738.630133) can0 12D#0000000000000035
(1713559738.630381) can0 290#000000020000003D
(1713559738.633898) can0 551#000000000004C000
(1713559738.634153) can0 552#00FFFFFFFFFFFF90
(1713559738.634399) can0 5D1#9958000200000000
(1713559738.634633) can0 174#F07F005D407900A9
(1713559738.634867) can0 178#EC7F043022930048
(1713559738.635105) can0 17C#0C80010027690048
(1713559738.635344) can0 5D2#7444540000000000
(1713559738.635589) can0 450#005600001B004A00
(1713559738.638798) can0 400#28800000000000A1
(1713559738.639036) can0 410#2880008B9F6E8B4B
(1713559738.639689) can0 12F#F810032000000043
(1713559738.639926) can0 128#1388030000EC7828
(1713559738.640177) can0 12D#000000000000005F
(1713559738.640468) can0 12E#000000000000C02E
(1713559738.640718) can0 140#0000030000000000
(1713559738.640964) can0 290#0000000200000057
(1713559738.641212) can0 6B9#0020400000000000
(1713559738.641456) can0 5A2#1410140000000000
(1713559738.643927) can0 541#0440E800007FFF38
(1713559738.644167) can0 120#00000008070000D1
(1713559738.644412) can0 121#00000000000000D4
(1713559738.644653) can0 129#00000001000000D0
(1713559738.644887) can0 174#F07F005D4579013D
(1713559738.645121) can0 178#EC7F00001D930121
(1713559738.645364) can0 17C#0680010021690138
(1713559738.648852) can0 410#2880008B9F6E8B7E
(1713559738.649097) can0 400#28800000000000CB
(1713559738.649886) can0 12F#F810032000000076
(1713559738.650134) can0 12D#000000000000006A
(1713559738.650380) can0 290#0000000200000062
(1713559738.653880) can0 551#000000000004C000
(1713559738.654130) can0 5D1#9958000200000000
(1713559738.654416) can0 174#F27F005D4679022C
(1713559738.654652) can0 178#F07F013815930291
(1713559738.654892) can0 17C#0080010026690246
(1713559738.655142) can0 4EA#0000000000000000
(1713559738.655388) can0 5B2#0800000000000000
(1713559738.655633) can0 310#FFFFFFFF7D7D0000
(1713559738.658791) can0 410#2880008B9F6E8B9F
(1713559738.659040) can0 400#288000000000002A
(1713559738.659605) can0 12F#F810032000000097
(1713559738.659837) can0 128#1388030000EC7842
(1713559738.660070) can0 12A#1428701C60580079
(1713559738.660316) can0 12D#000000000000008B
(1713559738.660611) can0 12E#000000000000C044
(1713559738.660859) can0 290#0010000200000088
(1713559738.661108) can0 140#0000030000000000
(1713559738.661353) can0 550#48000C0001000049
(1713559738.661591) can0 5A0#0000006244928076
(1713559738.663923) can0 541#0440E800007FFF52
(1713559738.664168) can0 120#0000000807000030
(1713559738.664416) can0 121#0000000000000035
(1713559738.664660) can0 129#0000000100000031
(1713559738.664895) can0 174#EE7F005D3D7903FB
(1713559738.665128) can0 178#F47F0232119303E6
(1713559738.665371) can0 17C#FC7F01002D6903C0
(1713559738.668814) can0 410#2880008B9F6E8BAA
(1713559738.669055) can0 400#2880000000000040
(1713559738.669917) can0 12F#F8100320000000A2
(1713559738.670162) can0 12D#00000000000000BE
(1713559738.670411) can0 290#00100002000000BD
(1713559738.670763) can0 6AB#A5CD1C2E77A3E100
(1713559738.673879) can0 551#000000000004C000
(1713559738.674128) can0 5D1#9958000200000000
(1713559738.674430) can0 174#EC7F005D2C790485
(1713559738.674667) can0 178#F87F0332129304E8
(1713559738.674909) can0 17C#FE7F0100326904B7
(1713559738.678738) can0 410#2880008B9F6E8BC0
(1713559738.678992) can0 400#2880000000000075
(1713559738.679618) can0 12F#F8100320000000C8
(1713559738.679849) can0 128#1388030000EC7877
(1713559738.680093) can0 12D#00000000000000D4
(1713559738.680344) can0 12E#000000000000C071
(1713559738.680641) can0 290#00000002000000DC
(1713559738.680884) can0 540#0000001040009F00
(1713559738.681126) can0 5B0#6342000000000042
(1713559738.681476) can0 140#0000030000000000
(1713559738.683943) can0 541#0440E800007FFF67
(1713559738.684189) can0 120#000000080700005A
(1713559738.684437) can0 121#000000000000005F
(1713559738.684681) can0 129#000000010000005B
(1713559738.684912) can0 174#EE7F005D1F790586
(1713559738.685149) can0 178#FC7F04351893056C
(1713559738.685387) can0 17C#028001003569053B
(1713559738.685631) can0 552#00FFFFFFFFFFFFA5
(1713559738.685881) can0 450#005600001B004A00
(1713559738.688757) can0 410#2880008B9F6E8B21
(1713559738.689081) can0 400#2880000000000094
(1713559738.689978) can0 12F#F810032000000029
(1713559738.690218) can0 12D#0000000000000035
(1713559738.690464) can0 290#000000020000003D
(1713559738.693876) can0 551#000000000004C000
(1713559738.694125) can0 5D1#9958000200000000
(1713559738.694430) can0 174#F47F005D247906D8
(1713559738.694668) can0 178#FA7F00001A930692
(1713559738.694908) can0 17C#028001003769061F
(1713559738.698684) can0 410#2880008B9F6E8B4B
(1713559738.699089) can0 400#28800000000000A1
(1713559738.699609) can0 12F#F810032000000043
(1713559738.699843) can0 128#1388030000EC7896
(1713559738.700093) can0 12D#000000000000005F
(1713559738.700339) can0 12E#000000000000C090
(1713559738.700585) can0 290#0000000200000057
(1713559738.701991) can0 140#0000030000000000
(1713559738.703923) can0 541#0440E800007FFF86
(1713559738.704267) can0 120#000000080700006F
(1713559738.704519) can0 121#000000000000006A
(1713559738.704768) can0 129#000000010000006E
(1713559738.705004) can0 174#F67F005D357907E8
(1713559738.705235) can0 178#FA7F0132129307A1
(1713559738.705476) can0 17C#0080010034690734
(1713559738.708708) can0 410#2880008B9F6E8B7E
(1713559738.709178) can0 400#28800000000000CB
(1713559738.709696) can0 550#48000C000100007C
(1713559738.709940) can0 12F#F810032000000076
(1713559738.710175) can0 12A#1428701C60580098
(1713559738.710428) can0 12D#000000000000006A
(1713559738.710670) can0 290#0000000200000062
(1713559738.714262) can0 551#000000000004C000
(1713559738.714459) can0 174#F27F005D3F790835
(1713559738.714693) can0 178#FC7F0230099308C8
(1713559738.714931) can0 17C#FA7F01003869084D
(1713559738.715171) can0 5D1#9958000200000000
(1713559738.718632) can0 410#2880008B9F6E8B9F
(1713559738.719188) can0 400#288000000000002A
(1713559738.719628) can0 12F#F810032000000097
(1713559738.719863) can0 128#1388030000EC78A3
(1713559738.720109) can0 12D#000000000000008B
(1713559738.720353) can0 12E#000000000000C0A5
(1713559738.720604) can0 290#0010000200000088
(1713559738.722410) can0 5D0#9958010200000000
(1713559738.722660) can0 140#0000030000000000
(1713559738.722896) can0 5B1#008A9A6800000077
(1713559738.723135) can0 5CF#7444540000000000
(1713559738.723930) can0 541#0440E800007FFFB3
(1713559738.724362) can0 120#000000080700008E
(1713559738.724607) can0 121#000000000000008B
(1713559738.724849) can0 129#000000010000008F
(1713559738.725079) can0 174#EE7F005D387909A0
(1713559738.725313) can0 178#008003320393098C
(1713559738.725547) can0 17C#F67F0100426909AC
(1713559738.728642) can0 410#2880008B9F6E8BAA
(1713559738.729278) can0 400#2880000000000040
(1713559738.729884) can0 12F#F8100320000000A2
(1713559738.730132) can0 12D#00000000000000BE
(1713559738.730377) can0 290#00100002000000BD
(1713559738.733952) can0 551#000000000004C000
(1713559738.734200) can0 552#00FFFFFFFFFFFFCF
(1713559738.734444) can0 5D1#9958000200000000
(1713559738.734672) can0 174#E87F005D2D790AC5
(1713559738.734906) can0 178#0280043301930A84
(1713559738.735140) can0 17C#F67F010045690A01
(1713559738.735419) can0 5D2#7444540000000000
(1713559738.735625) can0 450#005600001B004A00
(1713559738.738595) can0 410#2880008B9F6E8BC0
(1713559738.739286) can0 400#2880000000000075
(1713559738.739654) can0 12F#F8100320000000C8
(1713559738.739888) can0 128#1388030000EC78C9
(1713559738.740133) can0 12D#00000000000000D4
(1713559738.740377) can0 12E#000000000000C0CF
(1713559738.740623) can0 290#00100002000000D7
(1713559738.740871) can0 6B9#0020400000000000
(1713559738.741115) can0 5A2#1410140000000000
(1713559738.742973) can0 140#0000030000000000
(1713559738.743868) can0 541#0440E800007FFFD9
(1713559738.744413) can0 120#00000008070000BB
(1713559738.744658) can0 121#00000000000000BE
(1713559738.744900) can0 129#00000001000000BA
(1713559738.745128) can0 174#E47F005D25790B6F
(1713559738.745413) can0 178#0280053106930B5E
(1713559738.745653) can0 17C#F87F010040690B94
(1713559738.748643) can0 410#2880008B9F6E8B21
(1713559738.749375) can0 400#2880000000000094
(1713559738.749887) can0 12F#F810032000000029
(1713559738.750133) can0 12D#0000000000000035
(1713559738.750377) can0 290#0010000200000036
(1713559738.753926) can0 551#000000000004C000
(1713559738.754175) can0 5D1#9958000200000000
(1713559738.754496) can0 174#E27F005D24790C60
(1713559738.754727) can0 178#FE7F06300C930C3A
(1713559738.754963) can0 17C#FC7F010038690CEA
(1713559738.755212) can0 4EA#0000000000000000
(1713559738.755461) can0 5B2#0800000000000000
(1713559738.755704) can0 310#FFFFFFFF7D7D0000
(1713559738.758593) can0 410#2880008B9F6E8B4B
(1713559738.759381) can0 400#28800000000000A1
(1713559738.759625) can0 12F#F810032000000043
(1713559738.759863) can0 128#1388030000EC7828
(1713559738.760098) can0 12A#1428701C605800AD
(1713559738.760347) can0 12D#000000000000005F
(1713559738.760591) can0 12E#000000000000C02E
(1713559738.760838) can0 290#0020000200000041
(1713559738.761080) can0 550#48000C000100009D
(1713559738.761316) can0 5A0#0000006244928097
(1713559738.763491) can0 140#0000030000000000
(1713559738.763874) can0 541#0440E800007FFF38
(1713559738.764451) can0 174#E27F005D25790DF2
(1713559738.764695) can0 120#00000008070000D1
(1713559738.764939) can0 121#00000000000000D4
(1713559738.765181) can0 129#00000001000000D0
(1713559738.765411) can0 178#FA7F073114930DAD
(1713559738.765649) can0 17C#FE7F010034690D47
(1713559738.768647) can0 410#2880008B9F6E8B7E
(1713559738.769472) can0 400#28800000000000CB
(1713559738.769926) can0 12F#F810032000000076
(1713559738.770170) can0 12D#000000000000006A
(1713559738.770416) can0 290#0020000200000074
(1713559738.773924) can0 551#000000000004C000
(1713559738.774172) can0 5D1#9958000200000000
(1713559738.774500) can0 174#E47F005D2A790E80
(1713559738.774739) can0 178#F67F08381A930E45
(1713559738.774970) can0 17C#FA7F010037690E85
(1713559738.778605) can0 410#2880008B9F6E8B9F
(1713559738.779480) can0 400#288000000000002A
(1713559738.779712) can0 128#1388030000EC7842
(1713559738.779959) can0 12D#000000000000008B
(1713559738.780203) can0 12E#000000000000C044
(1713559738.780445) can0 12F#F810032000000097
(1713559738.780697) can0 290#0000000200000083
(1713559738.780943) can0 540#0000001040009F00
(1713559738.781184) can0 5B0#6342000000000077
(1713559738.783886) can0 541#0440E800007FFF52
(1713559738.784135) can0 140#0000030000000000
(1713559738.784382) can0 552#00FFFFFFFFFFFF2E
(1713559738.784614) can0 174#E87F005D2F790FAF
(1713559738.784861) can0 120#0000000807000030
(1713559738.785109) can0 121#0000000000000035
(1713559738.785352) can0 129#0000000100000031
(1713559738.785589) can0 178#F47F00001C930F63
(1713559738.785825) can0 17C#F67F01003A690FA6
(1713559738.786065) can0 450#005600001B004A00
(1713559738.788640) can0 410#2880008B9F6E8BAA
(1713559738.789567) can0 400#2880000000000040
(1713559738.789971) can0 12F#F8100320000000A2
(1713559738.790219) can0 12D#00000000000000BE
(1713559738.790466) can0 290#00000002000000B6
(1713559738.793924) can0 551#000000000004C000
(1713559738.794170) can0 5D1#9958000200000000
(1713559738.794506) can0 174#E87F005D32790089
(1713559738.794744) can0 178#F87F0000179300E3
(1713559738.794994) can0 17C#F87F01003169009C
(1713559738.798646) can0 410#2880008B9F6E8BC0
(1713559738.799573) can0 400#2880000000000075
(1713559738.799806) can0 128#1388030000EC7877
(1713559738.800050) can0 12D#00000000000000D4
(1713559738.800300) can0 12E#000000000000C071
(1713559738.800539) can0 12F#F8100320000000C8
(1713559738.800787) can0 290#00000002000000DC
(1713559738.803870) can0 541#0440E800007FFF67
(1713559738.804463) can0 174#E87F005D3579011E
(1713559738.804713) can0 140#0000030000000000
(1713559738.804958) can0 120#000000080700005A
(1713559738.805207) can0 121#000000000000005F
(1713559738.805450) can0 129#000000010000005B
(1713559738.805682) can0 178#FA7F015212930131
(1713559738.805922) can0 17C#008001001E690145
(1713559738.808640) can0 410#2880008B9F6E8B21
(1713559738.809662) can0 400#2880000000000094
(1713559738.809904) can0 12F#F810032000000029
(1713559738.810141) can0 12A#1428701C605800C7
(1713559738.810387) can0 12D#0000000000000035
(1713559738.810635) can0 290#000000020000003D
(1713559738.810879) can0 550#48000C00010000A8
(1713559738.813919) can0 551#000000000004C000
(1713559738.814167) can0 5D1#9958000200000000
(1713559738.814513) can0 174#EA7F005D3D79028F
(1713559738.814749) can0 178#F87F026F0F9302AF
(1713559738.814990) can0 17C#088001000E6902A8
(1713559738.818651) can0 410#2880008B9F6E8B4B
(1713559738.819724) can0 400#28800000000000A1
(1713559738.819954) can0 128#1388030000EC7896
(1713559738.820204) can0 12D#000000000000005F
(1713559738.820450) can0 12E#000000000000C090
(1713559738.820694) can0 12F#F810032000000043
(1713559738.820940) can0 290#0000000200000057
(1713559738.822402) can0 5D0#9958010200000000
(1713559738.822592) can0 5B1#008A9A6800000096
(1713559738.822829) can0 5CF#7444540000000000
(1713559738.823873) can0 541#0440E800007FFF86
(1713559738.824473) can0 174#EE7F005D4879033A
(1713559738.824709) can0 178#F87F03620A93031E
(1713559738.824960) can0 120#000000080700006F
(1713559738.825210) can0 121#000000000000006A
(1713559738.825457) can0 129#000000010000006E
(1713559738.825708) can0 140#0000030000000000
(1713559738.825948) can0 17C#0A80010011690391
(1713559738.828595) can0 410#2880008B9F6E8B7E
(1713559738.829713) can0 400#28800000000000CB
(1713559738.829958) can0 12D#000000000000006A
(1713559738.830250) can0 12F#F810032000000076
(1713559738.830498) can0 290#0000000200000062
(1713559738.833938) can0 551#000000000004C000
(1713559738.834190) can0 552#00FFFFFFFFFFFF44
(1713559738.834436) can0 5D1#9958000200000000
(1713559738.834667) can0 174#F47F005C4A790426
(1713559738.834902) can0 178#FC7F0465069304D1
(1713559738.835144) can0 17C#04800100216904EB
(1713559738.835385) can0 5D2#7444540000000000
(1713559738.835627) can0 450#005600001B004A00
(1713559738.838642) can0 410#2880008B9F6E8B9F
(1713559738.839702) can0 12F#F810032000000097
(1713559738.839931) can0 128#1388030000EC78A3
(1713559738.840177) can0 12D#000000000000008B
(1713559738.840421) can0 12E#000000000000C0A5
(1713559738.840672) can0 290#0010000200000088
(1713559738.840920) can0 400#288000000000002A
(1713559738.841168) can0 6B9#0020400000000000
(1713559738.841412) can0 5A2#1410140000000000
(1713559738.843865) can0 541#0440E800007FFFB3
(1713559738.844476) can0 174#F67F005D4379059F
(1713559738.844710) can0 178#FA7F05720793052B
(1713559738.844956) can0 120#000000080700008E
(1713559738.845200) can0 121#000000000000008B
(1713559738.845442) can0 129#000000010000008F
(1713559738.845693) can0 140#0000030000000000
(1713559738.845933) can0 17C#FC7F010027690581
(1713559738.848577) can0 410#2880008B9F6E8BAA
(1713559738.849818) can0 400#2880000000000040
(1713559738.850066) can0 12D#00000000000000BE
(1713559738.850305) can0 12F#F8100320000000A2
(1713559738.850551) can0 290#00100002000000BD
(1713559738.853922) can0 551#000000000004C000
(1713559738.854170) can0 5D1#9958000200000000
(1713559738.854469) can0 4EA#0000000000000000
(1713559738.854703) can0 174#F47F005D3F790640
(1713559738.854937) can0 178#F67F067407930660
(1713559738.855175) can0 17C#F47F0100246906F8
(1713559738.855423) can0 5B2#0800000000000000
(1713559738.855667) can0 310#FFFFFFFF7D7D0000
(1713559738.858599) can0 410#2880008B9F6E8BC0
(1713559738.859675) can0 12F#F8100320000000C8
(1713559738.859916) can0 128#1388030000EC78C9
(1713559738.860147) can0 12A#1428701C60580026
(1713559738.860387) can0 12D#00000000000000D4
(1713559738.860631) can0 12E#000000000000C0CF
(1713559738.860879) can0 290#00000002000000DC
(1713559738.861125) can0 400#2880000000000075
(1713559738.861367) can0 550#48000C00010000C2
(1713559738.861605) can0 5A0#00000062449280A2
(1713559738.863861) can0 541#0440E800007FFFD9
(1713559738.864486) can0 174#F27F005D40790740
(1713559738.864724) can0 178#F07F0720069307B4
(1713559738.864966) can0 17C#F07F01002A690785
(1713559738.865210) can0 120#00000008070000BB
(1713559738.865456) can0 121#00000000000000BE
(1713559738.865698) can0 129#00000001000000BA
(1713559738.866074) can0 140#0000030000000000
(1713559738.868521) can0 410#2880008B9F6E8B21
(1713559738.869870) can0 12F#F810032000000029
(1713559738.870115) can0 12D#0000000000000035
(1713559738.870363) can0 290#000000020000003D
(1713559738.870609) can0 400#2880000000000094
(1713559738.873917) can0 551#000000000004C000
(1713559738.874165) can0 5D1#9958000200000000
(1713559738.874534) can0 174#EE7F005D427908FA
(1713559738.874765) can0 178#EE7F08420A930838
(1713559738.874999) can0 17C#F47F01003A69084F
(1713559738.878546) can0 410#2880008B9F6E8B4B
(1713559738.879651) can0 12F#F810032000000043
(1713559738.879888) can0 128#1388030000EC7828
(1713559738.880145) can0 12D#000000000000005F
(1713559738.880384) can0 12E#000000000000C02E
(1713559738.880629) can0 290#0000000200000057
(1713559738.880874) can0 400#28800000000000A1
(1713559738.881123) can0 540#000000104000A000
(1713559738.881363) can0 5B0#6342000000000096
(1713559738.883933) can0 541#0440E800007FFF38
(1713559738.884137) can0 552#00FFFFFFFFFFFF71
(1713559738.884383) can0 450#005600001B004A00
(1713559738.884611) can0 174#EA7F005D387909C9
(1713559738.884837) can0 178#F47F096F0D930911
(1713559738.885075) can0 17C#FC7F01003F690909
(1713559738.885319) can0 120#00000008070000D1
(1713559738.885564) can0 121#00000000000000D4
(1713559738.885806) can0 129#00000001000000D0
(1713559738.886594) can0 140#0000030000000000
(1713559738.888471) can0 410#2880008B9F6E8B7E
(1713559738.889920) can0 12F#F810032000000076
(1713559738.890167) can0 12D#000000000000006A
(1713559738.890415) can0 290#0000000200000062
(1713559738.890662) can0 400#28800000000000CB
(1713559738.893915) can0 551#000000000004C000
(1713559738.894163) can0 5D1#9958000200000000
(1713559738.894537) can0 174#E67F005D2A790A4E
(1713559738.894767) can0 178#FA7F0A730A930AF4
(1713559738.895005) can0 17C#0680010037690AEA
(1713559738.898496) can0 410#2880008B9F6E8B9F
(1713559738.899695) can0 12F#F810032000000097
(1713559738.899927) can0 128#1388030000EC7842
(1713559738.900173) can0 12D#000000000000008B
(1713559738.900425) can0 12E#000000000000C044
(1713559738.900672) can0 290#0000000200000083
(1713559738.900918) can0 400#288000000000002A
(1713559738.904544) can0 174#E47F005D27790B6C
(1713559738.904778) can0 178#FC7F0B6306930B7F
(1713559738.905018) can0 17C#0E80010032690BAC
(1713559738.905273) can0 120#0000000807000030
(1713559738.905518) can0 121#0000000000000035
(1713559738.905763) can0 129#0000000100000031
(1713559738.906419) can0 541#0440E800007FFF52
(1713559738.907113) can0 140#0000030000000000
(1713559738.908092) can0 410#2880008B9F6E8BAA
(1713559738.909647) can0 550#48000C0001000023
(1713559738.909887) can0 12F#F8100320000000A2
(1713559738.910119) can0 12A#1428701C6058004C
(1713559738.910367) can0 12D#00000000000000BE
(1713559738.910614) can0 290#00000002000000B6
(1713559738.910861) can0 400#2880000000000040
(1713559738.913918) can0 551#000000000004C000
(1713559738.914161) can0 5D1#9958000200000000
(1713559738.914548) can0 174#E87F005D34790C10
(1713559738.914782) can0 178#F87F0C6806930C68
(1713559738.915022) can0 17C#108001003A690C4B
(1713559738.918121) can0 410#2880008B9F6E8BC0
(1713559738.919674) can0 12F#F8100320000000C8
(1713559738.919907) can0 128#1388030000EC7877
(1713559738.920150) can0 12D#00000000000000D4
(1713559738.920399) can0 12E#000000000000C071
(1713559738.920652) can0 290#00100002000000D7
(1713559738.920893) can0 400#2880000000000075
(1713559738.922425) can0 5D0#9958010200000000
(1713559738.922661) can0 5B1#008A9A68000000A3
(1713559738.922900) can0 5CF#7444540000000000
(1713559738.923922) can0 541#0440E800007FFF67
(1713559738.924507) can0 174#EC7F005D45790DA3
(1713559738.924728) can0 178#F47F0D2009930D2A
(1713559738.924961) can0 17C#0E80010043690D25
(1713559738.925296) can0 120#000000080700005A
(1713559738.925544) can0 121#000000000000005F
(1713559738.925788) can0 129#000000010000005B
(1713559738.927631) can0 140#0000030000000000
(1713559738.928064) can0 410#2880008B9F6E8B21
(1713559738.929834) can0 12F#F810032000000029
(1713559738.930080) can0 12D#0000000000000035
(1713559738.930324) can0 290#0010000200000036
(1713559738.930571) can0 400#2880000000000094
(1713559738.933933) can0 551#000000000004C000
(1713559738.934187) can0 552#00FFFFFFFFFFFF90
(1713559738.934433) can0 5D1#9958000200000000
(1713559738.934665) can0 174#EC7F005C4B790E10
(1713559738.934895) can0 178#F27F0E4707930E43
(1713559738.935129) can0 17C#0A8001004D690E62
(1713559738.935410) can0 5D2#7444540000000000
(1713559738.935615) can0 450#005600001B004A00
(1713559738.938065) can0 410#2880008B9F6E8B4B
(1713559738.939706) can0 12F#F810032000000043
(1713559738.939937) can0 128#1388030000EC7896
(1713559738.940188) can0 12D#000000000000005F
(1713559738.940434) can0 12E#000000000000C090
(1713559738.940688) can0 290#001000020000005C
(1713559738.940928) can0 400#28800000000000A1
(1713559738.941381) can0 6B9#0020400000000000
(1713559738.941624) can0 5A2#1410140000000000
(1713559738.943913) can0 541#0440E800007FFF86
(1713559738.944532) can0 174#E67F005D48790F74
(1713559738.944753) can0 178#F07F0F6D04930FF3
(1713559738.944990) can0 17C#0680010053690FD5
(1713559738.945397) can0 120#000000080700006F
(1713559738.945649) can0 121#000000000000006A
(1713559738.945897) can0 129#000000010000006E
(1713559738.947991) can0 410#2880008B9F6E8B7E
(1713559738.948239) can0 140#0000030000000000
(1713559738.949839) can0 12F#F810032000000076
(1713559738.950085) can0 12D#000000000000006A
(1713559738.950330) can0 290#0010000200000069
(1713559738.950576) can0 400#28800000000000CB
(1713559738.953867) can0 551#000000000004C000
(1713559738.954117) can0 5D1#9958000200000000
(1713559738.954366) can0 4EA#0000000000000000
(1713559738.954598) can0 174#E27F005D43790026
(1713559738.954832) can0 178#EE7F0062049300E4
(1713559738.955070) can0 17C#028001004A69009C
(1713559738.955385) can0 5B2#0800000000000000
(1713559738.955611) can0 310#FFFFFFFF7D7D0000
(1713559738.958011) can0 410#2880008B9F6E8B9F
(1713559738.959651) can0 12F#F810032000000097
(1713559738.959886) can0 128#1388030000EC78A3
(1713559738.960116) can0 12A#1428701C60580079
(1713559738.960363) can0 12D#000000000000008B
(1713559738.960606) can0 12E#000000000000C0A5
(1713559738.960857) can0 290#0010000200000088
(1713559738.961105) can0 400#288000000000002A
(1713559738.961349) can0 550#48000C0001000049
(1713559738.961585) can0 5A0#00000062449280C8
(1713559738.963909) can0 541#0440E800007FFFB3
(1713559738.964567) can0 174#E67F005D427901DD
(1713559738.964798) can0 178#E87F01480C9301BD
(1713559738.965041) can0 17C#00800100376901F6
(1713559738.965540) can0 120#000000080700008E
(1713559738.965784) can0 121#000000000000008B
(1713559738.966026) can0 129#000000010000008F
(1713559738.967933) can0 410#2880008B9F6E8BAA
(1713559738.968670) can0 140#0000030000000000
(1713559738.969868) can0 12F#F8100320000000A2
(1713559738.970117) can0 12D#00000000000000BE
(1713559738.970362) can0 290#00100002000000BD
(1713559738.970610) can0 400#2880000000000040
(1713559738.973864) can0 551#000000000004C000
(1713559738.974113) can0 5D1#9958000200000000
(1713559738.974531) can0 174#EE7F005D3F7902E5
(1713559738.974771) can0 178#E07F00001493023E
(1713559738.975009) can0 17C#048001002A690225
(1713559738.977959) can0 410#2880008B9F6E8BC0
(1713559738.979656) can0 12F#F8100320000000C8
(1713559738.979889) can0 128#1388030000EC78C9
(1713559738.980134) can0 12D#00000000000000D4
(1713559738.980378) can0 12E#000000000000C0CF
(1713559738.980626) can0 290#00000002000000DC
(1713559738.980874) can0 400#2880000000000075
(1713559738.981246) can0 540#0000001040009F00
(1713559738.981488) can0 5B0#63420000000000A3
(1713559738.983929) can0 541#0440E800007FFFD9
(1713559738.984182) can0 552#00FFFFFFFFFFFFA5
(1713559738.984433) can0 450#005600001B004A00
(1713559738.984665) can0 174#F07F005D347903C0
(1713559738.984897) can0 178#E47F0000179303C6
(1713559738.985137) can0 17C#0A8001002C69033C
(1713559738.985635) can0 120#00000008070000BB
(1713559738.985881) can0 121#00000000000000BE
(1713559738.986124) can0 129#00000001000000BA
(1713559738.987928) can0 410#2880008B9F6E8B21
(1713559738.989186) can0 140#0000030000000000
(1713559738.989922) can0 12F#F810032000000029
(1713559738.990168) can0 12D#0000000000000035
(1713559738.990417) can0 290#000000020000003D
(1713559738.990662) can0 400#2880000000000094
(1713559738.993861) can0 551#000000000004C000
(1713559738.994110) can0 5D1#9958000200000000
(1713559738.994535) can0 174#EC7F005D2A790480
(1713559738.994769) can0 178#F07F000D1893048C
(1713559738.995007) can0 17C#0680010031690449
(1713559738.997902) can0 410#2880008B9F6E8B4B
(1713559738.999651) can0 12F#F810032000000043
(1713559738.999886) can0 128#1388030000EC7828
(1713559739.000137) can0 12D#000000000000005F
(1713559739.000381) can0 12E#000000000000C02E
(1713559739.000627) can0 290#0000000200000057
(1713559739.000874) can0 400#28800000000000A1
(1713559739.003914) can0 541#0440E800007FFF38
(1713559739.004589) can0 174#EC7F005D2A79059D
(1713559739.004833) can0 178#F87F00001893050C
(1713559739.005072) can0 17C#F87F01003B6905FA
(1713559739.005732) can0 120#00000008070000D1
(1713559739.005976) can0 121#00000000000000D4
(1713559739.006218) can0 129#00000001000000D0
(1713559739.007879) can0 410#2880008B9F6E8B7E
(1713559739.009697) can0 550#48000C000100007C
(1713559739.009893) can0 12F#F810032000000076
(1713559739.010127) can0 12A#1428701C60580098
(1713559739.010373) can0 12D#000000000000006A
(1713559739.010623) can0 140#0000030000000000
(1713559739.010871) can0 290#0000000200000062
(1713559739.011117) can0 400#28800000000000CB
(1713559739.013860) can0 551#000000000004C000
(1713559739.014109) can0 5D1#9958000200000000
(1713559739.014537) can0 174#EC7F005D2C7906BF
(1713559739.014773) can0 178#FA7F01361C9306FB
(1713559739.015006) can0 17C#EA7F01004B690696
(1713559739.017852) can0 410#2880008B9F6E8B9F
(1713559739.019682) can0 12F#F810032000000097
(1713559739.019914) can0 128#1388030000EC7842
(1713559739.020159) can0 12D#000000000000008B
(1713559739.020404) can0 12E#000000000000C044
(1713559739.020656) can0 290#0000000200000083
(1713559739.020904) can0 400#288000000000002A
(1713559739.022434) can0 5D0#9958010200000000
(1713559739.022670) can0 5B1#008A9A68000000C9
(1713559739.022909) can0 5CF#7444540000000000
(1713559739.023915) can0 541#0440E800007FFF52
(1713559739.024586) can0 174#EC7F005D327907B3
(1713559739.024827) can0 178#FA7F02301D9307BE
(1713559739.025070) can0 17C#EC7F010055690749
(1713559739.025836) can0 120#0000000807000030
(1713559739.026079) can0 121#0000000000000035
(1713559739.026324) can0 129#0000000100000031
(1713559739.027844) can0 410#2880008B9F6E8BAA
(1713559739.029830) can0 12F#F8100320000000A2
(1713559739.030078) can0 12D#00000000000000BE
(1713559739.030328) can0 140#0000030000000000
(1713559739.030574) can0 290#00000002000000B6
(1713559739.030822) can0 400#2880000000000040
(1713559739.033879) can0 551#000000000004C000
(1713559739.034134) can0 552#00FFFFFFFFFFFFCF
(1713559739.034380) can0 5D1#9958000200000000
(1713559739.034612) can0 174#EE7F005D43790875
(1713559739.034844) can0 178#F87F03311A9308C2
(1713559739.035079) can0 17C#F67F010055690823
(1713559739.035327) can0 5D2#7444540000000000
(1713559739.035564) can0 450#005600001B004A00
(1713559739.037823) can0 410#2880008B9F6E8BC0
(1713559739.039695) can0 12F#F8100320000000C8
(1713559739.039925) can0 128#1388030000EC7877
(1713559739.040169) can0 12D#00000000000000D4
(1713559739.040417) can0 12E#000000000000C071
(1713559739.040665) can0 290#00000002000000DC
(1713559739.040911) can0 400#2880000000000075
(1713559739.041570) can0 6B9#0020400000000000
(1713559739.041814) can0 5A2#1410140000000000
(1713559739.043908) can0 541#0440E800007FFF67
(1713559739.044590) can0 174#F27F005D4A7909E9
(1713559739.044822) can0 178#F47F0438119309EE
(1713559739.045058) can0 17C#FE7F01004B6909FD
(1713559739.045933) can0 120#000000080700005A
(1713559739.046176) can0 121#000000000000005F
(1713559739.046421) can0 129#000000010000005B
(1713559739.047795) can0 410#2880008B9F6E8B21
(1713559739.049833) can0 12F#F810032000000029
(1713559739.050079) can0 12D#0000000000000035
(1713559739.050327) can0 290#000000020000003D
(1713559739.050737) can0 140#0000030000000000
(1713559739.050983) can0 400#2880000000000094
(1713559739.053862) can0 551#000000000004C000
(1713559739.054110) can0 4EA#0000000000000000
(1713559739.054356) can0 5B2#0800000000000000
(1713559739.054586) can0 174#F27F005C3D790A91
(1713559739.054816) can0 178#F27F053101930A69
(1713559739.055054) can0 17C#0080010037690A39
(1713559739.055300) can0 310#FFFFFFFF7D7D0000
(1713559739.055541) can0 5D1#9958000200000000
(1713559739.055860) can0 6E2#0544000000000000
(1713559739.057772) can0 410#2880008B9F6E8B4B
(1713559739.059663) can0 12F#F810032000000043
(1713559739.059893) can0 128#1388030000EC7896
(1713559739.060126) can0 12A#1428701C605800AD
(1713559739.060377) can0 12D#000000000000005F
(1713559739.060623) can0 12E#000000000000C090
(1713559739.060868) can0 290#0000000200000057
(1713559739.061115) can0 400#28800000000000A1
(1713559739.061357) can0 550#48000C000100009D
(1713559739.061595) can0 5A0#0000006244928029
(1713559739.063906) can0 541#0440E800007FFF86
(1713559739.064597) can0 174#F07F005D34790B28
(1713559739.064831) can0 178#F27F0632F8920B37
(1713559739.065072) can0 17C#FA7F010029690BFD
(1713559739.066034) can0 120#000000080700006F
(1713559739.066280) can0 121#000000000000006A
(1713559739.066528) can0 129#000000010000006E
(1713559739.067744) can0 410#2880008B9F6E8B7E
(1713559739.069882) can0 12F#F810032000000076
(1713559739.070117) can0 12D#000000000000006A
(1713559739.070364) can0 290#0000000200000062
(1713559739.070884) can0 400#28800000000000CB
(1713559739.071255) can0 140#0000030000000000
(1713559739.073860) can0 551#000000000004C000
(1713559739.074111) can0 5D1#9958000200000000
(1713559739.074549) can0 174#EA7F005D34790CAA
(1713559739.074785) can0 178#F87F0739FC920C46
(1713559739.075025) can0 17C#F87F01002A690C98
(1713559739.077668) can0 410#2880008B9F6E8B9F
(1713559739.079652) can0 12F#F810032000000097
(1713559739.079885) can0 128#1388030000EC78A3
(1713559739.080131) can0 12D#000000000000008B
(1713559739.080377) can0 12E#000000000000C0A5
(1713559739.080627) can0 290#0000000200000083
(1713559739.080981) can0 400#288000000000002A
(1713559739.081698) can0 540#000000104000A000
(1713559739.081939) can0 5B0#63420000000000C9
(1713559739.083925) can0 541#0440E800007FFFB3
(1713559739.084179) can0 552#00FFFFFFFFFFFF2E
(1713559739.084425) can0 450#005600001B004A00
(1713559739.084653) can0 174#E67F005D3B790D8A
(1713559739.084882) can0 178#FC7F082D0A930DE4
(1713559739.085119) can0 17C#FA7F010031690DA7
(1713559739.086123) can0 120#000000080700008E
(1713559739.086367) can0 121#000000000000008B
(1713559739.086609) can0 129#000000010000008F
(1713559739.087688) can0 410#2880008B9F6E8BAA
(1713559739.089978) can0 12F#F8100320000000A2
(1713559739.090227) can0 12D#00000000000000BE
(1713559739.090470) can0 290#00000002000000B6
(1713559739.091035) can0 400#2880000000000040
(1713559739.091775) can0 140#0000030000000000
(1713559739.093857) can0 551#000000000004C000
(1713559739.094107) can0 5D1#9958000200000000
(1713559739.094558) can0 174#E67F005D43790EE9
(1713559739.094796) can0 178#F87F09301C930EB7
(1713559739.095033) can0 17C#0280010034690E7B
(1713559739.097588) can0 410#2880008B9F6E8BC0
(1713559739.099602) can0 12F#F8100320000000C8
(1713559739.099838) can0 128#1388030000EC78C9
(1713559739.100081) can0 12D#00000000000000D4
(1713559739.100325) can0 12E#000000000000C0CF
(1713559739.100573) can0 290#00000002000000DC
(1713559739.101042) can0 400#2880000000000075
(1713559739.103911) can0 541#0440E800007FFFD9
(1713559739.104610) can0 174#EA7F005D43790F4F
(1713559739.104842) can0 178#F87F0A3227930F9B
(1713559739.105083) can0 17C#0680010038690F05
(1713559739.106211) can0 120#00000008070000BB
(1713559739.106457) can0 121#00000000000000BE
(1713559739.106699) can0 129#00000001000000BA
(1713559739.107619) can0 410#2880008B9F6E8B21
(1713559739.109705) can0 550#48000C00010000A8
(1713559739.109941) can0 12F#F810032000000029
(1713559739.110176) can0 12A#1428701C605800C7
(1713559739.110421) can0 12D#0000000000000035
(1713559739.110670) can0 290#000000020000003D
(1713559739.111138) can0 400#2880000000000094
(1713559739.112345) can0 140#0000030000000000
(1713559739.113855) can0 551#000000000004C000
(1713559739.114105) can0 5D1#9958000200000000
(1713559739.114568) can0 174#EE7F005D3D7900DC
(1713559739.114802) can0 178#F67F0B3625930006
(1713559739.115045) can0 17C#088001003F690035
(1713559739.117573) can0 410#2880008B9F6E8B4B
(1713559739.119627) can0 12F#F810032000000043
(1713559739.119866) can0 128#1388030000EC7828
(1713559739.120115) can0 12D#000000000000005F
(1713559739.120359) can0 12E#000000000000C02E
(1713559739.120605) can0 290#001000020000005C
(1713559739.121182) can0 400#28800000000000A1
(1713559739.122428) can0 5D0#9958010200000000
(1713559739.122663) can0 5B1#008A9A6800000028
(1713559739.122900) can0 5CF#7444540000000000
(1713559739.123913) can0 541#0440E800007FFF38
(1713559739.124616) can0 174#EA7F005D38790121
(1713559739.124849) can0 178#F27F0C301C9301BB
(1713559739.125082) can0 17C#068001004569016E
(1713559739.126299) can0 120#00000008070000D1
(1713559739.126543) can0 121#00000000000000D4
(1713559739.126785) can0 129#00000001000000D0
(1713559739.127623) can0 410#2880008B9F6E8B7E
(1713559739.129895) can0 12F#F810032000000076
(1713559739.130135) can0 12D#000000000000006A
(1713559739.130377) can0 290#0010000200000069
(1713559739.131228) can0 400#28800000000000CB
(1713559739.132866) can0 140#0000030000000000
(1713559739.133876) can0 551#000000000004C000
(1713559739.134128) can0 552#00FFFFFFFFFFFF44
(1713559739.134374) can0 5D1#9958000200000000
(1713559739.134606) can0 174#E87F005D3779023A
(1713559739.134844) can0 178#EE7F0000179302B3
(1713559739.135083) can0 17C#0480010048690276
(1713559739.135329) can0 5D2#7444540000000000
(1713559739.135567) can0 450#005600001B004A00
(1713559739.137574) can0 410#2880008B9F6E8B9F
(1713559739.139652) can0 12F#F810032000000097
(1713559739.139885) can0 128#1388030000EC7842
(1713559739.140131) can0 12D#000000000000008B
(1713559739.140375) can0 12E#000000000000C044
(1713559739.140627) can0 290#0000000200000083
(1713559739.141233) can0 400#288000000000002A
(1713559739.141774) can0 6B9#0020400000000000
(1713559739.142018) can0 5A2#1410140000000000
(1713559739.143903) can0 541#0440E800007FFF52
(1713559739.144624) can0 174#EA7F005D3A790318
(1713559739.144856) can0 178#EA7F0130179303C2
(1713559739.145093) can0 17C#0280010043690338
(1713559739.146401) can0 120#0000000807000030
(1713559739.146646) can0 121#0000000000000035
(1713559739.146890) can0 129#0000000100000031
(1713559739.147630) can0 410#2880008B9F6E8BAA
(1713559739.149918) can0 12F#F8100320000000A2
(1713559739.150168) can0 12D#00000000000000BE
(1713559739.150413) can0 290#00000002000000B6
(1713559739.151346) can0 400#2880000000000040
(1713559739.153386) can0 140#0000030000000000
(1713559739.153828) can0 4EA#0000000000000000
(1713559739.154027) can0 551#000000000004C000
(1713559739.154272) can0 5B2#0800000000000000
(1713559739.154518) can0 310#FFFFFFFF7D7D0000
(1713559739.154750) can0 174#EA7F005D38790448
(1713559739.154980) can0 178#EA7F02321893048E
(1713559739.155222) can0 17C#FC7F01003F690488
(1713559739.155464) can0 5D1#9958000200000000
(1713559739.157572) can0 410#2880008B9F6E8BC0
(1713559739.159597) can0 12F#F8100320000000C8
(1713559739.159830) can0 128#1388030000EC7877
(1713559739.160065) can0 12A#1428701C60580026
(1713559739.160310) can0 12D#00000000000000D4
(1713559739.160557) can0 12E#000000000000C071
(1713559739.160803) can0 290#00100002000000D7
(1713559739.161045) can0 550#48000C00010000C2
(1713559739.161283) can0 5A0#0000006244928043
(1713559739.161578) can0 400#2880000000000075
(1713559739.163902) can0 541#0440E800007FFF67
(1713559739.164632) can0 174#EA7F005D3279055A
(1713559739.164864) can0 178#EA7F033620930593
(1713559739.165109) can0 17C#FA7F01003F690546
(1713559739.166493) can0 120#000000080700005A
(1713559739.166744) can0 121#000000000000005F
(1713559739.166985) can0 129#000000010000005B
(1713559739.167673) can0 410#2880008B9F6E8B21
(1713559739.169913) can0 12F#F810032000000029
(1713559739.170167) can0 12D#0000000000000035
(1713559739.170405) can0 290#0010000200000036
(1713559739.171434) can0 400#2880000000000094
(1713559739.173904) can0 140#0000030000000000
(1713559739.174102) can0 551#000000000004C000
(1713559739.174352) can0 5D1#9958000200000000
(1713559739.174586) can0 174#EC7F005D35790624
(1713559739.174820) can0 178#EE7F04352293066F
(1713559739.175060) can0 17C#FE7F01003B69060E
(1713559739.177573) can0 410#2880008B9F6E8B4B
(1713559739.179607) can0 12F#F810032000000043
(1713559739.179840) can0 128#1388030000EC7896
(1713559739.180091) can0 12D#000000000000005F
(1713559739.180337) can0 12E#000000000000C090
(1713559739.180582) can0 290#001000020000005C
(1713559739.181430) can0 400#28800000000000A1
(1713559739.182167) can0 540#0000001040009F00
(1713559739.182409) can0 5B0#6342000000000028
(1713559739.183919) can0 541#0440E800007FFF86
(1713559739.184169) can0 552#00FFFFFFFFFFFF71
(1713559739.184415) can0 450#005600001B004A00
(1713559739.184649) can0 174#F27F005D42790743
(1713559739.184885) can0 178#F27F05301D930767
(1713559739.185125) can0 17C#068001003A6907EE
(1713559739.186596) can0 120#000000080700006F
(1713559739.186848) can0 121#000000000000006A
(1713559739.187096) can0 129#000000010000006E
(1713559739.187676) can0 410#2880008B9F6E8B7E
(1713559739.189990) can0 12F#F810032000000076
(1713559739.190236) can0 12D#000000000000006A
(1713559739.190475) can0 290#0010000200000069
(1713559739.191530) can0 400#28800000000000CB
(1713559739.194223) can0 551#000000000004C000
(1713559739.194471) can0 140#0000030000000000
(1713559739.194705) can0 174#F87F005D4879089F
(1713559739.194933) can0 178#F67F06311593089A
(1713559739.195171) can0 17C#08800100356908D2
(1713559739.195412) can0 5D1#9958000200000000
(1713559739.197573) can0 410#2880008B9F6E8B9F
(1713559739.199599) can0 12F#F810032000000097
(1713559739.199833) can0 128#1388030000EC78A3
(1713559739.200080) can0 12D#000000000000008B
(1713559739.200324) can0 12E#000000000000C0A5
(1713559739.200574) can0 290#0010000200000088
(1713559739.201537) can0 400#288000000000002A
(1713559739.203912) can0 541#0440E800007FFFB3
(1713559739.204648) can0 174#FA7F005D457909BD
(1713559739.204879) can0 178#FC7F073111930983
(1713559739.205115) can0 17C#048001002F690963
(1713559739.206691) can0 120#000000080700008E
(1713559739.206936) can0 121#000000000000008B
(1713559739.207178) can0 129#000000010000008F
(1713559739.207700) can0 410#2880008B9F6E8BAA
(1713559739.209697) can0 550#48000C0001000023
(1713559739.209936) can0 12F#F8100320000000A2
(1713559739.210169) can0 12A#1428701C6058004C
(1713559739.210425) can0 12D#00000000000000BE
(1713559739.210665) can0 290#00100002000000BD
(1713559739.211642) can0 400#2880000000000040
(1713559739.213898) can0 551#000000000004C000
(1713559739.214150) can0 5D1#9958000200000000
(1713559739.214649) can0 174#FA7F005D3F790ADD
(1713559739.214880) can0 178#FC7F083114930A51
(1713559739.215130) can0 140#0000030000000000
(1713559739.215398) can0 17C#FC7F010034690AAE
(1713559739.217572) can0 410#2880008B9F6E8BC0
(1713559739.219626) can0 12F#F8100320000000C8
(1713559739.219861) can0 128#1388030000EC78C9
(1713559739.220105) can0 12D#00000000000000D4
(1713559739.220349) can0 12E#000000000000C0CF
(1713559739.220598) can0 290#00000002000000DC
(1713559739.221632) can0 400#2880000000000075
(1713559739.222453) can0 5D0#9958010200000000
(1713559739.222688) can0 5B1#008A9A6800000042
(1713559739.222927) can0 5CF#7444540000000000
(1713559739.223911) can0 541#0440E800007FFFD9
(1713559739.224649) can0 174#F67F005D37790B77
(1713559739.224877) can0 178#FC7F09301A930BB2
(1713559739.225113) can0 17C#F47F010040690B2F
(1713559739.226789) can0 120#00000008070000BB
(1713559739.227035) can0 121#00000000000000BE
(1713559739.227278) can0 129#00000001000000BA
(1713559739.227682) can0 410#2880008B9F6E8B21
(1713559739.229880) can0 12F#F810032000000029
(1713559739.230126) can0 12D#0000000000000035
(1713559739.230374) can0 290#000000020000003D
(1713559739.231737) can0 400#2880000000000094
(1713559739.233925) can0 551#000000000004C000
(1713559739.234179) can0 552#00FFFFFFFFFFFF90
(1713559739.234425) can0 5D1#9958000200000000
(1713559739.234657) can0 174#F27F005D2D790C5A
(1713559739.234891) can0 178#FC7F0A3820930CE4
(1713559739.235132) can0 17C#F07F010046690C10
(1713559739.235389) can0 5D2#7444540000000000
(1713559739.235591) can0 140#0000030000000000
(1713559739.235809) can0 450#005600001B004A00
(1713559739.237515) can0 410#2880008B9F6E8B4B
(1713559739.239655) can0 12F#F810032000000043
(1713559739.239888) can0 128#1388030000EC7828
(1713559739.240137) can0 12D#000000000000005F
(1713559739.240381) can0 12E#000000000000C02E
(1713559739.240627) can0 290#0000000200000057
(1713559739.241730) can0 400#28800000000000A1
(1713559739.241978) can0 6B9#0020400000000000
(1713559739.242222) can0 5A2#1410140000000000
(1713559739.243901) can0 541#0440E800007FFF38
(1713559739.244655) can0 174#EE7F005D2C790DCA
(1713559739.244889) can0 178#F87F000027930D4A
(1713559739.245131) can0 17C#EC7F01003D690DC7
(1713559739.246882) can0 120#00000008070000D1
(1713559739.247127) can0 121#00000000000000D4
(1713559739.247396) can0 129#00000001000000D0
(1713559739.247610) can0 410#2880008B9F6E8B7E
(1713559739.249887) can0 12F#F810032000000076
(1713559739.250133) can0 12D#000000000000006A
(1713559739.250381) can0 290#0000000200000062
(1713559739.251834) can0 400#28800000000000CB
(1713559739.253624) can0 4EA#0000000000000000
(1713559739.253869) can0 5B2#0800000000000000
(1713559739.254114) can0 310#FFFFFFFF7D7D0000
(1713559739.254360) can0 551#000000000004C000
(1713559739.254609) can0 5D1#9958000200000000
(1713559739.254843) can0 174#EC7F005D35790ECC
(1713559739.255074) can0 178#F87F013027930E68
(1713559739.255343) can0 17C#F07F01002A690E70
(1713559739.255929) can0 140#0000030000000000
(1713559739.257464) can0 410#2880008B9F6E8B9F
(1713559739.259517) can0 12F#F810032000000097
(1713559739.259750) can0 128#1388030000EC7842
(1713559739.259982) can0 12A#1428701C60580079
(1713559739.260228) can0 12D#000000000000008B
(1713559739.260472) can0 12E#000000000000C044
(1713559739.260724) can0 290#0000000200000083
(1713559739.260968) can0 550#48000C0001000049
(1713559739.261207) can0 5A0#0000006244928076
(1713559739.261837) can0 400#288000000000002A
(1713559739.263897) can0 541#0440E800007FFF52
(1713559739.264672) can0 174#EA7F005D3F790F0D
(1713559739.264902) can0 178#FC7F00001C930FB1
(1713559739.265137) can0 17C#FC7F010021690F56
(1713559739.266982) can0 120#0000000807000030
(1713559739.267228) can0 121#0000000000000035
(1713559739.267475) can0 129#0000000100000031
(1713559739.267708) can0 410#2880008B9F6E8BAA
(1713559739.269816) can0 12F#F8100320000000A2
(1713559739.270065) can0 12D#00000000000000BE
(1713559739.270311) can0 290#00000002000000B6
(1713559739.271927) can0 400#2880000000000040
(1713559739.273901) can0 551#000000000004C000
(1713559739.274149) can0 5D1#9958000200000000
(1713559739.274673) can0 174#EE7F005D40790011
(1713559739.274905) can0 178#028001530A9300D7
(1713559739.275147) can0 17C#088001001F690005
(1713559739.276446) can0 140#0000030000000000
(1713559739.277409) can0 410#2880008B9F6E8BC0
(1713559739.279516) can0 12F#F8100320000000C8
(1713559739.279751) can0 128#1388030000EC7877
(1713559739.279994) can0 12D#00000000000000D4
(1713559739.280241) can0 12E#000000000000C071
(1713559739.280490) can0 290#00000002000000DC
(1713559739.281920) can0 400#2880000000000075
(1713559739.282573) can0 540#000000104000A000
(1713559739.282815) can0 5B0#6342000000000042
(1713559739.283866) can0 541#0440E800007FFF67
(1713559739.284167) can0 552#00FFFFFFFFFFFFA5
(1713559739.284413) can0 450#005600001B004A00
(1713559739.284677) can0 174#F07F005D387901F0
(1713559739.284911) can0 178#02800243039301D2
(1713559739.285149) can0 17C#0C800100246901D9
(1713559739.287077) can0 120#000000080700005A
(1713559739.287350) can0 121#000000000000005F
(1713559739.287570) can0 129#000000010000005B
(1713559739.287806) can0 410#2880008B9F6E8B21
(1713559739.289892) can0 12F#F800032000000022
(1713559739.290138) can0 12D#0000000000000035
(1713559739.290386) can0 290#000000020000003D
(1713559739.292022) can0 400#2880000000000094
(1713559739.293905) can0 551#000000000004C000
(1713559739.294148) can0 5D1#9958000200000000
(1713559739.294681) can0 174#EE7F005D30790263
(1713559739.294915) can0 178#FE7F0332079302E4
(1713559739.295156) can0 17C#068001002A69029F
(1713559739.297014) can0 140#0000030000000000
(1713559739.297249) can0 410#2880008B9F6E8B4B
(1713559739.299531) can0 12F#F810032000000043
(1713559739.299764) can0 128#1388030000EC7896
(1713559739.300013) can0 12D#000000000000005F
(1713559739.300259) can0 12E#000000000000C090
(1713559739.300506) can0 290#0000000200000057
(1713559739.302017) can0 400#28800000000000A1
(1713559739.303847) can0 541#0440E800007FFF86
(1713559739.304638) can0 174#EA7F005D2F790389
(1713559739.304871) can0 178#FE7F04300C930355
(1713559739.305112) can0 17C#FE7F01002F690379
(1713559739.307075) can0 410#2880008B9F6E8B7E
(1713559739.307347) can0 120#000000080700006F
(1713559739.307575) can0 121#000000000000006A
(1713559739.307821) can0 129#000000010000006E
(1713559739.309696) can0 550#48000C000100007C
(1713559739.309930) can0 12A#1428701C60580098
(1713559739.310176) can0 12D#000000000000006A
(1713559739.310423) can0 12F#F810032000000076
(1713559739.310669) can0 290#0000000200000062
(1713559739.312121) can0 400#28800000000000CB
(1713559739.313894) can0 551#000000000004C000
(1713559739.314143) can0 5D1#9958000200000000
(1713559739.314696) can0 174#E67F005D327904FC
(1713559739.314931) can0 178#008005300D930442
(1713559739.315169) can0 17C#FC7F010037690484
(1713559739.317047) can0 410#2880008B9F6E8B9F
(1713559739.317530) can0 140#0000030000000000
(1713559739.319617) can0 12F#F810032000000097
(1713559739.319851) can0 128#1388030000EC78A3
(1713559739.320098) can0 12D#000000000000008B
(1713559739.320341) can0 12E#000000000000C0A5
(1713559739.320594) can0 290#0000000200000083
(1713559739.322116) can0 400#288000000000002A
(1713559739.322406) can0 5D0#9958010200000000
(1713559739.322642) can0 5B1#008A9A6800000077
(1713559739.322880) can0 5CF#7444540000000000
(1713559739.323852) can0 541#0440E800007FFFB3
(1713559739.324645) can0 174#E67F005D307905E2
(1713559739.324884) can0 178#048006320D9305AF
(1713559739.325123) can0 17C#00800100436905CC
(1713559739.327022) can0 410#2880008B9F6E8BAA
(1713559739.327275) can0 120#000000080700008E
(1713559739.327521) can0 121#000000000000008B
(1713559739.327760) can0 129#000000010000008F
(1713559739.329897) can0 12F#F8100320000000A2
(1713559739.330146) can0 12D#00000000000000BE
(1713559739.330392) can0 290#00000002000000B6
(1713559739.332201) can0 400#2880000000000040
(1713559739.333916) can0 551#000000000004C000
(1713559739.334173) can0 552#00FFFFFFFFFFFFCF
(1713559739.334418) can0 5D1#9958000200000000
(1713559739.334662) can0 5D2#7444540000000000
(1713559739.334905) can0 174#E67F005D2D790658
(1713559739.335128) can0 178#0880073711930698
(1713559739.335390) can0 17C#008001004869066B
(1713559739.335610) can0 450#005600001B004A00
(1713559739.336993) can0 410#2880008B9F6E8BC0
(1713559739.338049) can0 140#0000030000000000
(1713559739.339639) can0 12F#F8100320000000C8
(1713559739.339873) can0 128#1388030000EC78C9
(1713559739.340117) can0 12D#00000000000000D4
(1713559739.340361) can0 12E#000000000000C0CF
(1713559739.340609) can0 290#00000002000000DC
(1713559739.342126) can0 6B9#0020400000000000
(1713559739.342372) can0 400#2880000000000075
(1713559739.342616) can0 5A2#1410140000000000
(1713559739.343845) can0 541#0440E800007FFFD9
(1713559739.344650) can0 174#E47F005C2C7907ED
(1713559739.344888) can0 178#0680085F119307BA
(1713559739.345125) can0 17C#FC7F010046690764
(1713559739.346963) can0 410#2880008B9F6E8B21
(1713559739.347393) can0 120#00000008070000BB
(1713559739.347614) can0 121#00000000000000BE
(1713559739.347857) can0 129#00000001000000BA
(1713559739.349861) can0 12F#F810032000000029
(1713559739.350107) can0 12D#0000000000000035
(1713559739.350356) can0 290#000000020000003D
(1713559739.352290) can0 400#2880000000000094
(1713559739.353420) can0 4EA#0000000000000000
(1713559739.353665) can0 5B2#0800000000000000
(1713559739.353911) can0 310#FFFFFFFF7D7D0000
(1713559739.354157) can0 551#000000000004C000
(1713559739.354404) can0 5D1#9958000200000000
(1713559739.354695) can0 174#EA7F005D307908D8
(1713559739.354929) can0 178#0480093011930867
(1713559739.355170) can0 17C#FC7F010043690856
(1713559739.356942) can0 410#2880008B9F6E8B4B
(1713559739.358572) can0 140#0000030000000000
(1713559739.359589) can0 12F#F810032000000043
(1713559739.359826) can0 128#1388030000EC7828
(1713559739.360060) can0 12A#1428701C605800AD
(1713559739.360310) can0 12D#000000000000005F
(1713559739.360553) can0 12E#000000000000C02E
(1713559739.360800) can0 290#0000000200000057
(1713559739.361042) can0 550#48000C000100009D
(1713559739.361278) can0 5A0#0000006244928097
(1713559739.362314) can0 400#28800000000000A1
(1713559739.363841) can0 541#0440E800007FFF38
(1713559739.364654) can0 174#F07F005D3A79091B
(1713559739.364885) can0 178#04800A3717930935
(1713559739.365124) can0 17C#FC7F01003F690909
(1713559739.366915) can0 410#2880008B9F6E8B7E
(1713559739.367466) can0 120#00000008070000D1
(1713559739.367709) can0 121#00000000000000D4
(1713559739.367959) can0 129#00000001000000D0
(1713559739.369923) can0 12F#F80003200000007D
(1713559739.370168) can0 12D#000000000000006A
(1713559739.370416) can0 290#0000000200000062
(1713559739.372389) can0 400#28800000000000CB
(1713559739.373895) can0 551#000000000004C000
(1713559739.374144) can0 5D1#9958000200000000
(1713559739.374701) can0 174#EE7F005D42790AC0
(1713559739.374933) can0 178#0A800B311F930A1C
(1713559739.375175) can0 17C#FC7F010040690AE0
(1713559739.376896) can0 410#2880008B9F6E8B9F
(1713559739.379091) can0 140#0000030000000000
(1713559739.379636) can0 12F#F810032000000097
(1713559739.379865) can0 128#1388030000EC7842
(1713559739.380111) can0 12D#000000000000008B
(1713559739.380355) can0 12E#000000000000C044
(1713559739.380608) can0 290#0000000200000083
(1713559739.382402) can0 400#288000000000002A
(1713559739.383086) can0 540#0000001040009F00
(1713559739.383329) can0 5B0#6342000000000077
(1713559739.384656) can0 174#E87F005D40790B0D
(1713559739.384892) can0 178#128000001D930B52
(1713559739.385129) can0 17C#FC7F010042690BFE
(1713559739.386320) can0 541#0440E800007FFF52
(1713559739.386574) can0 552#00FFFFFFFFFFFF2E
(1713559739.386810) can0 410#2880008B9F6E8BAA
(1713559739.387051) can0 450#005600001B004A00
(1713559739.387516) can0 120#0000000807000030
(1713559739.387764) can0 121#0000000000000035
(1713559739.388007) can0 129#0000000100000031
(1713559739.389949) can0 12F#F8100320000000A2
(1713559739.390196) can0 12D#00000000000000BE
(1713559739.390441) can0 290#00000002000000B6
(1713559739.392486) can0 400#2880000000000040
(1713559739.393892) can0 551#000000000004C000
(1713559739.394142) can0 5D1#9958000200000000
(1713559739.394706) can0 174#E67F005D3A790C18
(1713559739.394938) can0 178#1880013718930C11
(1713559739.395172) can0 17C#FE7F010043690C98
(1713559739.396841) can0 410#2880008B9F6E8BC0
(1713559739.399613) can0 140#0000030000000000
(1713559739.399843) can0 128#1388030000EC7877
(1713559739.400086) can0 12D#00000000000000D4
(1713559739.400335) can0 12E#000000000000C071
(1713559739.400577) can0 12F#F8100320000000C8
(1713559739.400788) can0 290#00000002000000DC
(1713559739.402496) can0 400#2880000000000075
(1713559739.403844) can0 541#0440E800007FFF67
(1713559739.404661) can0 174#E67F005D34790D0C
(1713559739.404892) can0 178#1680022E1C930D91
(1713559739.405132) can0 17C#FC7F01003F690D7D
(1713559739.406780) can0 410#2880008B9F6E8B21
(1713559739.407610) can0 120#000000080700005A
(1713559739.407857) can0 121#000000000000005F
(1713559739.408100) can0 129#000000010000005B
(1713559739.409705) can0 550#48000C00010000A8
(1713559739.409947) can0 12F#F810032000000029
(1713559739.410183) can0 12A#1428701C605800C7
(1713559739.410442) can0 12D#0000000000000035
(1713559739.410678) can0 290#000000020000003D
(1713559739.412584) can0 400#2880000000000094
(1713559739.413890) can0 551#000000000004C000
(1713559739.414139) can0 5D1#9958000200000000
(1713559739.414717) can0 174#E67F005D30790E2D
(1713559739.414950) can0 178#1080033120930E60
(1713559739.415187) can0 17C#FC7F010032690EDF
(1713559739.416807) can0 410#2880008B9F6E8B4B
(1713559739.419687) can0 12F#F810032000000043
(1713559739.419904) can0 128#1388030000EC7896
(1713559739.420152) can0 12D#000000000000005F
(1713559739.420397) can0 12E#000000000000C090
(1713559739.420647) can0 140#0000030000000000
(1713559739.420893) can0 290#0000000200000057
(1713559739.422453) can0 5D0#9958010200000000
(1713559739.422700) can0 400#28800000000000A1
(1713559739.422936) can0 5B1#008A9A6800000096
(1713559739.423176) can0 5CF#7444540000000000
(1713559739.423848) can0 541#0440E800007FFF86
(1713559739.424667) can0 174#E87F005D34790F37
(1713559739.424901) can0 178#0C8004301D930F44
(1713559739.425140) can0 17C#FC7F010031690F4E
(1713559739.426730) can0 410#2880008B9F6E8B7E
(1713559739.427713) can0 120#000000080700006F
(1713559739.427964) can0 121#000000000000006A
(1713559739.428212) can0 129#000000010000006E
(1713559739.429823) can0 12F#F810032000000076
(1713559739.430069) can0 12D#000000000000006A
(1713559739.430317) can0 290#0000000200000062
(1713559739.432670) can0 400#28800000000000CB
(1713559739.433912) can0 551#000000000004C000
(1713559739.434165) can0 552#00FFFFFFFFFFFF44
(1713559739.434412) can0 5D1#9958000200000000
(1713559739.434658) can0 5D2#7444540000000000
(1713559739.434887) can0 174#EC7F005D407900AB
(1713559739.435132) can0 178#048000001893007E
(1713559739.435408) can0 17C#FE7F01004269008B
(1713559739.435612) can0 450#005600001B004A00
(1713559739.436752) can0 410#2880008B9F6E8B9F
(1713559739.439685) can0 12F#F810032000000097
(1713559739.439926) can0 128#1388030000EC78A3
(1713559739.440166) can0 12D#000000000000008B
(1713559739.440409) can0 12E#000000000000C0A5
(1713559739.440659) can0 140#0000030000000000
(1713559739.440910) can0 290#0000000200000083
(1713559739.442403) can0 6B9#0020400000000000
(1713559739.442647) can0 5A2#1410140000000000
(1713559739.442895) can0 400#288000000000002A
(1713559739.443844) can0 541#0440E800007FFFB3
(1713559739.444680) can0 174#EC7F005D4E7901BF
(1713559739.444913) can0 178#FC7F01381C93018E
(1713559739.445153) can0 17C#0280010050690196
(1713559739.446673) can0 410#2880008B9F6E8BAA
(1713559739.447810) can0 120#000000080700008E
(1713559739.448053) can0 121#000000000000008B
(1713559739.448295) can0 129#000000010000008F
(1713559739.449730) can0 12F#F8000320000000A9
(1713559739.449978) can0 12D#00000000000000BE
(1713559739.450224) can0 290#00000002000000B6
(1713559739.452774) can0 400#2880000000000040
(1713559739.453221) can0 4EA#0000000000000000
(1713559739.453465) can0 5B2#0800000000000000
(1713559739.453710) can0 310#FFFFFFFF7D7D0000
(1713559739.453957) can0 551#000000000004C000
(1713559739.454207) can0 5D1#9958000200000000
(1713559739.454735) can0 174#EC7F005D50790289
(1713559739.454967) can0 178#F47F02321C93027E
(1713559739.455205) can0 17C#048001004A690275
(1713559739.456702) can0 410#2880008B9F6E8BC0
(1713559739.459556) can0 12F#F8100320000000C8
(1713559739.459790) can0 128#1388030000EC78C9
(1713559739.460024) can0 12A#1428701C60580026
(1713559739.460275) can0 12D#00000000000000D4
(1713559739.460514) can0 12E#000000000000C0CF
(1713559739.460760) can0 290#00000002000000DC
(1713559739.461002) can0 550#48000C00010000C2
(1713559739.461252) can0 140#0000030000000000
(1713559739.461490) can0 5A0#00000062449280A2
(1713559739.462835) can0 400#2880000000000075
(1713559739.463885) can0 541#0440E800007FFFD9
(1713559739.464687) can0 174#F07F005D48790382
(1713559739.464917) can0 178#EC7F03321493036E
(1713559739.465155) can0 17C#048001003269032C
(1713559739.466621) can0 410#2880008B9F6E8B21
(1713559739.467916) can0 120#00000008070000BB
(1713559739.468161) can0 121#00000000000000BE
(1713559739.468403) can0 129#00000001000000BA
(1713559739.469769) can0 12F#F810032000000029
(1713559739.470015) can0 12D#0000000000000035
(1713559739.470264) can0 290#000000020000003D
(1713559739.472886) can0 400#2880000000000094
(1713559739.473892) can0 551#000000000004C000
(1713559739.474141) can0 5D1#9958000200000000
(1713559739.474736) can0 174#F07F005D3B790415
(1713559739.474967) can0 178#EA7F04350D93048A
(1713559739.475209) can0 17C#088001001769047D
(1713559739.476637) can0 410#2880008B9F6E8B4B
(1713559739.479561) can0 12F#F810032000000043
(1713559739.479795) can0 128#1388030000EC7828
(1713559739.480045) can0 12D#000000000000005F
(1713559739.480289) can0 12E#000000000000C02E
(1713559739.480543) can0 290#0000000200000057
(1713559739.481687) can0 140#0000030000000000
(1713559739.482918) can0 400#28800000000000A1
(1713559739.483570) can0 540#0000001040009F00
(1713559739.483810) can0 5B0#6342000000000096
(1713559739.484054) can0 541#0440E800007FFF38
(1713559739.484308) can0 552#00FFFFFFFFFFFF71
(1713559739.484506) can0 450#005600001B004A00
(1713559739.484738) can0 174#F07F005D3279058B
(1713559739.484974) can0 178#F07F0000129305D1
(1713559739.485214) can0 17C#0C8001000B69051B
(1713559739.486588) can0 410#2880008B9F6E8B7E
(1713559739.488012) can0 120#00000008070000D1
(1713559739.488254) can0 121#00000000000000D4
(1713559739.488497) can0 129#00000001000000D0
(1713559739.489839) can0 12F#F810032000000076
(1713559739.490085) can0 12D#000000000000006A
(1713559739.490333) can0 290#0000000200000062
(1713559739.492913) can0 400#28800000000000CB
(1713559739.493842) can0 551#000000000004C000
(1713559739.494091) can0 5D1#9958000200000000
(1713559739.494742) can0 174#F07F005D347906A9
(1713559739.494984) can0 178#F87F01321F930683
(1713559739.495223) can0 17C#0C8001001769062E
(1713559739.496639) can0 410#2880008B9F6E8B9F
(1713559739.499557) can0 12F#F810032000000097
(1713559739.499788) can0 128#1388030000EC7842
(1713559739.500034) can0 12D#000000000000008B
(1713559739.500281) can0 12E#000000000000C044
(1713559739.500531) can0 290#0000000200000083
(1713559739.502203) can0 140#0000830000000000
(1713559739.503025) can0 400#288000000000002A
(1713559739.503891) can0 541#0440E800007FFF52
(1713559739.504745) can0 174#F27F005D3B790788
(1713559739.504979) can0 178#FC7F02302393074C
(1713559739.505219) can0 17C#088001002F69077E
(1713559739.506631) can0 410#2880008B9F6E8BAA
(1713559739.508111) can0 120#0000000807000030
(1713559739.508357) can0 121#0000000000000035
(1713559739.508602) can0 129#0000000100000031
(1713559739.509654) can0 550#48000C0001000023
(1713559739.509886) can0 12A#1428701C6058004C
(1713559739.510134) can0 12D#00000000000000BE
(1713559739.510374) can0 12F#F8100320000000A2
(1713559739.510622) can0 290#00000002000000B6
(1713559739.513016) can0 400#2880000000000040
(1713559739.513836) can0 551#000000000004C000
(1713559739.514085) can0 5D1#9958000200000000
(1713559739.514749) can0 174#F47F005D4279082B
(1713559739.514982) can0 178#FA7F03321C9308C7
(1713559739.515218) can0 17C#008001004A6908CE
(1713559739.516637) can0 410#2880008B9F6E8BC0
(1713559739.519590) can0 12F#F8100320000000C8
(1713559739.519822) can0 128#1388030000EC7877
(1713559739.520065) can0 12D#00000000000000D4
(1713559739.520314) can0 12E#000000000000C071
(1713559739.520560) can0 290#00100002000000D7
(1713559739.522476) can0 5D0#9958010200000000
(1713559739.522712) can0 5B1#008A9A68000000A3
(1713559739.522962) can0 140#0000830000000000
(1713559739.523218) can0 400#2880000000000075
(1713559739.523451) can0 5CF#7444540000000000
(1713559739.523893) can0 541#0440E800007FFF67
(1713559739.524748) can0 174#F67F005D4079098F
(1713559739.524979) can0 178#F47F04331A930948
(1713559739.525218) can0 17C#FA7F010058690900
(1713559739.526631) can0 410#2880008B9F6E8B21
(1713559739.528205) can0 120#000000080700005A
(1713559739.528451) can0 121#000000000000005F
(1713559739.528695) can0 129#000000010000005B
(1713559739.529739) can0 12F#F800032000000022
(1713559739.529986) can0 12D#0000000000000035
(1713559739.530230) can0 290#0010000200000036
(1713559739.533107) can0 400#2880000000000094
(1713559739.533858) can0 551#000000000004C000
(1713559739.534113) can0 552#00FFFFFFFFFFFF90
(1713559739.534361) can0 55A#0017160000000000
(1713559739.534606) can0 5D1#9958000200000000
(1713559739.534838) can0 174#F87F005D38790AED
(1713559739.535066) can0 178#EC7F05311D930AC3
(1713559739.535360) can0 17C#FC7F010056690AFD
(1713559739.535590) can0 5D2#7444540000000000
(1713559739.535851) can0 450#005600001B004A00
(1713559739.536635) can0 410#2880008B9F6E8B4B
(1713559739.539625) can0 12F#F810032000000043
(1713559739.539855) can0 128#1388030000EC7896
(1713559739.540105) can0 12D#000000000000005F
(1713559739.540351) can0 12E#000000000000C090
(1713559739.540597) can0 290#001000020000005C
(1713559739.542607) can0 6B9#0020400000000000
(1713559739.542851) can0 5A2#1410140000000000
(1713559739.543210) can0 400#28800000000000A1
(1713559739.543464) can0 140#0000830000000000
(1713559739.543884) can0 541#0440E800007FFF86
(1713559739.544771) can0 174#F87F005D32790BFF
(1713559739.545000) can0 178#EE7F063020930BEA
(1713559739.545232) can0 17C#0480010055690B1E
(1713559739.546635) can0 410#2880008B9F6E8B7E
(1713559739.548359) can0 120#000000080700006F
(1713559739.548607) can0 121#000000000000006A
(1713559739.548809) can0 129#000000010000006E
(1713559739.549741) can0 12F#F810032000000076
(1713559739.549987) can0 12D#000000000000006A
(1713559739.550231) can0 290#0010000200000069
(1713559739.552969) can0 4EA#0000000000000000
(1713559739.553213) can0 5B2#0800000000000000
(1713559739.553459) can0 310#FFFFFFFF7D7D0000
(1713559739.553705) can0 400#28800000000000CB
(1713559739.553952) can0 551#000000000004C000
(1713559739.554199) can0 5D1#9958000200000000
(1713559739.554712) can0 174#F67F005D32790CAD
(1713559739.554945) can0 178#F07F073122930CF5
(1713559739.555180) can0 17C#0880010051690CF0
(1713559739.556637) can0 410#2880008B9F6E8B9F
(1713559739.559556) can0 12F#F810032000000097
(1713559739.559789) can0 128#1388030000EC78A3
(1713559739.560020) can0 12A#1428701C60580079
(1713559739.560267) can0 12D#000000000000008B
(1713559739.560510) can0 12E#000000000000C0A5
(1713559739.560763) can0 290#0000000200000083
(1713559739.561007) can0 550#48000C0001000049
(1713559739.561243) can0 5A0#00000062449280C8
(1713559739.563301) can0 400#288000000000002A
(1713559739.563760) can0 140#0000830000000000
(1713559739.564002) can0 541#0440E800007FFFB3
(1713559739.564766) can0 174#F27F005D34790DDC
(1713559739.565001) can0 178#EE7F08381D930D83
(1713559739.565236) can0 17C#0C8001004E690D1A
(1713559739.566630) can0 410#2880008B9F6E8BAA
(1713559739.568451) can0 120#000000080700008E
(1713559739.568692) can0 121#000000000000008B
(1713559739.568887) can0 129#000000010000008F
(1713559739.569775) can0 12F#F8100320000000A2
(1713559739.570023) can0 12D#00000000000000BE
(1713559739.570269) can0 290#00000002000000B6
(1713559739.573304) can0 400#2880000000000040
(1713559739.573837) can0 551#000000000004C000
(1713559739.574087) can0 5D1#9958000200000000
(1713559739.574717) can0 174#F07F005D2C790E55
(1713559739.574952) can0 178#F07F000014930E1B
(1713559739.575189) can0 17C#0680010048690E50
(1713559739.576637) can0 410#2880008B9F6E8BC0
(1713559739.579568) can0 12F#F8100320000000C8
(1713559739.579800) can0 128#1388030000EC78C9
(1713559739.580044) can0 12D#00000000000000D4
(1713559739.580288) can0 12E#000000000000C0CF
(1713559739.580536) can0 290#00000002000000DC
(1713559739.583399) can0 400#2880000000000075
(1713559739.583905) can0 541#0440E800007FFFD9
(1713559739.584151) can0 540#0000001040009F00
(1713559739.584401) can0 140#0000830000000000
(1713559739.584644) can0 552#00FFFFFFFFFFFFA5
(1713559739.584873) can0 174#EC7F005D1C790F62
(1713559739.585119) can0 178#F87F000009930F49
(1713559739.585355) can0 17C#0080010038690FD6
(1713559739.585594) can0 450#005600001B004A00
(1713559739.585838) can0 5B0#63420000000000A3
(1713559739.586632) can0 410#2880008B9F6E8B21
(1713559739.588544) can0 120#00000008070000BB
(1713559739.588788) can0 121#00000000000000BE
(1713559739.588989) can0 129#00000001000000BA
(1713559739.589775) can0 12F#F810032000000029
(1713559739.590020) can0 12D#0000000000000035
(1713559739.590268) can0 290#000000020000003D
(1713559739.593398) can0 400#2880000000000094
(1713559739.593849) can0 551#000000000004C000
(1713559739.594099) can0 5D1#9958000200000000
(1713559739.594739) can0 174#E67F005D11790034
(1713559739.594975) can0 178#0680015206930029
(1713559739.595216) can0 17C#FE7F01002A6900D7
(1713559739.596571) can0 410#2880008B9F6E8B4B
(1713559739.599622) can0 12F#F810032000000043
(1713559739.599860) can0 128#1388030000EC7828
(1713559739.600107) can0 12D#000000000000005F
(1713559739.600351) can0 12E#000000000000C02E
(1713559739.600598) can0 290#001000020000005C
(1713559739.603497) can0 400#28800000000000A1
(1713559739.603884) can0 541#0440E800007FFF38
(1713559739.604798) can0 140#0000830000000000
(1713559739.605028) can0 174#DE7F005D1379012E
(1713559739.605264) can0 178#0E80026F099301FE
(1713559739.605505) can0 17C#FE7F01002C6901CF
(1713559739.606593) can0 410#2880008B9F6E8B7E
(1713559739.608644) can0 120#00000008070000D1
(1713559739.608885) can0 121#00000000000000D4
(1713559739.609127) can0 129#00000001000000D0
(1713559739.609658) can0 550#48000C000100007C
(1713559739.609891) can0 12A#1428701C60580098
(1713559739.610138) can0 12D#000000000000006A
(1713559739.610381) can0 12F#F80003200000007D
(1713559739.610626) can0 290#0010000200000069
(1713559739.613497) can0 400#28800000000000CB
(1713559739.613852) can0 551#000000000004C000
(1713559739.614102) can0 5D1#9958000200000000
(1713559739.614740) can0 174#D67F005D14790251
(1713559739.614976) can0 178#0C8003620C9302CF
(1713559739.615216) can0 17C#FA7F01003869029F
(1713559739.616518) can0 410#2880008B9F6E8B9F
(1713559739.619639) can0 12F#F810032000000097
(1713559739.619870) can0 128#1388030000EC7842
(1713559739.620116) can0 12D#000000000000008B
(1713559739.620359) can0 12E#000000000000C044
(1713559739.620611) can0 290#0000000200000083
(1713559739.622492) can0 5D0#9958010200000000
(1713559739.622730) can0 5B1#008A9A68000000C9
(1713559739.622966) can0 5CF#7444540000000000
(1713559739.623593) can0 400#288000000000002A
(1713559739.623903) can0 541#0440E800007FFF52
(1713559739.624785) can0 174#D27F005D14790325
(1713559739.625023) can0 178#08800465079303C4
(1713559739.625259) can0 17C#FA7F0100466903C3
(1713559739.625510) can0 140#0000830000000000
(1713559739.626537) can0 410#2880008B9F6E8BAA
(1713559739.628757) can0 120#0000000807000030
(1713559739.628994) can0 121#0000000000000035
(1713559739.629238) can0 129#0000000100000031
(1713559739.629729) can0 12F#F8100320000000A2
(1713559739.629977) can0 12D#00000000000000BE
(1713559739.630224) can0 290#00000002000000B6
(1713559739.633601) can0 400#2880000000000040
(1713559739.633882) can0 551#000000000004C000
(1713559739.634136) can0 552#00FFFFFFFFFFFFCF
(1713559739.634382) can0 5D1#9958000200000000
(1713559739.634626) can0 5D2#7444540000000000
(1713559739.634860) can0 174#D27F005D177904FA
(1713559739.635097) can0 178#08800572FF9204E4
(1713559739.635346) can0 17C#FC7F01004D6904C3
(1713559739.635570) can0 450#005600001B004A00
(1713559739.636464) can0 410#2880008B9F6E8BC0
(1713559739.639619) can0 12F#F8100320000000C8
(1713559739.639851) can0 128#1388030000EC7877
(1713559739.640094) can0 12D#00000000000000D4
(1713559739.640342) can0 12E#000000000000C071
(1713559739.640590) can0 290#00000002000000DC
(1713559739.642811) can0 6B9#0020400000000000
(1713559739.643053) can0 5A2#1410140000000000
(1713559739.643692) can0 400#2880000000000075
(1713559739.643931) can0 541#0440E800007FFF67
(1713559739.644800) can0 174#D27F005D257905CC
(1713559739.645038) can0 178#0E80067401930530
(1713559739.645274) can0 17C#FA7F01004D69050D
(1713559739.645838) can0 140#0000830000000000
(1713559739.646482) can0 410#2880008B9F6E8B21
(1713559739.648834) can0 120#000000080700005A
(1713559739.649081) can0 121#000000000000005F
(1713559739.649324) can0 129#000000010000005B
(1713559739.649654) can0 12F#F810032000000029
(1713559739.649908) can0 12D#0000000000000035
(1713559739.650150) can0 290#000000020000003D
(1713559739.652814) can0 4EA#0000000000000000
(1713559739.653057) can0 5B2#0800000000000000
(1713559739.653303) can0 310#FFFFFFFF7D7D0000
(1713559739.653738) can0 400#2880000000000094
(1713559739.653941) can0 551#000000000004C000
(1713559739.654189) can0 5D1#9958000200000000
(1713559739.654751) can0 174#CE7F005D40790630
(1713559739.654985) can0 178#188007200C93066D
(1713559739.655221) can0 17C#F67F01004D690691
(1713559739.656088) can0 410#2880008B9F6E8B4B
(1713559739.659648) can0 550#48000C000100009D
(1713559739.659883) can0 128#1388030000EC7896
(1713559739.660117) can0 12A#1428701C605800AD
(1713559739.660366) can0 12D#000000000000005F
(1713559739.660612) can0 12E#000000000000C090
(1713559739.660856) can0 12F#F810032000000043
(1713559739.661102) can0 290#001000020000005C
(1713559739.661388) can0 5A0#0000006244928029
(1713559739.663787) can0 400#28800000000000A1
(1713559739.664029) can0 541#0440E800007FFF86
(1713559739.664813) can0 174#CE7F005D58790739
(1713559739.665047) can0 178#1A80084218930751
(1713559739.665287) can0 17C#F67F01004D69078C
(1713559739.666110) can0 410#2880008B9F6E8B7E
(1713559739.666361) can0 140#0000030000000000
(1713559739.668930) can0 120#000000080700006F
(1713559739.669180) can0 121#000000000000006A
(1713559739.669428) can0 129#000000010000006E
(1713559739.669686) can0 12F#F810032000000076
(1713559739.669932) can0 12D#000000000000006A
(1713559739.670183) can0 290#0010000200000069
(1713559739.673847) can0 400#28800000000000CB
(1713559739.674241) can0 551#000000000004C000
(1713559739.674491) can0 5D1#9958000200000000
(1713559739.674763) can0 174#D67F005D647908CB
(1713559739.675000) can0 178#1880096F22930818
(1713559739.675233) can0 17C#FC7F01004A6908D5
(1713559739.675548) can0 6AB#ACC2A57596A3C162
(1713559739.676035) can0 410#2880008B9F6E8B9F
(1713559739.679646) can0 12F#F810032000000097
(1713559739.679882) can0 128#1388030000EC78A3
(1713559739.680127) can0 12D#000000000000008B
(1713559739.680372) can0 12E#000000000000C0A5
(1713559739.680624) can0 290#0000000200000083
(1713559739.683888) can0 400#288000000000002A
