(1713559252.405618) can0 541#0440E800007FFFD9
(1713559252.405866) can0 552#00FFFFFFFFFFFFA5
(1713559252.406113) can0 450#005520001B004A00
(1713559252.409095) can0 550#48000C000100007C
(1713559252.411933) can0 140#0000030000000000
(1713559252.413107) can0 400#288000000000002A
(1713559252.413348) can0 12F#F800012000000073
(1713559252.413582) can0 12A#1428701C60580098
(1713559252.413828) can0 12D#000000000000006A
(1713559252.414061) can0 174#F47F00551A790211
(1713559252.414296) can0 178#00800831129302A7
(1713559252.414537) can0 17C#F87F01003269022A
(1713559252.414785) can0 290#0000000200000062
(1713559252.415021) can0 410#2880008B9F6E8BAA
(1713559252.415267) can0 551#000000000004C000
(1713559252.415521) can0 5D1#9958000200000000
(1713559252.418196) can0 120#000000000700009B
(1713559252.418439) can0 121#000000000000008B
(1713559252.418680) can0 129#000000010000008F
(1713559252.423146) can0 400#2880000000000040
(1713559252.423394) can0 12F#F7F0012000000094
(1713559252.423628) can0 128#1388030000EC7842
(1713559252.423874) can0 12D#000000000000008B
(1713559252.424118) can0 12E#000000000000C044
(1713559252.424348) can0 174#F47F00550E790312
(1713559252.424586) can0 178#008009301A930341
(1713559252.424822) can0 17C#F67F01002C690327
(1713559252.425074) can0 290#0000000200000083
(1713559252.425314) can0 410#2880008B9F6E8BC0
(1713559252.425560) can0 541#0440E800007FFF38
(1713559252.432462) can0 140#0000030000000000
(1713559252.433212) can0 400#2880000000000075
(1713559252.433459) can0 12D#00000000000000BE
(1713559252.433701) can0 12F#F8000120000000A7
(1713559252.433938) can0 174#F27F005510790483
(1713559252.434175) can0 178#02800A381F930403
(1713559252.434416) can0 17C#F67F01001F6904D0
(1713559252.434662) can0 290#00000002000000B6
(1713559252.434898) can0 410#2880008B9F6E8B21
(1713559252.435144) can0 540#0000001040009E00
(1713559252.435392) can0 551#000000000004C000
(1713559252.435630) can0 5B0#63420000000000A3
(1713559252.435872) can0 5D1#9958000200000000
(1713559252.437956) can0 6B9#0020400000000000
(1713559252.438200) can0 5A2#1410140000000000
(1713559252.438447) can0 120#00000000070000AE
(1713559252.438670) can0 121#00000000000000BE
(1713559252.438912) can0 129#00000001000000BA
(1713559252.443241) can0 400#2880000000000094
(1713559252.443482) can0 12F#F8000120000000CD
(1713559252.443716) can0 128#1388030000EC7877
(1713559252.443960) can0 12D#00000000000000D4
(1713559252.444208) can0 12E#000000000000C071
(1713559252.444442) can0 174#F07F005525790585
(1713559252.444680) can0 178#028000001D93054D
(1713559252.444920) can0 17C#FA7F0100166905F5
(1713559252.445168) can0 290#00000002000000DC
(1713559252.445407) can0 410#2880008B9F6E8B4B
(1713559252.445649) can0 541#0440E800007FFF52
(1713559252.453000) can0 140#0000030000000000
(1713559252.453256) can0 12F#F80001200000002C
(1713559252.453503) can0 12D#0000000000000035
(1713559252.453734) can0 174#EE7F0055407906C3
(1713559252.453971) can0 178#FC7F0130159306C2
(1713559252.454211) can0 17C#008001001C690615
(1713559252.454458) can0 290#000000020000003D
(1713559252.454704) can0 400#28800000000000A1
(1713559252.454945) can0 410#2880008B9F6E8B7E
(1713559252.455195) can0 4EA#0000000000000000
(1713559252.455442) can0 551#000000000004C000
(1713559252.455687) can0 5B2#0800000000000000
(1713559252.455934) can0 310#FFFFFFFF7D7D0000
(1713559252.456178) can0 552#00FFFFFFFFFFFFCF
(1713559252.456424) can0 5D1#9958000200000000
(1713559252.456668) can0 5D2#7444540000000000
(1713559252.456914) can0 450#005520001B004A00
(1713559252.458428) can0 120#00000000070000C4
(1713559252.458672) can0 121#00000000000000D4
(1713559252.458914) can0 129#00000001000000D0
(1713559252.459118) can0 550#48000C000100009D
(1713559252.463350) can0 400#28800000000000CB
(1713559252.463573) can0 128#1388030000EC7896
(1713559252.463806) can0 12A#1428701C605800AD
(1713559252.464056) can0 12D#000000000000005F
(1713559252.464302) can0 12E#000000000000C090
(1713559252.464548) can0 12F#F7F0012000000040
(1713559252.464780) can0 174#EE7F0055487907D2
(1713559252.465019) can0 178#F47F00000C930793
(1713559252.465257) can0 17C#0280010029690713
(1713559252.465503) can0 290#0000000200000057
(1713559252.465745) can0 410#2880008B9F6E8B9F
(1713559252.465988) can0 541#0440E800007FFF67
(1713559252.466225) can0 5A0#0000006244928029
(1713559252.473286) can0 12F#F800012000000073
(1713559252.473528) can0 12D#000000000000006A
(1713559252.473778) can0 140#0000030000000000
(1713559252.474006) can0 174#EE7F0055377908A7
(1713559252.474236) can0 178#F47F0153099308C0
(1713559252.474476) can0 17C#008001002F690817
(1713559252.474724) can0 290#0000000200000062
(1713559252.474972) can0 400#288000000000002A
(1713559252.475208) can0 410#2880008B9F6E8BAA
(1713559252.475455) can0 551#000000000004C000
(1713559252.475703) can0 5D1#9958000200000000
(1713559252.478547) can0 120#0000000007000025
(1713559252.478789) can0 121#0000000000000035
(1713559252.479031) can0 129#0000000100000031
(1713559252.479270) can0 5B1#008A9A6800000028
(1713559252.479512) can0 5D0#9958010200000000
(1713559252.479750) can0 5CF#7444540000000000
(1713559252.483393) can0 12F#F800012000000092
(1713559252.483627) can0 128#1388030000EC78A3
(1713559252.483873) can0 12D#000000000000008B
(1713559252.484117) can0 12E#000000000000C0A5
(1713559252.484347) can0 174#EE7F00551E790909
(1713559252.484582) can0 178#FC7F02430793099D
(1713559252.484820) can0 17C#FC7F01002A690998
(1713559252.485070) can0 290#0010000200000088
(1713559252.485318) can0 400#2880000000000040
(1713559252.485558) can0 410#2880008B9F6E8BC0
(1713559252.485800) can0 541#0440E800007FFF86
(1713559252.493270) can0 12F#F8000120000000A7
(1713559252.493515) can0 12D#00000000000000BE
(1713559252.493742) can0 174#EA7F005513790AC2
(1713559252.493975) can0 178#068003320D930A71
(1713559252.494225) can0 140#0000030000000000
(1713559252.494463) can0 17C#FC7F010022690AB3
(1713559252.494709) can0 290#00100002000000BD
(1713559252.494955) can0 400#2880000000000075
(1713559252.495191) can0 410#2880008B9F6E8B21
(1713559252.495650) can0 551#000000000004C000
(1713559252.495897) can0 5D1#9958000200000000
(1713559252.498634) can0 120#000000000700004F
(1713559252.498882) can0 121#000000000000005F
(1713559252.499126) can0 129#000000010000005B
(1713559252.503451) can0 12F#F7F00120000000CB
(1713559252.503672) can0 128#1388030000EC78C9
(1713559252.503916) can0 12D#00000000000000D4
(1713559252.504159) can0 12E#000000000000C0CF
(1713559252.504389) can0 174#EA7F005517790BD9
(1713559252.504625) can0 178#0C80043017930B3F
(1713559252.504867) can0 17C#0280010021690B83
(1713559252.505113) can0 290#00100002000000D7
(1713559252.505359) can0 400#2880000000000094
(1713559252.505598) can0 410#2880008B9F6E8B4B
(1713559252.505840) can0 541#0440E800007FFFB3
(1713559252.506094) can0 552#00FFFFFFFFFFFF2E
(1713559252.506340) can0 450#005520001B004A00
(1713559252.509076) can0 550#48000C00010000A8
(1713559252.513279) can0 12F#F80001200000002C
(1713559252.513515) can0 12A#1428701C605800C7
(1713559252.513761) can0 12D#0000000000000035
(1713559252.513988) can0 174#EA7F005529790CAB
(1713559252.514220) can0 178#088005301C930CEF
(1713559252.514458) can0 17C#0680010021690CB9
(1713559252.514708) can0 140#0000030000000000
(1713559252.514960) can0 290#0010000200000036
(1713559252.515249) can0 400#28800000000000A1
(1713559252.515487) can0 410#2880008B9F6E8B7E
(1713559252.515736) can0 551#000000000004C000
(1713559252.515996) can0 5D1#9958000200000000
(1713559252.518733) can0 120#000000000700007A
(1713559252.518984) can0 121#000000000000006A
(1713559252.519232) can0 129#000000010000006E
(1713559252.523456) can0 12F#F800012000000046
(1713559252.523697) can0 128#1388030000EC7828
(1713559252.523941) can0 12D#000000000000005F
(1713559252.524184) can0 12E#000000000000C02E
(1713559252.524416) can0 174#EC7F00553F790D78
(1713559252.524646) can0 178#FE7F06321C930D18
(1713559252.524883) can0 17C#0480010026690D94
(1713559252.525129) can0 290#0000000200000057
(1713559252.525374) can0 400#28800000000000CB
(1713559252.525615) can0 410#2880008B9F6E8B9F
(1713559252.525858) can0 541#0440E800007FFFD9
(1713559252.533216) can0 12F#F800012000000073
(1713559252.533461) can0 12D#000000000000006A
(1713559252.533690) can0 174#F27F00554B790EA9
(1713559252.533920) can0 178#EE7F073717930EBF
(1713559252.534158) can0 17C#FA7F01002A690E18
(1713559252.534406) can0 290#0000000200000062
(1713559252.534653) can0 400#288000000000002A
(1713559252.534890) can0 410#2880008B9F6E8BAA
(1713559252.535184) can0 140#0000030000000000
(1713559252.535438) can0 540#0000001040009E00
(1713559252.535682) can0 551#000000000004C000
(1713559252.535923) can0 5B0#63420000000000C9
(1713559252.536163) can0 5D1#9958000200000000
(1713559252.538201) can0 6B9#0020400000000000
(1713559252.538443) can0 5A2#1410140000000000
(1713559252.538829) can0 120#000000000700009B
(1713559252.539073) can0 121#000000000000008B
(1713559252.539316) can0 129#000000010000008F
(1713559252.543481) can0 12F#F7F0012000000094
(1713559252.543713) can0 128#1388030000EC7842
(1713559252.543959) can0 12D#000000000000008B
(1713559252.544202) can0 12E#000000000000C044
(1713559252.544432) can0 174#F67F00554B790FDD
(1713559252.544662) can0 178#E47F085F0C930F6C
(1713559252.544898) can0 17C#F27F010021690F57
(1713559252.545150) can0 290#0000000200000083
(1713559252.545399) can0 400#2880000000000040
(1713559252.545638) can0 410#2880008B9F6E8BC0
(1713559252.545883) can0 541#0440E800007FFF38
(1713559252.553226) can0 12F#F8000120000000A7
(1713559252.553473) can0 12D#00000000000000BE
(1713559252.553703) can0 174#F47F0055457900D5
(1713559252.553937) can0 178#E87F0930069300BF
(1713559252.554176) can0 17C#F07F01001B690071
(1713559252.554421) can0 290#00000002000000B6
(1713559252.554667) can0 400#2880000000000075
(1713559252.554904) can0 410#2880008B9F6E8B21
(1713559252.555153) can0 4EA#0000000000000000
(1713559252.555452) can0 551#000000000004C000
(1713559252.555700) can0 140#0000030000000000
(1713559252.555944) can0 552#00FFFFFFFFFFFF44
(1713559252.556190) can0 5B2#0800000000000000
(1713559252.556435) can0 310#FFFFFFFF7D7D0000
(1713559252.556677) can0 55A#0017160000000000
(1713559252.556925) can0 5D1#9958000200000000
(1713559252.557171) can0 5D2#7444540000000000
(1713559252.557419) can0 450#005520001B004A00
(1713559252.558926) can0 120#00000000070000AE
(1713559252.559171) can0 121#00000000000000BE
(1713559252.559416) can0 129#00000001000000BA
(1713559252.559656) can0 550#48000C00010000C2
(1713559252.563522) can0 12F#F8000120000000CD
(1713559252.563754) can0 128#1388030000EC7877
(1713559252.563988) can0 12A#1428701C60580026
(1713559252.564240) can0 12D#00000000000000D4
(1713559252.564483) can0 12E#000000000000C071
(1713559252.564713) can0 174#F27F00553F79015C
(1713559252.564946) can0 178#F07F0A370C93018C
(1713559252.565183) can0 17C#F67F010022690114
(1713559252.565431) can0 290#00000002000000DC
(1713559252.565678) can0 400#2880000000000094
(1713559252.565915) can0 410#2880008B9F6E8B4B
(1713559252.566158) can0 541#0440E800007FFF52
(1713559252.566396) can0 5A0#0000006244928043
(1713559252.573233) can0 12F#F80001200000002C
(1713559252.573478) can0 12D#0000000000000035
(1713559252.573708) can0 174#F47F00553B7902AE
(1713559252.573940) can0 178#F87F0B31159302E1
(1713559252.574180) can0 17C#FC7F01002A690257
(1713559252.574429) can0 290#000000020000003D
(1713559252.574674) can0 400#28800000000000A1
(1713559252.574914) can0 410#2880008B9F6E8B7E
(1713559252.575161) can0 551#000000000004C000
(1713559252.575418) can0 5D1#9958000200000000
(1713559252.576145) can0 140#0000030000000000
(1713559252.578712) can0 5D0#9958010200000000
(1713559252.578945) can0 5B1#008A9A6800000042
(1713559252.579192) can0 120#00000000070000C4
(1713559252.579439) can0 121#00000000000000D4
(1713559252.579678) can0 129#00000001000000D0
(1713559252.579916) can0 5CF#7444540000000000
(1713559252.583446) can0 12F#F7F0012000000040
(1713559252.583678) can0 128#1388030000EC7896
(1713559252.583929) can0 12D#000000000000005F
(1713559252.584175) can0 12E#000000000000C090
(1713559252.584417) can0 174#F87F00553A790387
(1713559252.584647) can0 178#F67F00001A930340
(1713559252.584886) can0 17C#008001002669035B
(1713559252.585131) can0 290#0000000200000057
(1713559252.585377) can0 400#28800000000000CB
(1713559252.585617) can0 410#2880008B9F6E8B9F
(1713559252.585862) can0 541#0440E800007FFF67
(1713559252.593217) can0 12F#F800012000000073
(1713559252.593462) can0 12D#000000000000006A
(1713559252.593698) can0 174#F87F005537790451
(1713559252.593930) can0 178#F07F01371A930431
(1713559252.594168) can0 17C#0280010021690438
(1713559252.594417) can0 290#0000000200000062
(1713559252.594665) can0 400#288000000000002A
(1713559252.594900) can0 410#2880008B9F6E8BAA
(1713559252.595147) can0 551#000000000004C000
(1713559252.595397) can0 5D1#9958000200000000
(1713559252.596667) can0 140#0000030000000000
(1713559252.599122) can0 120#0000000007000025
(1713559252.599401) can0 121#0000000000000035
(1713559252.599620) can0 129#0000000100000031
(1713559252.603443) can0 12F#F800012000000092
(1713559252.603676) can0 128#1388030000EC78A3
(1713559252.603922) can0 12D#000000000000008B
(1713559252.604166) can0 12E#000000000000C0A5
(1713559252.604400) can0 174#F47F0055357905F4
(1713559252.604639) can0 178#EE7F022E1A93050E
(1713559252.604871) can0 17C#FC7F01002669050E
(1713559252.605121) can0 290#0010000200000088
(1713559252.605369) can0 400#2880000000000040
(1713559252.605609) can0 410#2880008B9F6E8BC0
(1713559252.605851) can0 541#0440E800007FFF86
(1713559252.606103) can0 552#00FFFFFFFFFFFF71
(1713559252.606349) can0 450#005520001B004A00
(1713559252.609076) can0 550#48000C0001000023
(1713559252.613316) can0 12F#F8000120000000A7
(1713559252.613547) can0 12A#1428701C6058004C
(1713559252.613795) can0 12D#00000000000000BE
(1713559252.614027) can0 174#F47F005538790656
(1713559252.614260) can0 178#F07F033117930633
(1713559252.614497) can0 17C#F47F010031690669
(1713559252.614744) can0 290#00100002000000BD
(1713559252.614991) can0 400#2880000000000075
(1713559252.615226) can0 410#2880008B9F6E8B21
(1713559252.615473) can0 551#000000000004C000
(1713559252.615720) can0 5D1#9958000200000000
(1713559252.617187) can0 140#0000030000000000
(1713559252.619216) can0 120#000000000700004F
(1713559252.619464) can0 121#000000000000005F
(1713559252.619707) can0 129#000000010000005B
(1713559252.623444) can0 12F#F7F00120000000CB
(1713559252.623677) can0 128#1388030000EC78C9
(1713559252.623921) can0 12D#00000000000000D4
(1713559252.624166) can0 12E#000000000000C0CF
(1713559252.624401) can0 174#F87F00553B79077C
(1713559252.624638) can0 178#F87F043015930769
(1713559252.624885) can0 17C#F67F010034690747
(1713559252.625126) can0 290#00100002000000D7
(1713559252.625370) can0 400#2880000000000094
(1713559252.625608) can0 410#2880008B9F6E8B4B
(1713559252.625851) can0 541#0440E800007FFFB3
(1713559252.633214) can0 12F#F80001200000002C
(1713559252.633458) can0 12D#0000000000000035
(1713559252.633692) can0 174#FC7F00553B7908AE
(1713559252.633931) can0 178#00800000129308F0
(1713559252.634171) can0 17C#008001003269088A
(1713559252.634415) can0 290#0010000200000036
(1713559252.634661) can0 400#28800000000000A1
(1713559252.634902) can0 410#2880008B9F6E8B7E
(1713559252.635148) can0 540#0000001040009E00
(1713559252.635394) can0 551#000000000004C000
(1713559252.635635) can0 5B0#6342000000000028
(1713559252.635876) can0 5D1#9958000200000000
(1713559252.637713) can0 140#0000030000000000
(1713559252.638369) can0 6B9#0020400000000000
(1713559252.638612) can0 5A2#1410140000000000
(1713559252.639314) can0 120#000000000700007A
(1713559252.639567) can0 121#000000000000006A
(1713559252.639815) can0 129#000000010000006E
(1713559252.643481) can0 12F#F800012000000046
(1713559252.643718) can0 128#1388030000EC7828
(1713559252.643967) can0 12D#000000000000005F
(1713559252.644211) can0 12E#000000000000C02E
(1713559252.644445) can0 174#F87F0055377909D0
(1713559252.644679) can0 178#028001380F930953
(1713559252.644919) can0 17C#068001003B6909C7
(1713559252.645173) can0 290#0000000200000057
(1713559252.645414) can0 400#28800000000000CB
(1713559252.645652) can0 410#2880008B9F6E8B9F
(1713559252.645894) can0 541#0440E800007FFFD9
(1713559252.653225) can0 12F#F7F0012000000075
(1713559252.653470) can0 12D#000000000000006A
(1713559252.653700) can0 174#F07F00552C790ABD
(1713559252.653936) can0 178#FE7F02320D930A69
(1713559252.654170) can0 17C#0480010048690A9E
(1713559252.654418) can0 290#0000000200000062
(1713559252.654667) can0 400#288000000000002A
(1713559252.654905) can0 410#2880008B9F6E8BAA
(1713559252.655153) can0 4EA#0000000000000000
(1713559252.655400) can0 551#000000000004C000
(1713559252.655646) can0 5B2#0800000000000000
(1713559252.655890) can0 310#FFFFFFFF7D7D0000
(1713559252.656136) can0 552#00FFFFFFFFFFFF90
(1713559252.656382) can0 5D1#9958000200000000
(1713559252.656676) can0 5D2#7444540000000000
(1713559252.656922) can0 450#005520001B004A00
(1713559252.658235) can0 140#0000030000000000
(1713559252.659134) can0 550#48000C0001000049
(1713559252.659411) can0 120#000000000700009B
(1713559252.659653) can0 121#000000000000008B
(1713559252.659895) can0 129#000000010000008F
(1713559252.663505) can0 12F#F800012000000092
(1713559252.663737) can0 128#1388030000EC7842
(1713559252.663969) can0 12A#1428701C60580079
(1713559252.664215) can0 12D#000000000000008B
(1713559252.664459) can0 12E#000000000000C044
(1713559252.664687) can0 174#EC7F005524790BAE
(1713559252.664919) can0 178#F87F033214930B56
(1713559252.665157) can0 17C#FA7F010055690BBF
(1713559252.665409) can0 290#0020000200000095
(1713559252.665652) can0 400#2880000000000040
(1713559252.665890) can0 410#2880008B9F6E8BC0
(1713559252.666134) can0 541#0440E800007FFF38
(1713559252.666372) can0 5A0#0000006244928076
(1713559252.673225) can0 12F#F7F00120000000A1
(1713559252.673472) can0 12D#00000000000000BE
(1713559252.673704) can0 174#E87F005524790C94
(1713559252.673932) can0 178#F47F04351D930CC2
(1713559252.674164) can0 17C#F27F01005C690CBD
(1713559252.674410) can0 290#00200002000000A0
(1713559252.674656) can0 400#2880000000000075
(1713559252.674893) can0 410#2880008B9F6E8B21
(1713559252.675139) can0 551#000000000004C000
(1713559252.675388) can0 5D1#9958000200000000
(1713559252.678721) can0 5D0#9958010200000000
(1713559252.678970) can0 140#0000030000000000
(1713559252.679203) can0 5B1#008A9A6800000077
(1713559252.679442) can0 5CF#7444540000000000
(1713559252.679688) can0 120#00000000070000AE
(1713559252.679934) can0 121#00000000000000BE
(1713559252.680176) can0 129#00000001000000BA
(1713559252.683437) can0 12F#F8000120000000CD
(1713559252.683676) can0 128#1388030000EC7877
(1713559252.683922) can0 12D#00000000000000D4
(1713559252.684160) can0 12E#000000000000C071
(1713559252.684389) can0 174#E87F005524790D89
(1713559252.684624) can0 178#F87F000022930DC3
(1713559252.684863) can0 17C#F47F010056690D7C
(1713559252.685104) can0 290#00200002000000CA
(1713559252.685347) can0 400#2880000000000094
(1713559252.685601) can0 410#2880008B9F6E8B4B
(1713559252.687509) can0 541#0440E800007FFF52
(1713559252.693213) can0 12F#F80001200000002C
(1713559252.693456) can0 12D#0000000000000035
(1713559252.693684) can0 174#EA7F005522790E11
(1713559252.693917) can0 178#068001321F930ECA
(1713559252.694156) can0 17C#FA7F01003D690E8A
(1713559252.694401) can0 290#002000020000002B
(1713559252.694647) can0 400#28800000000000A1
(1713559252.694887) can0 410#2880008B9F6E8B7E
(1713559252.695134) can0 551#000000000004C000
(1713559252.695384) can0 5D1#9958000200000000
(1713559252.699226) can0 140#0000030000000000
(1713559252.699554) can0 120#00000000070000C4
(1713559252.699795) can0 121#00000000000000D4
(1713559252.700038) can0 129#00000001000000D0
(1713559252.703454) can0 12F#F7F0012000000040
(1713559252.703680) can0 128#1388030000EC7896
(1713559252.703930) can0 12D#000000000000005F
(1713559252.704175) can0 12E#000000000000C090
(1713559252.704406) can0 174#EC7F005524790FDA
(1713559252.704640) can0 178#128002301D930F9D
(1713559252.704878) can0 17C#0080010021690F4D
(1713559252.705124) can0 290#0000000200000057
(1713559252.705370) can0 400#28800000000000CB
(1713559252.705610) can0 410#2880008B9F6E8B9F
(1713559252.705854) can0 541#0440E800007FFF67
(1713559252.706107) can0 552#00FFFFFFFFFFFFA5
(1713559252.706354) can0 450#005520001B004A00
(1713559252.709129) can0 550#48000C000100007C
(1713559252.713339) can0 12F#F800012000000073
(1713559252.713563) can0 12A#1428701C60580098
(1713559252.713807) can0 12D#000000000000006A
(1713559252.714037) can0 174#EE7F005525790054
(1713559252.714275) can0 178#1480033220930015
(1713559252.714517) can0 17C#FC7F01001069004A
(1713559252.714766) can0 290#0000000200000062
(1713559252.715013) can0 400#288000000000002A
(1713559252.715250) can0 410#2880008B9F6E8BAA
(1713559252.715495) can0 551#000000000004C000
(1713559252.715740) can0 5D1#9958000200000000
(1713559252.719651) can0 120#0000000007000025
(1713559252.719898) can0 121#0000000000000035
(1713559252.720142) can0 129#0000000100000031
(1713559252.720393) can0 140#0000030000000000
(1713559252.723301) can0 410#2880008B9F6E8BC0
(1713559252.723537) can0 128#1388030000EC78A3
(1713559252.723782) can0 12D#000000000000008B
(1713559252.724026) can0 12E#000000000000C0A5
(1713559252.724268) can0 12F#F800012000000092
(1713559252.724498) can0 174#EA7F005527790123
(1713559252.724736) can0 178#0E8004331F9301E1
(1713559252.725022) can0 17C#F87F01000C69012C
(1713559252.725275) can0 290#0000000200000083
(1713559252.725523) can0 400#2880000000000040
(1713559252.725765) can0 541#0440E800007FFF86
(1713559252.733259) can0 12F#F7F00120000000A1
(1713559252.733511) can0 12D#00000000000000BE
(1713559252.733740) can0 174#E87F00553079022C
(1713559252.733972) can0 178#048005311D9302E0
(1713559252.734218) can0 17C#FC7F0100116902FF
(1713559252.734462) can0 290#00000002000000B6
(1713559252.734698) can0 410#2880008B9F6E8B21
(1713559252.734944) can0 400#2880000000000075
(1713559252.735190) can0 551#000000000004C000
(1713559252.735440) can0 540#0000001040009E00
(1713559252.735679) can0 5B0#6342000000000042
(1713559252.735919) can0 5D1#9958000200000000
(1713559252.738490) can0 6B9#0020400000000000
(1713559252.738733) can0 5A2#1410140000000000
(1713559252.739746) can0 120#000000000700004F
(1713559252.739994) can0 121#000000000000005F
(1713559252.740237) can0 129#000000010000005B
(1713559252.740488) can0 140#0000030000000000
(1713559252.743244) can0 410#2880008B9F6E8B4B
(1713559252.743485) can0 12F#F8000120000000CD
(1713559252.743722) can0 128#1388030000EC78C9
(1713559252.743964) can0 12D#00000000000000D4
(1713559252.744208) can0 12E#000000000000C0CF
(1713559252.744440) can0 174#EA7F00553D79030E
(1713559252.744681) can0 178#008006302093031A
(1713559252.744927) can0 17C#048001001669031A
(1713559252.745215) can0 290#00100002000000D7
(1713559252.745461) can0 400#2880000000000094
(1713559252.745703) can0 541#0440E800007FFFB3
(1713559252.753268) can0 12F#F80001200000002C
(1713559252.753512) can0 12D#0000000000000035
(1713559252.753757) can0 174#F07F00554879044D
(1713559252.753984) can0 178#068007312293046E
(1713559252.754220) can0 17C#08800100166904F2
(1713559252.754464) can0 290#0010000200000036
(1713559252.754704) can0 410#2880008B9F6E8B7E
(1713559252.754953) can0 400#28800000000000A1
(1713559252.755200) can0 4EA#0000000000000000
(1713559252.755449) can0 551#000000000004C000
(1713559252.755692) can0 5B2#0800000000000000
(1713559252.755938) can0 310#FFFFFFFF7D7D0000
(1713559252.756184) can0 552#00FFFFFFFFFFFFCF
(1713559252.756429) can0 5D1#9958000200000000
(1713559252.756674) can0 5D2#7444540000000000
(1713559252.756919) can0 450#005520001B004A00
(1713559252.759074) can0 550#48000C000100009D
(1713559252.759847) can0 120#000000000700007A
(1713559252.760098) can0 121#000000000000006A
(1713559252.760346) can0 129#000000010000006E
(1713559252.760793) can0 140#0000030000000000
(1713559252.763192) can0 410#2880008B9F6E8B9F
(1713559252.763457) can0 12F#F7F0012000000040
(1713559252.763696) can0 128#1388030000EC7828
(1713559252.763930) can0 12A#1428701C605800AD
(1713559252.764179) can0 12D#000000000000005F
(1713559252.764423) can0 12E#000000000000C02E
(1713559252.764656) can0 174#F47F00554D7905B0
(1713559252.764893) can0 178#1080083818930543
(1713559252.765138) can0 17C#04800100196905D2
(1713559252.765425) can0 290#0000000200000057
(1713559252.765671) can0 400#28800000000000CB
(1713559252.765914) can0 541#0440E800007FFFD9
(1713559252.766150) can0 5A0#0000006244928097
(1713559252.773223) can0 410#2880008B9F6E8BAA
(1713559252.773458) can0 12D#000000000000006A
(1713559252.773699) can0 12F#F800012000000073
(1713559252.773940) can0 174#F27F00554B790641
(1713559252.774175) can0 178#10800000069306F1
(1713559252.774418) can0 17C#008001001F690699
(1713559252.774663) can0 290#0000000200000062
(1713559252.774917) can0 400#288000000000002A
(1713559252.775163) can0 551#000000000004C000
(1713559252.775413) can0 5D1#9958000200000000
(1713559252.778686) can0 5D0#9958010200000000
(1713559252.778921) can0 5B1#008A9A6800000096
(1713559252.779159) can0 5CF#7444540000000000
(1713559252.779940) can0 120#000000000700009B
(1713559252.780182) can0 121#000000000000008B
(1713559252.780424) can0 129#000000010000008F
(1713559252.781312) can0 140#0000030000000000
(1713559252.783138) can0 410#2880008B9F6E8BC0
(1713559252.783392) can0 12F#F800012000000092
(1713559252.783625) can0 128#1388030000EC7842
(1713559252.783871) can0 12D#000000000000008B
(1713559252.784117) can0 12E#000000000000C044
(1713559252.784351) can0 174#F07F00553F7907A8
(1713559252.784593) can0 178#0C800000F4920729
(1713559252.784833) can0 17C#FC7F01001E690710
(1713559252.785083) can0 290#0010000200000088
(1713559252.785380) can0 400#2880000000000040
(1713559252.785624) can0 541#0440E800007FFF38
(1713559252.793162) can0 410#2880008B9F6E8B21
(1713559252.793406) can0 12D#00000000000000BE
(1713559252.793648) can0 12F#F8000120000000A7
(1713559252.793880) can0 174#F07F00552D790808
(1713559252.794120) can0 178#06800152F392088C
(1713559252.794352) can0 17C#F87F01001E6908C2
(1713559252.794597) can0 290#00100002000000BD
(1713559252.795007) can0 400#2880000000000075
(1713559252.795253) can0 551#000000000004C000
(1713559252.795504) can0 5D1#9958000200000000
(1713559252.800038) can0 120#00000000070000AE
(1713559252.800283) can0 121#00000000000000BE
(1713559252.800525) can0 129#00000001000000BA
(1713559252.801837) can0 140#0000030000000000
(1713559252.803089) can0 410#2880008B9F6E8B4B
(1713559252.803391) can0 12F#F7F00120000000CB
(1713559252.803623) can0 128#1388030000EC7877
(1713559252.803867) can0 12D#00000000000000D4
(1713559252.804117) can0 12E#000000000000C071
(1713559252.804344) can0 174#F47F00552979097A
(1713559252.804575) can0 178#FE7F026F019309BA
(1713559252.804815) can0 17C#F87F01002969097D
(1713559252.805061) can0 290#00100002000000D7
(1713559252.805308) can0 400#2880000000000094
(1713559252.805551) can0 541#0440E800007FFF52
(1713559252.805854) can0 552#00FFFFFFFFFFFF2E
(1713559252.806100) can0 450#005520001B004A00
(1713559252.809129) can0 550#48000C00010000A8
(1713559252.813108) can0 410#2880008B9F6E8B7E
(1713559252.813350) can0 12F#F80001200000002C
(1713559252.813586) can0 12A#1428701C605800C7
(1713559252.813832) can0 12D#0000000000000035
(1713559252.814062) can0 174#F47F00552F790A58
(1713559252.814299) can0 178#F47F036211930AC8
(1713559252.814529) can0 17C#FE7F010038690A1E
(1713559252.814771) can0 290#0010000200000036
(1713559252.815067) can0 551#000000000004C000
(1713559252.815314) can0 400#28800000000000A1
(1713559252.815556) can0 5D1#9958000200000000
(1713559252.820136) can0 120#00000000070000C4
(1713559252.820378) can0 121#00000000000000D4
(1713559252.820621) can0 129#00000001000000D0
(1713559252.822356) can0 140#0000030000000000
(1713559252.823032) can0 410#2880008B9F6E8B9F
(1713559252.823399) can0 12F#F800012000000046
(1713559252.823633) can0 128#1388030000EC7896
(1713559252.823883) can0 12D#000000000000005F
(1713559252.824129) can0 12E#000000000000C090
(1713559252.824357) can0 174#F47F005535790B52
(1713559252.824589) can0 178#EA7F04651D930B98
(1713559252.824823) can0 17C#0280010045690BD5
(1713559252.825069) can0 290#0000000200000057
(1713559252.825315) can0 400#28800000000000CB
(1713559252.825559) can0 541#0440E800007FFF67
(1713559252.833078) can0 410#2880008B9F6E8BAA
(1713559252.833316) can0 12F#F800012000000073
(1713559252.833562) can0 12D#000000000000006A
(1713559252.833792) can0 174#F47F00553A790C87
(1713559252.834020) can0 178#E67F05721F930CC8
(1713559252.834254) can0 17C#FC7F010046690CAB
(1713559252.834510) can0 290#0000000200000062
(1713559252.835052) can0 551#000000000004C000
(1713559252.835299) can0 400#288000000000002A
(1713559252.835542) can0 5D1#9958000200000000
(1713559252.835851) can0 540#0000001040009E00
(1713559252.836091) can0 5B0#6342000000000077
(1713559252.838666) can0 6B9#0020400000000000
(1713559252.838909) can0 5A2#1410140000000000
(1713559252.840232) can0 120#0000000007000025
(1713559252.840479) can0 121#0000000000000035
(1713559252.840724) can0 129#0000000100000031
(1713559252.842878) can0 140#0000030000000000
(1713559252.843118) can0 410#2880008B9F6E8BC0
(1713559252.843422) can0 12F#F7F0012000000094
(1713559252.843656) can0 128#1388030000EC78A3
(1713559252.843902) can0 12D#000000000000008B
(1713559252.844146) can0 12E#000000000000C0A5
(1713559252.844381) can0 174#F87F005542790D65
(1713559252.844612) can0 178#EC7F067417930D66
(1713559252.844850) can0 17C#F07F010040690D08
(1713559252.845101) can0 290#0000000200000083
(1713559252.845349) can0 400#2880000000000040
(1713559252.845591) can0 541#0440E800007FFF86
(1713559252.853031) can0 410#2880008B9F6E8B21
(1713559252.853266) can0 12F#F8000120000000A7
(1713559252.853514) can0 12D#00000000000000BE
(1713559252.853746) can0 174#F87F005546790E44
(1713559252.853983) can0 178#F87F07200C930E9C
(1713559252.854216) can0 17C#E87F010035690E85
(1713559252.854465) can0 290#00000002000000B6
(1713559252.854720) can0 4EA#0000000000000000
(1713559252.854959) can0 5B2#0800000000000000
(1713559252.855203) can0 310#FFFFFFFF7D7D0000
(1713559252.855452) can0 400#2880000000000075
(1713559252.855695) can0 551#000000000004C000
(1713559252.855984) can0 552#00FFFFFFFFFFFF44
(1713559252.856230) can0 5D1#9958000200000000
(1713559252.856474) can0 5D2#7444540000000000
(1713559252.856719) can0 450#005520001B004A00
(1713559252.859122) can0 550#48000C00010000C2
(1713559252.860327) can0 120#000000000700004F
(1713559252.860574) can0 121#000000000000005F
(1713559252.860818) can0 129#000000010000005B
(1713559252.862950) can0 410#2880008B9F6E8B4B
(1713559252.863403) can0 140#0000030000000000
(1713559252.863639) can0 128#1388030000EC78C9
(1713559252.863873) can0 12A#1428701C60580026
(1713559252.864117) can0 12D#00000000000000D4
(1713559252.864361) can0 12E#000000000000C0CF
(1713559252.864601) can0 12F#F8000120000000CD
(1713559252.864830) can0 174#F47F005543790F6B
(1713559252.865066) can0 178#0280084204930FC0
(1713559252.865304) can0 17C#F07F01002F690FE4
(1713559252.865552) can0 290#00000002000000DC
(1713559252.865798) can0 400#2880000000000094
(1713559252.866040) can0 541#0440E800007FFFB3
(1713559252.866322) can0 5A0#00000062449280A2
(1713559252.872977) can0 410#2880008B9F6E8B7E
(1713559252.873315) can0 12F#F7F001200000002A
(1713559252.873560) can0 12D#0000000000000035
(1713559252.873797) can0 174#F07F0055357900F4
(1713559252.874039) can0 178#0480096FFF920083
(1713559252.874278) can0 17C#00800100356900E8
(1713559252.874526) can0 290#000000020000003D
(1713559252.875059) can0 551#000000000004C000
(1713559252.875303) can0 5D1#9958000200000000
(1713559252.875550) can0 400#28800000000000A1
(1713559252.878735) can0 5D0#9958010200000000
(1713559252.878920) can0 5B1#008A9A68000000A3
(1713559252.879159) can0 5CF#7444540000000000
(1713559252.880427) can0 120#000000000700007A
(1713559252.880678) can0 121#000000000000006A
(1713559252.880927) can0 129#000000010000006E
(1713559252.882899) can0 410#2880008B9F6E8B9F
(1713559252.883390) can0 12F#F800012000000046
(1713559252.883627) can0 128#1388030000EC7828
(1713559252.883877) can0 12D#000000000000005F
(1713559252.884122) can0 12E#000000000000C02E
(1713559252.884371) can0 140#0000030000000000
(1713559252.884605) can0 174#EC7F00552C790170
(1713559252.884841) can0 178#00800A73FE920131
(1713559252.885082) can0 17C#0A8001003169019B
(1713559252.885328) can0 290#0000000200000057
(1713559252.885574) can0 400#28800000000000CB
(1713559252.885816) can0 541#0440E800007FFFD9
(1713559252.892921) can0 410#2880008B9F6E8BAA
(1713559252.893254) can0 12F#F800012000000073
(1713559252.893500) can0 12D#000000000000006A
(1713559252.893735) can0 174#EA7F00552D79020B
(1713559252.893971) can0 178#FE7F0B63FF920277
(1713559252.894209) can0 17C#0A80010022690228
(1713559252.894457) can0 290#0000000200000062
(1713559252.895049) can0 551#000000000004C000
(1713559252.895308) can0 5D1#9958000200000000
(1713559252.895551) can0 400#288000000000002A
(1713559252.900523) can0 120#000000000700009B
(1713559252.900766) can0 121#000000000000008B
(1713559252.901008) can0 129#000000010000008F
(1713559252.902818) can0 410#2880008B9F6E8BC0
(1713559252.903383) can0 12F#F7F0012000000094
(1713559252.903616) can0 128#1388030000EC7842
(1713559252.903862) can0 12D#000000000000008B
(1713559252.904106) can0 12E#000000000000C044
(1713559252.904336) can0 174#EA7F005532790388
(1713559252.904586) can0 140#0000030000000000
(1713559252.904822) can0 178#04800C6801930342
(1713559252.905062) can0 17C#FE7F01001C6903DD
(1713559252.905316) can0 290#0000000200000083
(1713559252.905563) can0 400#2880000000000040
(1713559252.905808) can0 541#0440E800007FFF38
(1713559252.906059) can0 552#00FFFFFFFFFFFF71
(1713559252.906305) can0 450#005520001B004A00
(1713559252.909123) can0 550#48000C0001000023
(1713559252.912860) can0 410#2880008B9F6E8B21
(1713559252.913322) can0 12F#F8000120000000A7
(1713559252.913554) can0 12A#1428701C6058004C
(1713559252.913802) can0 12D#00000000000000BE
(1713559252.914036) can0 174#EA7F0055307904D8
(1713559252.914272) can0 178#0C800D20039304A2
(1713559252.914512) can0 17C#F67F01001F6904D0
(1713559252.914758) can0 290#00000002000000B6
(1713559252.915064) can0 551#000000000004C000
(1713559252.915312) can0 5D1#9958000200000000
(1713559252.915584) can0 400#2880000000000075
(1713559252.920621) can0 120#00000000070000AE
(1713559252.920868) can0 121#00000000000000BE
(1713559252.921109) can0 129#00000001000000BA
(1713559252.922805) can0 410#2880008B9F6E8B4B
(1713559252.923394) can0 12F#F8000120000000CD
(1713559252.923627) can0 128#1388030000EC7877
(1713559252.923871) can0 12D#00000000000000D4
(1713559252.924119) can0 12E#000000000000C071
(1713559252.924350) can0 174#E87F00552C79056D
(1713559252.924584) can0 178#0E800E470D930598
(1713559252.924820) can0 17C#F67F0100216905EC
(1713559252.925070) can0 140#0000030000000000
(1713559252.925318) can0 290#00000002000000DC
(1713559252.925561) can0 541#0440E800007FFF52
(1713559252.925807) can0 400#2880000000000094
(1713559252.932859) can0 410#2880008B9F6E8B7E
(1713559252.933255) can0 12F#F7F001200000002A
(1713559252.933503) can0 12D#0000000000000035
(1713559252.933733) can0 174#E87F0055277906CA
(1713559252.933965) can0 178#0C800F6D1D930686
(1713559252.934207) can0 17C#FC7F01001C69060E
(1713559252.934456) can0 290#000000020000003D
(1713559252.935046) can0 551#000000000004C000
(1713559252.935295) can0 5D1#9958000200000000
(1713559252.935678) can0 400#28800000000000A1
(1713559252.936270) can0 540#0000001040009E00
(1713559252.936510) can0 5B0#6342000000000096
(1713559252.938904) can0 6B9#0020400000000000
(1713559252.939148) can0 5A2#1410140000000000
(1713559252.940721) can0 120#00000000070000C4
(1713559252.940964) can0 121#00000000000000D4
(1713559252.941207) can0 129#00000001000000D0
(1713559252.942807) can0 410#2880008B9F6E8B9F
(1713559252.943433) can0 12F#F800012000000046
(1713559252.943665) can0 128#1388030000EC7896
(1713559252.943915) can0 12D#000000000000005F
(1713559252.944161) can0 12E#000000000000C090
(1713559252.944393) can0 174#EC7F00552A79073B
(1713559252.944629) can0 178#0880006228930747
(1713559252.944867) can0 17C#028001001969073B
(1713559252.945113) can0 290#0000000200000057
(1713559252.945358) can0 541#0440E800007FFF67
(1713559252.945608) can0 140#0000030000000000
(1713559252.945854) can0 400#28800000000000CB
(1713559252.952854) can0 410#2880008B9F6E8BAA
(1713559252.953261) can0 12F#F800012000000073
(1713559252.953507) can0 12D#000000000000006A
(1713559252.953735) can0 174#EE7F0055377908A7
(1713559252.953969) can0 178#088001482B9308EB
(1713559252.954207) can0 17C#048001001E6908D9
(1713559252.954453) can0 290#0000000200000062
(1713559252.954703) can0 4EA#0000000000000000
(1713559252.954948) can0 5B2#0800000000000000
(1713559252.955194) can0 310#FFFFFFFF7D7D0000
(1713559252.955442) can0 551#000000000004C000
(1713559252.955694) can0 552#00FFFFFFFFFFFF90
(1713559252.955949) can0 400#288000000000002A
(1713559252.956185) can0 5D1#9958000200000000
(1713559252.956426) can0 5D2#7444540000000000
(1713559252.956672) can0 450#005520001B004A00
(1713559252.959125) can0 550#48000C0001000049
(1713559252.960827) can0 120#0000000007000025
(1713559252.961075) can0 121#0000000000000035
(1713559252.961319) can0 129#0000000100000031
(1713559252.962805) can0 410#2880008B9F6E8BC0
(1713559252.963447) can0 12F#F7F0012000000094
(1713559252.963681) can0 128#1388030000EC78A3
(1713559252.963913) can0 12A#1428701C60580079
(1713559252.964159) can0 12D#000000000000008B
(1713559252.964403) can0 12E#000000000000C0A5
(1713559252.964635) can0 174#EE7F00554679097D
(1713559252.964880) can0 178#0A8000001F930900
(1713559252.965120) can0 17C#008001002A690983
(1713559252.965372) can0 290#0000000200000083
(1713559252.965614) can0 541#0440E800007FFF86
(1713559252.965862) can0 400#2880000000000040
(1713559252.966113) can0 140#0000030000000000
(1713559252.966348) can0 5A0#00000062449280C8
(1713559252.972855) can0 410#2880008B9F6E8B21
(1713559252.973271) can0 12F#F8000120000000A7
(1713559252.973520) can0 12D#00000000000000BE
(1713559252.973751) can0 174#EE7F005551790AC8
(1713559252.973987) can0 178#0A8000000D930A3C
(1713559252.974225) can0 17C#F67F01003D690A45
(1713559252.974471) can0 290#00000002000000B6
(1713559252.975533) can0 551#000000000004C000
(1713559252.975784) can0 5D1#9958000200000000
(1713559252.976037) can0 400#2880000000000075
(1713559252.978736) can0 5D0#9958010200000000
(1713559252.978970) can0 5B1#008A9A68000000C9
(1713559252.979208) can0 5CF#7444540000000000
(1713559252.980917) can0 120#000000000700004F
(1713559252.981164) can0 121#000000000000005F
(1713559252.981409) can0 129#000000010000005B
(1713559252.982805) can0 410#2880008B9F6E8B4B
(1713559252.983386) can0 12F#F8000120000000CD
(1713559252.983621) can0 128#1388030000EC78C9
(1713559252.983866) can0 12D#00000000000000D4
(1713559252.984109) can0 12E#000000000000C0CF
(1713559252.984341) can0 174#F27F005550790B58
(1713559252.984576) can0 178#0A80000D0A930BE4
(1713559252.984810) can0 17C#EE7F010045690B77
(1713559252.985058) can0 290#00000002000000DC
(1713559252.985300) can0 541#0440E800007FFFB3
(1713559252.985866) can0 400#2880000000000094
(1713559252.986537) can0 140#0000030000000000
(1713559252.992859) can0 410#2880008B9F6E8B7E
(1713559252.993259) can0 12F#F80001200000002C
(1713559252.993505) can0 12D#0000000000000035
(1713559252.993734) can0 174#F67F00553F790CB4
(1713559252.993973) can0 178#0A80000012930CEC
(1713559252.994211) can0 17C#F07F01003A690C52
(1713559252.994459) can0 290#000000020000003D
(1713559252.995046) can0 551#000000000004C000
(1713559252.995294) can0 5D1#9958000200000000
(1713559252.995965) can0 400#28800000000000A1
(1713559253.001073) can0 120#000000000700007A
(1713559253.001316) can0 121#000000000000006A
(1713559253.001562) can0 129#000000010000006E
(1713559253.002855) can0 410#2880008B9F6E8B9F
(1713559253.003438) can0 12F#F7F0012000000040
(1713559253.003673) can0 128#1388030000EC7828
(1713559253.003922) can0 12D#000000000000005F
(1713559253.004167) can0 12E#000000000000C02E
(1713559253.004403) can0 174#F67F005530790D2F
(1713559253.004637) can0 178#068001361D930DA0
(1713559253.004877) can0 17C#F87F010026690D8F
(1713559253.005076) can0 290#001000020000005C
(1713559253.005317) can0 541#0440E800007FFFD9
(1713559253.005570) can0 552#00FFFFFFFFFFFFA5
(1713559253.005815) can0 450#005520001B004A00
(1713559253.006061) can0 400#28800000000000CB
(1713559253.007057) can0 140#0000030000000000
(1713559253.009085) can0 550#48000C000100007C
(1713559253.012803) can0 410#2880008B9F6E8BAA
(1713559253.013270) can0 12F#F800012000000073
(1713559253.013504) can0 12A#1428701C60580098
(1713559253.013750) can0 12D#000000000000006A
(1713559253.013980) can0 174#F67F00552C790E1A
(1713559253.014214) can0 178#028002301F930E3A
(1713559253.014500) can0 17C#028001000E690E5C
(1713559253.014745) can0 290#0010000200000069
(1713559253.015061) can0 551#000000000004C000
(1713559253.015310) can0 5D1#9958000200000000
(1713559253.016065) can0 400#288000000000002A
(1713559253.021163) can0 120#000000000700009B
(1713559253.021402) can0 121#000000000000008B
(1713559253.021643) can0 129#000000010000008F
(1713559253.022850) can0 410#2880008B9F6E8BC0
(1713559253.023445) can0 12F#F800012000000092
(1713559253.023674) can0 128#1388030000EC7842
(1713559253.023920) can0 12D#000000000000008B
(1713559253.024164) can0 12E#000000000000C044
(1713559253.024394) can0 174#F67F00552D790F88
(1713559253.024629) can0 178#0280033114930F50
(1713559253.024871) can0 17C#0A80010000690F9A
(1713559253.025124) can0 290#0000000200000083
(1713559253.025367) can0 541#0440E800007FFF38
(1713559253.026106) can0 400#2880000000000040
(1713559253.027590) can0 140#0000030000000000
(1713559253.032773) can0 410#2880008B9F6E8B21
(1713559253.033214) can0 12F#F8000120000000A7
(1713559253.033461) can0 12D#00000000000000BE
(1713559253.033706) can0 290#00000002000000B6
(1713559253.033941) can0 174#F67F0055307900AE
(1713559253.034177) can0 178#008004380A93004A
(1713559253.034417) can0 17C#108001000B690070
(1713559253.035044) can0 551#000000000004C000
(1713559253.035294) can0 5D1#9958000200000000
(1713559253.036154) can0 400#2880000000000075
(1713559253.036742) can0 540#0000001040009E00
(1713559253.036984) can0 5B0#63420000000000A3
(1713559253.039068) can0 6B9#0020400000000000
(1713559253.039312) can0 5A2#1410140000000000
(1713559253.041259) can0 120#00000000070000AE
(1713559253.041504) can0 121#00000000000000BE
(1713559253.041746) can0 129#00000001000000BA
(1713559253.042797) can0 410#2880008B9F6E8B4B
(1713559253.043483) can0 12F#F7F00120000000CB
(1713559253.043708) can0 128#1388030000EC7877
(1713559253.043951) can0 12D#00000000000000D4
(1713559253.044199) can0 12E#000000000000C071
(1713559253.044429) can0 174#F67F00552F79012D
(1713559253.044665) can0 178#FC7F0531079301A2
(1713559253.044903) can0 17C#108001002C6901D7
(1713559253.045151) can0 290#00000002000000DC
(1713559253.045393) can0 541#0440E800007FFF52
(1713559253.046200) can0 400#2880000000000094
(1713559253.048104) can0 140#0000030000000000
(1713559253.052723) can0 410#2880008B9F6E8B7E
(1713559253.053208) can0 12F#F80001200000002C
(1713559253.053454) can0 12D#0000000000000035
(1713559253.053702) can0 290#000000020000003D
(1713559253.053934) can0 174#F67F00552D790209
(1713559253.054166) can0 178#F67F0632079302E9
(1713559253.054402) can0 17C#1080010043690226
(1713559253.054652) can0 4EA#0000000000000000
(1713559253.054913) can0 5B2#0800000000000000
(1713559253.055193) can0 310#FFFFFFFF7D7D0000
(1713559253.055440) can0 551#000000000004C000
(1713559253.055686) can0 6E2#0544000000000000
(1713559253.055931) can0 552#00FFFFFFFFFFFFCF
(1713559253.056178) can0 5D1#9958000200000000
(1713559253.056426) can0 400#28800000000000A1
(1713559253.056662) can0 5D2#7444540000000000
(1713559253.056908) can0 450#005520001B004A00
(1713559253.059124) can0 550#48000C000100009D
(1713559253.061363) can0 120#00000000070000C4
(1713559253.061605) can0 121#00000000000000D4
(1713559253.061847) can0 129#00000001000000D0
(1713559253.062745) can0 410#2880008B9F6E8B9F
(1713559253.063515) can0 12F#F800012000000046
(1713559253.063755) can0 128#1388030000EC7896
(1713559253.063983) can0 12A#1428701C605800AD
(1713559253.064232) can0 12D#000000000000005F
(1713559253.064478) can0 12E#000000000000C090
(1713559253.064708) can0 174#F67F00553479038F
(1713559253.064940) can0 178#EC7F07390A9303EC
(1713559253.065180) can0 17C#0E8001004269030C
(1713559253.065426) can0 290#0000000200000057
(1713559253.065670) can0 541#0440E800007FFF67
(1713559253.065908) can0 5A0#0000006244928029
(1713559253.066304) can0 400#28800000000000CB
(1713559253.068629) can0 140#0000030000000000
(1713559253.072665) can0 410#2880008B9F6E8BAA
(1713559253.073223) can0 12F#F800012000000073
(1713559253.073469) can0 12D#000000000000006A
(1713559253.073717) can0 290#0000000200000062
(1713559253.073951) can0 174#F67F00553D79045F
(1713559253.074189) can0 178#E27F082D0F930420
(1713559253.074429) can0 17C#0C80010035690427
(1713559253.074997) can0 551#000000000004C000
(1713559253.075298) can0 5D1#9958000200000000
(1713559253.076343) can0 400#288000000000002A
(1713559253.078752) can0 5D0#9958010200000000
(1713559253.078989) can0 5B1#008A9A6800000028
(1713559253.079227) can0 5CF#7444540000000000
(1713559253.081458) can0 120#0000000007000025
(1713559253.081707) can0 121#0000000000000035
(1713559253.081946) can0 129#0000000100000031
(1713559253.082694) can0 410#2880008B9F6E8BC0
(1713559253.083435) can0 12F#F7F0012000000094
(1713559253.083668) can0 128#1388030000EC78A3
(1713559253.083923) can0 12D#000000000000008B
(1713559253.084161) can0 12E#000000000000C0A5
(1713559253.084393) can0 174#F67F00554079058F
(1713559253.084624) can0 178#E27F09300F93053D
(1713559253.084863) can0 17C#088001002D690547
(1713559253.085115) can0 290#0000000200000083
(1713559253.085357) can0 541#0440E800007FFF86
(1713559253.086400) can0 400#2880000000000040
(1713559253.089154) can0 140#0000030000000000
(1713559253.092308) can0 410#2880008B9F6E8B21
(1713559253.093205) can0 12F#F8000120000000A7
(1713559253.093453) can0 12D#00000000000000BE
(1713559253.093699) can0 290#00000002000000B6
(1713559253.093930) can0 174#F67F0055387906EC
(1713559253.094164) can0 178#EA7F0A320F930651
(1713559253.094401) can0 17C#04800100316906C9
(1713559253.094996) can0 551#000000000004C000
(1713559253.095246) can0 5D1#9958000200000000
(1713559253.096439) can0 400#2880000000000075
(1713559253.101559) can0 120#000000000700004F
(1713559253.101803) can0 121#000000000000005F
(1713559253.102047) can0 129#000000010000005B
(1713559253.102333) can0 410#2880008B9F6E8B4B
(1713559253.103440) can0 12F#F8000120000000CD
(1713559253.103674) can0 128#1388030000EC78C9
(1713559253.103917) can0 12D#00000000000000D4
(1713559253.104169) can0 12E#000000000000C0CF
(1713559253.104398) can0 174#F67F00552D790760
(1713559253.104629) can0 178#F07F0B3614930721
(1713559253.104875) can0 17C#008001003D6907B7
(1713559253.105123) can0 290#00000002000000DC
(1713559253.105364) can0 541#0440E800007FFFB3
(1713559253.105618) can0 552#00FFFFFFFFFFFF2E
(1713559253.105864) can0 450#005520001B004A00
(1713559253.106496) can0 400#2880000000000094
(1713559253.109077) can0 550#48000C00010000A8
(1713559253.109678) can0 140#0000030000000000
(1713559253.112257) can0 410#2880008B9F6E8B7E
(1713559253.113276) can0 12F#F80001200000002C
(1713559253.113512) can0 12A#1428701C605800C7
(1713559253.113759) can0 12D#0000000000000035
(1713559253.113987) can0 174#F67F00552279085D
(1713559253.114217) can0 178#F07F0C3015930877
(1713559253.114452) can0 17C#FE7F0100436908EC
(1713559253.114699) can0 290#000000020000003D
(1713559253.115009) can0 551#000000000004C000
(1713559253.115257) can0 5D1#9958000200000000
(1713559253.116543) can0 400#28800000000000A1
(1713559253.121646) can0 120#000000000700007A
(1713559253.121895) can0 121#000000000000006A
(1713559253.122142) can0 129#000000010000006E
(1713559253.122383) can0 410#2880008B9F6E8B9F
(1713559253.123486) can0 12F#F7F0012000000040
(1713559253.123723) can0 128#1388030000EC7828
(1713559253.123973) can0 12D#000000000000005F
(1713559253.124217) can0 12E#000000000000C02E
(1713559253.124455) can0 174#F47F0055227909FA
(1713559253.124685) can0 178#F27F00001593097D
(1713559253.124920) can0 17C#0080010045690955
(1713559253.125166) can0 290#0000000200000057
(1713559253.125408) can0 541#0440E800007FFFD9
(1713559253.126605) can0 400#28800000000000CB
(1713559253.130202) can0 140#0000030000000000
(1713559253.132201) can0 410#2880008B9F6E8BAA
(1713559253.133206) can0 12F#F800012000000073
(1713559253.133452) can0 12D#000000000000006A
(1713559253.133700) can0 290#0000000200000062
(1713559253.133930) can0 174#F07F00552C790ABD
(1713559253.134162) can0 178#F67F01300F930A21
(1713559253.134402) can0 17C#0080010042690AF8
(1713559253.134991) can0 551#000000000004C000
(1713559253.135238) can0 5D1#9958000200000000
(1713559253.136636) can0 400#288000000000002A
(1713559253.137236) can0 540#0000001040009E00
(1713559253.137466) can0 5B0#63420000000000C9
(1713559253.139222) can0 6B9#0020400000000000
(1713559253.139485) can0 5A2#1410140000000000
(1713559253.141752) can0 120#000000000700009B
(1713559253.141981) can0 121#000000000000008B
(1713559253.142225) can0 129#000000010000008F
(1713559253.142463) can0 410#2880008B9F6E8BC0
(1713559253.143474) can0 12F#F7F0012000000094
(1713559253.143705) can0 128#1388030000EC7842
(1713559253.143950) can0 12D#000000000000008B
(1713559253.144195) can0 12E#000000000000C044
(1713559253.144424) can0 174#F07F005532790BB1
(1713559253.144679) can0 178#FA7F023206930B9D
(1713559253.144901) can0 17C#0080010037690B24
(1713559253.145152) can0 290#0000000200000083
(1713559253.145395) can0 541#0440E800007FFF38
(1713559253.146702) can0 400#2880000000000040
(1713559253.150728) can0 140#0000030000000000
(1713559253.152148) can0 410#2880008B9F6E8B21
(1713559253.153207) can0 12F#F8000120000000A7
(1713559253.153455) can0 12D#00000000000000BE
(1713559253.153701) can0 290#00000002000000B6
(1713559253.153933) can0 174#F07F005534790CE7
(1713559253.154169) can0 178#00800336FC920CE9
(1713559253.154407) can0 17C#008001002F690C63
(1713559253.154657) can0 4EA#0000000000000000
(1713559253.154903) can0 5B2#0800000000000000
(1713559253.155148) can0 310#FFFFFFFF7D7D0000
(1713559253.155395) can0 551#000000000004C000
(1713559253.155646) can0 552#00FFFFFFFFFFFF44
(1713559253.155916) can0 5D1#9958000200000000
(1713559253.156211) can0 5D2#7444540000000000
(1713559253.156457) can0 450#005520001B004A00
(1713559253.156727) can0 400#2880000000000075
(1713559253.159127) can0 550#48000C00010000C2
(1713559253.161842) can0 120#00000000070000AE
(1713559253.162086) can0 121#00000000000000BE
(1713559253.162328) can0 129#00000001000000BA
(1713559253.162566) can0 410#2880008B9F6E8B4B
(1713559253.163512) can0 12F#F8000120000000CD
(1713559253.163744) can0 128#1388030000EC7877
(1713559253.163978) can0 12A#1428701C60580026
(1713559253.164223) can0 12D#00000000000000D4
(1713559253.164471) can0 12E#000000000000C071
(1713559253.164705) can0 174#F07F005532790DFF
(1713559253.164946) can0 178#04800435F8920D2A
(1713559253.165177) can0 17C#FE7F010026690D5C
(1713559253.165423) can0 290#00000002000000DC
(1713559253.165661) can0 5A0#0000006244928043
(1713559253.166790) can0 400#2880000000000094
(1713559253.167530) can0 541#0440E800007FFF52
(1713559253.171254) can0 140#0000030000000000
(1713559253.172098) can0 410#2880008B9F6E8B7E
(1713559253.173221) can0 12F#F7F001200000002A
(1713559253.173467) can0 12D#0000000000000035
(1713559253.173715) can0 290#000000020000003D
(1713559253.173947) can0 174#F07F005529790E40
(1713559253.174185) can0 178#08800530FC920E09
(1713559253.174422) can0 17C#F67F01001B690E04
(1713559253.174990) can0 551#000000000004C000
(1713559253.175240) can0 5D1#9958000200000000
(1713559253.176827) can0 400#28800000000000A1
(1713559253.178755) can0 5D0#9958010200000000
(1713559253.178989) can0 5B1#008A9A6800000042
(1713559253.179227) can0 5CF#7444540000000000
(1713559253.181930) can0 120#00000000070000C4
(1713559253.182174) can0 121#00000000000000D4
(1713559253.182416) can0 129#00000001000000D0
(1713559253.182656) can0 410#2880008B9F6E8B9F
(1713559253.183438) can0 12F#F800012000000046
(1713559253.183670) can0 128#1388030000EC7896
(1713559253.183920) can0 12D#000000000000005F
(1713559253.184166) can0 12E#000000000000C090
(1713559253.184399) can0 174#EE7F005524790F60
(1713559253.184634) can0 178#0880063106930FFC
(1713559253.184872) can0 17C#F07F01001B690FCA
(1713559253.185126) can0 290#0000000200000057
(1713559253.185365) can0 541#0440E800007FFF67
(1713559253.186893) can0 400#28800000000000CB
(1713559253.191780) can0 140#0000030000000000
(1713559253.192038) can0 410#2880008B9F6E8BAA
(1713559253.193207) can0 12F#F800012000000073
(1713559253.193452) can0 12D#000000000000006A
(1713559253.193701) can0 290#0000000200000062
(1713559253.193931) can0 174#EC7F005534790079
(1713559253.194165) can0 178#008007310A9300F5
(1713559253.194403) can0 17C#EE7F010024690067
(1713559253.194991) can0 551#000000000004C000
(1713559253.195242) can0 5D1#9958000200000000
(1713559253.196929) can0 400#288000000000002A
(1713559253.202033) can0 120#0000000007000025
(1713559253.202278) can0 121#0000000000000035
(1713559253.202522) can0 129#0000000100000031
(1713559253.202762) can0 410#2880008B9F6E8BC0
(1713559253.203429) can0 12F#F7F0012000000094
(1713559253.203663) can0 128#1388030000EC78A3
(1713559253.203909) can0 12D#000000000000008B
(1713559253.204153) can0 12E#000000000000C0A5
(1713559253.204383) can0 174#EA7F005545790170
(1713559253.204617) can0 178#F87F08310D93016C
(1713559253.204853) can0 17C#F07F01002C6901CE
(1713559253.205106) can0 290#0010000200000088
(1713559253.205357) can0 541#0440E800007FFF86
(1713559253.205602) can0 552#00FFFFFFFFFFFF71
(1713559253.205846) can0 450#005520001B004A00
(1713559253.206992) can0 400#2880000000000040
(1713559253.209129) can0 550#48000C0001000023
(1713559253.212013) can0 410#2880008B9F6E8B21
(1713559253.212307) can0 140#0000030000000000
(1713559253.213274) can0 12F#F8000120000000A7
(1713559253.213506) can0 12A#1428701C6058004C
(1713559253.213754) can0 12D#00000000000000BE
(1713559253.213984) can0 174#E87F00554E79026D
(1713559253.214218) can0 178#F47F09300D930207
(1713559253.214454) can0 17C#F67F0100316902A7
(1713559253.214701) can0 290#00100002000000BD
(1713559253.215005) can0 551#000000000004C000
(1713559253.215254) can0 5D1#9958000200000000
(1713559253.217022) can0 400#2880000000000075
(1713559253.222042) can0 410#2880008B9F6E8B4B
(1713559253.222283) can0 120#000000000700004F
(1713559253.222532) can0 121#000000000000005F
(1713559253.222776) can0 129#000000010000005B
(1713559253.223399) can0 12F#F7F00120000000CB
(1713559253.223632) can0 128#1388030000EC78C9
(1713559253.223876) can0 12D#00000000000000D4
(1713559253.224120) can0 12E#000000000000C0CF
(1713559253.224352) can0 174#EA7F0055567903DE
(1713559253.224585) can0 178#F67F0A380D930382
(1713559253.224824) can0 17C#FE7F01003569036E
(1713559253.225073) can0 290#00000002000000DC
(1713559253.225315) can0 541#0440E800007FFFB3
(1713559253.227092) can0 400#2880000000000094
(1713559253.231964) can0 410#2880008B9F6E8B7E
(1713559253.232828) can0 140#0000030000000000
(1713559253.233264) can0 12F#F80001200000002C
(1713559253.233511) can0 12D#0000000000000035
(1713559253.233759) can0 290#000000020000003D
(1713559253.233993) can0 174#EE7F005559790462
(1713559253.234235) can0 178#00800000159304E6
(1713559253.234475) can0 17C#088001003A6904C8
(1713559253.234984) can0 551#000000000004C000
(1713559253.235232) can0 5D1#9958000200000000
(1713559253.237065) can0 400#28800000000000A1
(1713559253.237701) can0 540#0000001040009E00
(1713559253.237942) can0 5B0#6342000000000028
(1713559253.239388) can0 6B9#0020400000000000
(1713559253.239629) can0 5A2#1410140000000000
(1713559253.241987) can0 410#2880008B9F6E8B9F
(1713559253.242239) can0 120#000000000700007A
(1713559253.242491) can0 121#000000000000006A
(1713559253.242740) can0 129#000000010000006E
(1713559253.243420) can0 12F#F800012000000046
(1713559253.243656) can0 128#1388030000EC7828
(1713559253.243906) can0 12D#000000000000005F
(1713559253.244150) can0 12E#000000000000C02E
(1713559253.244382) can0 174#F27F005551790571
(1713559253.244617) can0 178#068001302293058F
(1713559253.244857) can0 17C#0E80010037690583
(1713559253.245102) can0 290#001000020000005C
(1713559253.245345) can0 541#0440E800007FFFD9
(1713559253.247191) can0 400#28800000000000CB
(1713559253.251906) can0 410#2880008B9F6E8BAA
(1713559253.253262) can0 12F#F7F0012000000075
(1713559253.253507) can0 12D#000000000000006A
(1713559253.253757) can0 140#0000030000000000
(1713559253.253987) can0 174#F27F005545790648
(1713559253.254229) can0 178#0680000027930624
(1713559253.254471) can0 17C#108001002A690681
(1713559253.254715) can0 290#0010000200000069
(1713559253.254966) can0 4EA#0000000000000000
(1713559253.255211) can0 551#000000000004C000
(1713559253.255458) can0 5B2#0800000000000000
(1713559253.255703) can0 310#FFFFFFFF7D7D0000
(1713559253.255949) can0 552#00FFFFFFFFFFFF90
(1713559253.256195) can0 5D1#9958000200000000
(1713559253.256439) can0 5D2#7444540000000000
(1713559253.256685) can0 450#005520001B004A00
(1713559253.257165) can0 400#288000000000002A
(1713559253.259130) can0 550#48000C0001000049
(1713559253.261934) can0 410#2880008B9F6E8BC0
(1713559253.262318) can0 120#000000000700009B
(1713559253.262562) can0 121#000000000000008B
(1713559253.262804) can0 129#000000010000008F
(1713559253.263451) can0 12F#F800012000000092
(1713559253.263685) can0 128#1388030000EC7842
(1713559253.263916) can0 12A#1428701C60580079
(1713559253.264163) can0 12D#000000000000008B
(1713559253.264407) can0 12E#000000000000C044
(1713559253.264645) can0 174#EE7F0055407907DE
(1713559253.264880) can0 178#FE7F01532B930720
(1713559253.265121) can0 17C#0C8001001F69073F
(1713559253.265367) can0 290#0020000200000095
(1713559253.265611) can0 541#0440E800007FFF38
(1713559253.265849) can0 5A0#0000006244928076
(1713559253.267293) can0 400#2880000000000040
(1713559253.271907) can0 410#2880008B9F6E8B21
(1713559253.273328) can0 12F#F8000120000000A7
(1713559253.273534) can0 12D#00000000000000BE
(1713559253.273773) can0 290#00200002000000A0
(1713559253.274022) can0 140#0000030000000000
(1713559253.274250) can0 174#EA7F00553B7908C4
(1713559253.274479) can0 178#F67F02432E93085B
(1713559253.274715) can0 17C#08800100196908E8
(1713559253.275007) can0 551#000000000004C000
(1713559253.275255) can0 5D1#9958000200000000
(1713559253.277259) can0 400#2880000000000075
(1713559253.278764) can0 5D0#9958010200000000
(1713559253.278998) can0 5B1#008A9A6800000077
(1713559253.279236) can0 5CF#7444540000000000
(1713559253.281868) can0 410#2880008B9F6E8B4B
(1713559253.282411) can0 120#00000000070000AE
(1713559253.282657) can0 121#00000000000000BE
(1713559253.282899) can0 129#00000001000000BA
(1713559253.283398) can0 12F#F7F00120000000CB
(1713559253.283605) can0 128#1388030000EC7877
(1713559253.283848) can0 12D#00000000000000D4
(1713559253.284095) can0 12E#000000000000C071
(1713559253.284323) can0 174#E87F005537790969
(1713559253.284552) can0 178#F27F03322A930925
(1713559253.284790) can0 17C#04800100166909C8
(1713559253.285046) can0 290#00000002000000DC
(1713559253.285289) can0 541#0440E800007FFF52
(1713559253.287401) can0 400#2880000000000094
(1713559253.291821) can0 410#2880008B9F6E8B7E
(1713559253.293262) can0 12F#F80001200000002C
(1713559253.293508) can0 12D#0000000000000035
(1713559253.293756) can0 290#000000020000003D
(1713559253.293986) can0 174#EA7F005532790A7D
(1713559253.294222) can0 178#F27F04301F930A8F
(1713559253.294473) can0 140#0000030000000000
(1713559253.294713) can0 17C#0480010017690A60
(1713559253.294999) can0 551#000000000004C000
(1713559253.295249) can0 5D1#9958000200000000
(1713559253.297357) can0 400#28800000000000A1
(1713559253.301872) can0 410#2880008B9F6E8B9F
(1713559253.302507) can0 120#00000000070000C4
(1713559253.302751) can0 121#00000000000000D4
(1713559253.302993) can0 129#00000001000000D0
(1713559253.303349) can0 12F#F7F0012000000040
(1713559253.303575) can0 128#1388030000EC7896
(1713559253.303824) can0 12D#000000000000005F
(1713559253.304070) can0 12E#000000000000C090
(1713559253.304298) can0 174#F27F00552F790B96
(1713559253.304531) can0 178#F27F053011930BF1
(1713559253.304771) can0 17C#0280010022690B0F
(1713559253.305019) can0 290#0000000200000057
(1713559253.305261) can0 541#0440E800007FFF67
(1713559253.305513) can0 552#00FFFFFFFFFFFFA5
(1713559253.305759) can0 450#005520001B004A00
(1713559253.307468) can0 400#28800000000000CB
(1713559253.309125) can0 550#48000C000100007C
(1713559253.311816) can0 410#2880008B9F6E8BAA
(1713559253.313421) can0 12F#F800012000000073
(1713559253.313655) can0 12A#1428701C60580098
(1713559253.313901) can0 12D#000000000000006A
(1713559253.314133) can0 174#F87F005529790CA8
(1713559253.314364) can0 178#F67F063209930C46
(1713559253.314602) can0 17C#028001002D690CDA
(1713559253.314850) can0 290#0000000200000062
(1713559253.315100) can0 140#0000030000000000
(1713559253.315347) can0 551#000000000004C000
(1713559253.315597) can0 5D1#9958000200000000
(1713559253.317460) can0 400#288000000000002A
(1713559253.321869) can0 410#2880008B9F6E8BC0
(1713559253.322607) can0 120#0000000007000025
(1713559253.322855) can0 121#0000000000000035
(1713559253.323099) can0 129#0000000100000031
(1713559253.323349) can0 12F#F800012000000092
(1713559253.323579) can0 128#1388030000EC78A3
(1713559253.323823) can0 12D#000000000000008B
(1713559253.324068) can0 12E#000000000000C0A5
(1713559253.324301) can0 174#FA7F005521790D03
(1713559253.324533) can0 178#F87F07370A930D6F
(1713559253.324771) can0 17C#028001002D690DC7
(1713559253.325022) can0 290#0010000200000088
(1713559253.325264) can0 541#0440E800007FFF86
(1713559253.327571) can0 400#2880000000000040
(1713559253.329186) can0 6AB#ACC2A57596A3C162
(1713559253.331815) can0 410#2880008B9F6E8B21
(1713559253.333346) can0 12F#F7F00120000000A1
(1713559253.333594) can0 12D#00000000000000BE
(1713559253.333826) can0 174#F87F00551E790E30
(1713559253.334054) can0 178#F67F085F11930EEF
(1713559253.334295) can0 17C#0680010026690E09
(1713559253.334541) can0 290#00100002000000BD
(1713559253.334979) can0 551#000000000004C000
(1713559253.335229) can0 5D1#9958000200000000
(1713559253.335480) can0 140#0000030000000000
(1713559253.337548) can0 400#2880000000000075
(1713559253.338144) can0 540#0000001040009E00
(1713559253.338386) can0 5B0#6342000000000042
(1713559253.339547) can0 6B9#0020400000000000
(1713559253.339788) can0 5A2#1410140000000000
(1713559253.341870) can0 410#2880008B9F6E8B4B
(1713559253.342724) can0 120#000000000700004F
(1713559253.342973) can0 121#000000000000005F
(1713559253.343216) can0 129#000000010000005B
(1713559253.343455) can0 128#1388030000EC78C9
(1713559253.343697) can0 12D#00000000000000D4
(1713559253.343941) can0 12E#000000000000C0CF
(1713559253.344182) can0 12F#F8000120000000CD
(1713559253.344411) can0 174#F67F005519790FA6
(1713559253.344639) can0 178#F67F093017930F2B
(1713559253.344876) can0 17C#0C80010016690F54
(1713559253.345123) can0 290#00000002000000DC
(1713559253.345365) can0 541#0440E800007FFFB3
(1713559253.347659) can0 400#2880000000000094
(1713559253.351821) can0 410#2880008B9F6E8B7E
(1713559253.353115) can0 4EA#0000000000000000
(1713559253.353360) can0 12F#F80001200000002C
(1713559253.353605) can0 12D#0000000000000035
(1713559253.353837) can0 174#F27F0055147900F1
(1713559253.354068) can0 178#F67F0A371C93005A
(1713559253.354306) can0 17C#088001000C690091
(1713559253.354554) can0 290#000000020000003D
(1713559253.354800) can0 5B2#0800000000000000
(1713559253.355045) can0 310#FFFFFFFF7D7D0000
(1713559253.355292) can0 551#000000000004C000
(1713559253.355546) can0 552#00FFFFFFFFFFFFCF
(1713559253.355792) can0 5D1#9958000200000000
(1713559253.356042) can0 140#0000030000000000
(1713559253.356280) can0 5D2#7444540000000000
(1713559253.356526) can0 450#005520001B004A00
(1713559253.357645) can0 400#28800000000000A1
(1713559253.359081) can0 550#48000C000100009D
(1713559253.361871) can0 410#2880008B9F6E8B9F
(1713559253.362801) can0 120#000000000700007A
(1713559253.363053) can0 121#000000000000006A
(1713559253.363301) can0 129#000000010000006E
(1713559253.363542) can0 128#1388030000EC7828
(1713559253.363774) can0 12A#1428701C605800AD
(1713559253.364023) can0 12D#000000000000005F
(1713559253.364267) can0 12E#000000000000C02E
(1713559253.364513) can0 12F#F7F0012000000040
(1713559253.364746) can0 174#EE7F0055147901EE
(1713559253.364979) can0 178#F87F0B311F9301C9
(1713559253.365218) can0 17C#FC7F0100176901DD
(1713559253.365464) can0 290#0000000200000057
(1713559253.365706) can0 541#0440E800007FFFD9
(1713559253.365942) can0 5A0#0000006244928097
(1713559253.367767) can0 400#28800000000000CB
(1713559253.371816) can0 410#2880008B9F6E8BAA
(1713559253.373423) can0 12F#F800012000000073
(1713559253.373668) can0 12D#000000000000006A
(1713559253.373902) can0 174#F07F00551A790278
(1713559253.374144) can0 178#F87F00002093027B
(1713559253.374382) can0 17C#F27F0100296902DA
(1713559253.374630) can0 290#0000000200000062
(1713559253.374999) can0 551#000000000004C000
(1713559253.375249) can0 5D1#9958000200000000
(1713559253.376512) can0 140#0000030000000000
(1713559253.377744) can0 400#288000000000002A
(1713559253.378730) can0 5D0#9958010200000000
(1713559253.378965) can0 5B1#008A9A6800000096
(1713559253.379252) can0 5CF#7444540000000000
(1713559253.381871) can0 410#2880008B9F6E8BC0
(1713559253.382896) can0 120#000000000700009B
(1713559253.383143) can0 121#000000000000008B
(1713559253.383390) can0 128#1388030000EC7842
(1713559253.383617) can0 129#000000010000008F
(1713559253.383862) can0 12D#000000000000008B
(1713559253.384106) can0 12E#000000000000C044
(1713559253.384344) can0 12F#F7F0012000000094
(1713559253.384579) can0 174#F67F00551F79033F
(1713559253.384811) can0 178#FC7F01371D930353
(1713559253.385051) can0 17C#F07F01002C6903F4
(1713559253.385303) can0 290#0000000200000083
(1713559253.385547) can0 541#0440E800007FFF38
(1713559253.387861) can0 400#2880000000000040
(1713559253.391818) can0 410#2880008B9F6E8B21
(1713559253.393412) can0 12F#F8000120000000A7
(1713559253.393660) can0 12D#00000000000000BE
(1713559253.393893) can0 174#F87F0055247904C5
(1713559253.394127) can0 178#FE7F022E1593042C
(1713559253.394366) can0 17C#F27F01002F690491
(1713559253.394612) can0 290#00000002000000B6
(1713559253.394994) can0 551#000000000004C000
(1713559253.395245) can0 5D1#9958000200000000
(1713559253.397037) can0 140#0000030000000000
(1713559253.397839) can0 400#2880000000000075
(1713559253.401849) can0 410#2880008B9F6E8B4B
(1713559253.402993) can0 120#00000000070000AE
(1713559253.403239) can0 121#00000000000000BE
(1713559253.403474) can0 128#1388030000EC7877
(1713559253.403715) can0 129#00000001000000BA
(1713559253.403959) can0 12D#00000000000000D4
(1713559253.404207) can0 12E#000000000000C071
(1713559253.404448) can0 12F#F8000120000000CD
(1713559253.404678) can0 174#F67F005527790555
(1713559253.404914) can0 178#0280033112930587
(1713559253.405152) can0 17C#FC7F010032690510
(1713559253.405400) can0 290#00000002000000DC
(1713559253.405643) can0 541#0440E800007FFF52
(1713559253.405896) can0 552#00FFFFFFFFFFFF2E
(1713559253.406142) can0 450#005520001B004A00
(1713559253.407945) can0 400#2880000000000094
(1713559253.409126) can0 550#48000C00010000A8
(1713559253.411791) can0 410#2880008B9F6E8B7E
(1713559253.413473) can0 12F#F7F001200000002A
(1713559253.413709) can0 12A#1428701C605800C7
(1713559253.413955) can0 12D#0000000000000035
(1713559253.414185) can0 174#F27F005529790612
(1713559253.414421) can0 178#08800430179306D7
(1713559253.414665) can0 17C#06800100326906FF
(1713559253.414913) can0 290#000000020000003D
(1713559253.415160) can0 551#000000000004C000
(1713559253.415408) can0 5D1#9958000200000000
(1713559253.417564) can0 140#0000030000000000
(1713559253.417936) can0 400#28800000000000A1
(1713559253.421798) can0 410#2880008B9F6E8B9F
(1713559253.423098) can0 120#00000000070000C4
(1713559253.423348) can0 121#00000000000000D4
(1713559253.423578) can0 128#1388030000EC7896
(1713559253.423819) can0 129#00000001000000D0
(1713559253.424069) can0 12D#000000000000005F
(1713559253.424314) can0 12E#000000000000C090
(1713559253.424557) can0 12F#F800012000000046
(1713559253.424793) can0 174#EE7F00552A790781
(1713559253.425037) can0 178#0A8000001F9307A6
(1713559253.425277) can0 17C#0C80010037690703
(1713559253.425523) can0 290#0000000200000057
(1713559253.425770) can0 541#0440E800007FFF67
(1713559253.428044) can0 400#28800000000000CB
(1713559253.431769) can0 410#2880008B9F6E8BAA
(1713559253.433410) can0 12F#F800012000000073
(1713559253.433656) can0 12D#000000000000006A
(1713559253.433886) can0 174#EE7F005522790836
(1713559253.434122) can0 178#088001382393081C
(1713559253.434356) can0 17C#0E800100426908C3
(1713559253.434604) can0 290#0000000200000062
(1713559253.434988) can0 551#000000000004C000
(1713559253.435238) can0 5D1#9958000200000000
(1713559253.438040) can0 400#288000000000002A
(1713559253.438289) can0 140#0000030000000000
(1713559253.438630) can0 540#0000001040009E00
(1713559253.438870) can0 5B0#6342000000000077
(1713559253.439705) can0 6B9#0020400000000000
(1713559253.439949) can0 5A2#1410140000000000
(1713559253.441743) can0 410#2880008B9F6E8BC0
(1713559253.443196) can0 120#0000000007000025
(1713559253.443446) can0 121#0000000000000035
(1713559253.443680) can0 128#1388030000EC78A3
(1713559253.443923) can0 129#0000000100000031
(1713559253.444170) can0 12D#000000000000008B
(1713559253.444414) can0 12E#000000000000C0A5
(1713559253.444652) can0 12F#F7F0012000000094
(1713559253.444884) can0 174#EE7F00551F790986
(1713559253.445118) can0 178#0480023220930933
(1713559253.445356) can0 17C#0E8001004B69095D
(1713559253.445609) can0 290#0000000200000083
(1713559253.445850) can0 541#0440E800007FFF86
(1713559253.448141) can0 400#2880000000000040
(1713559253.451715) can0 410#2880008B9F6E8B21
(1713559253.452918) can0 4EA#0000000000000000
(1713559253.453162) can0 5B2#0800000000000000
(1713559253.453408) can0 310#FFFFFFFF7D7D0000
(1713559253.453656) can0 12D#00000000000000BE
(1713559253.453898) can0 12F#F8000120000000A7
(1713559253.454128) can0 174#EE7F00552A790A00
(1713559253.454362) can0 178#0080033218930A33
(1713559253.454598) can0 17C#0A8001004B690A13
(1713559253.454844) can0 290#00000002000000B6
(1713559253.455549) can0 551#000000000004C000
(1713559253.455802) can0 552#00FFFFFFFFFFFF44
(1713559253.456050) can0 5D1#9958000200000000
(1713559253.456294) can0 5D2#7444540000000000
(1713559253.456540) can0 450#005520001B004A00
(1713559253.458135) can0 400#2880000000000075
(1713559253.458615) can0 140#0000030000000000
(1713559253.459082) can0 550#48000C00010000C2
(1713559253.461367) can0 410#2880008B9F6E8B4B
(1713559253.463289) can0 120#000000000700004F
(1713559253.463539) can0 121#000000000000005F
(1713559253.463773) can0 128#1388030000EC78C9
(1713559253.464018) can0 129#000000010000005B
(1713559253.464252) can0 12A#1428701C60580026
(1713559253.464496) can0 12D#00000000000000D4
(1713559253.464740) can0 12E#000000000000C0CF
(1713559253.464978) can0 12F#F7F00120000000CB
(1713559253.465208) can0 174#EE7F005538790B06
(1713559253.465441) can0 178#FE7F043512930B7F
(1713559253.465676) can0 17C#0080010043690B6A
(1713559253.465925) can0 290#00000002000000DC
(1713559253.466166) can0 541#0440E800007FFFB3
(1713559253.466405) can0 5A0#00000062449280A2
(1713559253.468245) can0 400#2880000000000094
(1713559253.471347) can0 410#2880008B9F6E8B7E
(1713559253.473428) can0 12F#F80001200000002C
(1713559253.473673) can0 12D#0000000000000035
(1713559253.473907) can0 174#EE7F00553F790CDF
(1713559253.474145) can0 178#FE7F00000F930CB8
(1713559253.474385) can0 17C#F87F01003A690C80
(1713559253.474633) can0 290#000000020000003D
(1713559253.474997) can0 551#000000000004C000
(1713559253.475247) can0 5D1#9958000200000000
(1713559253.478233) can0 400#28800000000000A1
(1713559253.478734) can0 5D0#9958010200000000
(1713559253.478970) can0 5B1#008A9A68000000A3
(1713559253.479220) can0 140#0000030000000000
(1713559253.479459) can0 5CF#7444540000000000
(1713559253.481314) can0 410#2880008B9F6E8B9F
(1713559253.483223) can0 12F#F800012000000046
(1713559253.483471) can0 120#000000000700007A
(1713559253.483720) can0 121#000000000000006A
(1713559253.483959) can0 128#1388030000EC7828
(1713559253.484207) can0 129#000000010000006E
(1713559253.484457) can0 12D#000000000000005F
(1713559253.484701) can0 12E#000000000000C02E
(1713559253.484933) can0 174#EE7F005543790D80
(1713559253.485167) can0 178#FE7F01320C930D0B
(1713559253.485403) can0 17C#F67F010034690D95
(1713559253.485649) can0 290#0000000200000057
(1713559253.485891) can0 541#0440E800007FFFD9
(1713559253.488323) can0 400#28800000000000CB
(1713559253.491292) can0 410#2880008B9F6E8BAA
(1713559253.493410) can0 12F#F7F0012000000075
(1713559253.493654) can0 12D#000000000000006A
(1713559253.493883) can0 174#EE7F005546790E2E
(1713559253.494118) can0 178#FC7F02300D930E80
(1713559253.494354) can0 17C#F67F01002C690EA6
(1713559253.494602) can0 290#0000000200000062
(1713559253.494986) can0 551#000000000004C000
(1713559253.495236) can0 5D1#9958000200000000
(1713559253.498332) can0 400#288000000000002A
(1713559253.499670) can0 140#0000030000000000
(1713559253.501261) can0 410#2880008B9F6E8BC0
(1713559253.503225) can0 12F#F800012000000092
(1713559253.503462) can0 128#1388030000EC7842
(1713559253.503705) can0 120#000000000700009B
(1713559253.503950) can0 121#000000000000008B
(1713559253.504192) can0 129#000000010000008F
(1713559253.504438) can0 12D#000000000000008B
(1713559253.504682) can0 12E#000000000000C044
(1713559253.504919) can0 174#F07F005545790F07
(1713559253.505152) can0 178#FE7F033212930FF4
(1713559253.505394) can0 17C#F87F010021690F3F
(1713559253.505646) can0 290#0000000200000083
(1713559253.505891) can0 541#0440E800007FFF38
(1713559253.506142) can0 552#00FFFFFFFFFFFF71
(1713559253.506389) can0 450#005520001B004A00
(1713559253.508423) can0 400#2880000000000040
(1713559253.509123) can0 550#48000C0001000023
(1713559253.511229) can0 410#2880008B9F6E8B21
(1713559253.513470) can0 12F#F8000120000000A7
(1713559253.513701) can0 12A#1428701C6058004C
(1713559253.513949) can0 12D#00000000000000BE
(1713559253.514181) can0 174#F27F00553D790042
(1713559253.514419) can0 178#0080043312930078
(1713559253.514658) can0 17C#FE7F0100146900F6
(1713559253.514905) can0 290#00000002000000B6
(1713559253.515150) can0 551#000000000004C000
(1713559253.515399) can0 5D1#9958000200000000
(1713559253.518426) can0 400#2880000000000075
(1713559253.520245) can0 140#0000030000000000
(1713559253.521205) can0 410#2880008B9F6E8B4B
(1713559253.523226) can0 12F#F7F00120000000CB
(1713559253.523461) can0 128#1388030000EC7877
(1713559253.523704) can0 120#00000000070000AE
(1713559253.523964) can0 121#00000000000000BE
(1713559253.524209) can0 129#00000001000000BA
(1713559253.524447) can0 12D#00000000000000D4
(1713559253.524688) can0 12E#000000000000C071
(1713559253.524924) can0 174#F47F005537790183
(1713559253.525161) can0 178#028005311193011E
(1713559253.525396) can0 17C#008001001069014C
(1713559253.525645) can0 290#00000002000000DC
(1713559253.525885) can0 541#0440E800007FFF52
(1713559253.528538) can0 400#2880000000000094
(1713559253.531182) can0 410#2880008B9F6E8B7E
(1713559253.533410) can0 12F#F80001200000002C
(1713559253.533654) can0 12D#0000000000000035
(1713559253.533886) can0 174#F47F005538790222
(1713559253.534122) can0 178#06800630189302F0
(1713559253.534362) can0 17C#FE7F0100106902CA
(1713559253.534611) can0 290#000000020000003D
(1713559253.534987) can0 551#000000000004C000
(1713559253.535237) can0 5D1#9958000200000000
(1713559253.538525) can0 400#28800000000000A1
(1713559253.539122) can0 540#0000001040009E00
(1713559253.539364) can0 5B0#6342000000000096
(1713559253.539869) can0 6B9#0020400000000000
(1713559253.540164) can0 5A2#1410140000000000
(1713559253.540766) can0 140#0000030000000000
(1713559253.541152) can0 410#2880008B9F6E8B9F
(1713559253.543275) can0 12F#F7F0012000000040
(1713559253.543509) can0 128#1388030000EC7896
(1713559253.543754) can0 120#00000000070000C4
(1713559253.543998) can0 121#00000000000000D4
(1713559253.544240) can0 129#00000001000000D0
(1713559253.544490) can0 12D#000000000000005F
(1713559253.544737) can0 12E#000000000000C090
(1713559253.544974) can0 174#F47F00554079037B
(1713559253.545212) can0 178#068007312293033D
(1713559253.545448) can0 17C#FC7F0100196903EE
(1713559253.545706) can0 290#0000000200000057
(1713559253.545936) can0 541#0440E800007FFF67
(1713559253.548626) can0 400#28800000000000CB
(1713559253.551127) can0 410#2880008B9F6E8BAA
(1713559253.552713) can0 4EA#0000000000000000
(1713559253.552958) can0 5B2#0800000000000000
(1713559253.553204) can0 310#FFFFFFFF7D7D0000
(1713559253.553446) can0 12F#F800012000000073
(1713559253.553692) can0 12D#000000000000006A
(1713559253.553924) can0 174#F67F00554B790412
(1713559253.554162) can0 178#02800838259304F0
(1713559253.554400) can0 17C#FE7F0100266904A9
(1713559253.554648) can0 290#0000000200000062
(1713559253.555012) can0 551#000000000004C000
(1713559253.555266) can0 552#00FFFFFFFFFFFF90
(1713559253.555515) can0 55A#0017160000000000
(1713559253.555758) can0 5D1#9958000200000000
(1713559253.556002) can0 5D2#7444540000000000
(1713559253.556248) can0 450#005520001B004A00
(1713559253.558624) can0 400#288000000000002A
(1713559253.559078) can0 550#48000C0001000049
(1713559253.561102) can0 410#2880008B9F6E8BC0
(1713559253.561349) can0 140#0000030000000000
(1713559253.563304) can0 12F#F800012000000092
(1713559253.563542) can0 128#1388030000EC78A3
(1713559253.563772) can0 12A#1428701C60580079
(1713559253.564020) can0 120#0000000007000025
(1713559253.564267) can0 121#0000000000000035
(1713559253.564511) can0 129#0000000100000031
(1713559253.564758) can0 12D#000000000000008B
(1713559253.565002) can0 12E#000000000000C0A5
(1713559253.565232) can0 174#F67F00554D79050A
(1713559253.565468) can0 178#F67F00002293052A
(1713559253.565706) can0 17C#02800100266905AF
(1713559253.565952) can0 290#0020000200000095
(1713559253.566197) can0 541#0440E800007FFF86
(1713559253.566431) can0 5A0#00000062449280C8
(1713559253.568723) can0 400#2880000000000040
(1713559253.571068) can0 410#2880008B9F6E8B21
(1713559253.573431) can0 12F#F7F00120000000A1
(1713559253.573679) can0 12D#00000000000000BE
(1713559253.573909) can0 174#F67F005545790621
(1713559253.574143) can0 178#EE7F00001C930647
(1713559253.574385) can0 17C#068001001F69064A
(1713559253.574631) can0 290#00200002000000A0
(1713559253.574989) can0 551#000000000004C000
(1713559253.575239) can0 5D1#9958000200000000
(1713559253.578719) can0 400#2880000000000075
(1713559253.578954) can0 5B1#008A9A68000000C9
(1713559253.579195) can0 5D0#9958010200000000
(1713559253.579435) can0 5CF#7444540000000000
(1713559253.581070) can0 410#2880008B9F6E8B4B
(1713559253.581816) can0 140#0000030000000000
(1713559253.583220) can0 12F#F8000120000000CD
(1713559253.583458) can0 128#1388030000EC78C9
(1713559253.583701) can0 12D#00000000000000D4
(1713559253.583946) can0 120#000000000700004F
(1713559253.584195) can0 121#000000000000005F
(1713559253.584439) can0 129#000000010000005B
(1713559253.584682) can0 12E#000000000000C0CF
(1713559253.584915) can0 174#F47F005534790741
(1713559253.585151) can0 178#EC7F01521593079F
(1713559253.585393) can0 17C#068001001F690757
(1713559253.585639) can0 290#00100002000000D7
(1713559253.585881) can0 541#0440E800007FFFB3
(1713559253.588810) can0 400#2880000000000094
(1713559253.591046) can0 410#2880008B9F6E8B7E
(1713559253.593411) can0 12F#F80001200000002C
(1713559253.593656) can0 12D#0000000000000035
(1713559253.593884) can0 174#F47F0055247908E2
(1713559253.594114) can0 178#EC7F026F0C930821
(1713559253.594352) can0 17C#068001001F6908EC
(1713559253.594596) can0 290#0010000200000036
(1713559253.594984) can0 551#000000000004C000
(1713559253.595234) can0 5D1#9958000200000000
(1713559253.598815) can0 400#28800000000000A1
(1713559253.601023) can0 410#2880008B9F6E8B9F
(1713559253.602345) can0 140#0000030000000000
(1713559253.603225) can0 12F#F7F0012000000040
(1713559253.603465) can0 128#1388030000EC7828
(1713559253.603712) can0 12D#000000000000005F
(1713559253.603957) can0 12E#000000000000C02E
(1713559253.604205) can0 120#000000000700007A
(1713559253.604459) can0 121#000000000000006A
(1713559253.604705) can0 129#000000010000006E
(1713559253.604933) can0 174#F47F005521790976
(1713559253.605163) can0 178#EA7F03620793094A
(1713559253.605400) can0 17C#02800100216909B9
(1713559253.605646) can0 290#001000020000005C
(1713559253.605888) can0 541#0440E800007FFFD9
(1713559253.606140) can0 552#00FFFFFFFFFFFFA5
(1713559253.606386) can0 450#005520001B004A00
(1713559253.608906) can0 400#28800000000000CB
(1713559253.609150) can0 550#48000C000100007C
(1713559253.610987) can0 410#2880008B9F6E8BAA
(1713559253.613473) can0 12F#F800012000000073
(1713559253.613706) can0 12A#1428701C60580098
(1713559253.613953) can0 12D#000000000000006A
(1713559253.614183) can0 174#F67F00552A790A6B
(1713559253.614413) can0 178#E87F046509930A21
(1713559253.614649) can0 17C#0280010026690A14
(1713559253.614893) can0 290#0010000200000069
(1713559253.615139) can0 551#000000000004C000
(1713559253.615388) can0 5D1#9958000200000000
(1713559253.618914) can0 400#288000000000002A
(1713559253.620969) can0 410#2880008B9F6E8BC0
(1713559253.622870) can0 140#0000030000000000
(1713559253.623229) can0 12F#F7F0012000000094
(1713559253.623466) can0 128#1388030000EC7842
(1713559253.623710) can0 12D#000000000000008B
(1713559253.623954) can0 12E#000000000000C044
(1713559253.624200) can0 120#000000000700009B
(1713559253.624444) can0 121#000000000000008B
(1713559253.624686) can0 129#000000010000008F
(1713559253.624919) can0 174#F67F005537790BEB
(1713559253.625151) can0 178#EE7F05720C930BDD
(1713559253.625384) can0 17C#0880010024690B62
(1713559253.625637) can0 290#0000000200000083
(1713559253.625881) can0 541#0440E800007FFF38
(1713559253.629017) can0 400#2880000000000040
(1713559253.630935) can0 410#2880008B9F6E8B21
(1713559253.633444) can0 12F#F8000120000000A7
(1713559253.633692) can0 12D#00000000000000BE
(1713559253.633921) can0 174#F27F00553F790CDD
(1713559253.634154) can0 178#F47F06740C930C88
(1713559253.634389) can0 17C#0880010022690C34
(1713559253.634636) can0 290#00000002000000B6
(1713559253.634980) can0 551#000000000004C000
(1713559253.635228) can0 5D1#9958000200000000
(1713559253.639010) can0 400#2880000000000075
(1713559253.639638) can0 540#0000001040009E00
(1713559253.639879) can0 5B0#63420000000000A3
(1713559253.640127) can0 6B9#0020400000000000
(1713559253.640371) can0 5A2#1410140000000000
(1713559253.640935) can0 410#2880008B9F6E8B4B
(1713559253.643257) can0 12F#F7F00120000000CB
(1713559253.643492) can0 128#1388030000EC7877
(1713559253.643733) can0 12D#00000000000000D4
(1713559253.643981) can0 12E#000000000000C071
(1713559253.644227) can0 120#00000000070000AE
(1713559253.644474) can0 121#00000000000000BE
(1713559253.644716) can0 129#00000001000000BA
(1713559253.644966) can0 140#0000030000000000
(1713559253.645200) can0 174#EE7F00553F790DC2
(1713559253.645436) can0 178#F87F07200C930DBB
(1713559253.645676) can0 17C#0480010027690D1B
(1713559253.645924) can0 290#00000002000000DC
(1713559253.647512) can0 541#0440E800007FFF52
(1713559253.649115) can0 400#2880000000000094
(1713559253.650859) can0 410#2880008B9F6E8B7E
(1713559253.652558) can0 4EA#0000000000000000
(1713559253.652802) can0 5B2#0800000000000000
(1713559253.652998) can0 310#FFFFFFFF7D7D0000
(1713559253.653407) can0 12F#F80001200000002C
(1713559253.653652) can0 12D#0000000000000035
(1713559253.653901) can0 290#000000020000003D
(1713559253.654131) can0 174#EE7F005537790EE9
(1713559253.654361) can0 178#FA7F08420C930EA3
(1713559253.654597) can0 17C#028001002F690EE3
(1713559253.655003) can0 551#000000000004C000
(1713559253.655259) can0 552#00FFFFFFFFFFFFCF
(1713559253.655506) can0 5D1#9958000200000000
(1713559253.655747) can0 5D2#7444540000000000
(1713559253.655994) can0 450#005520001B004A00
(1713559253.659074) can0 550#48000C000100009D
(1713559253.659328) can0 400#28800000000000A1
(1713559253.660858) can0 410#2880008B9F6E8B9F
(1713559253.663294) can0 12F#F7F0012000000040
(1713559253.663528) can0 128#1388030000EC7896
(1713559253.663761) can0 12A#1428701C605800AD
(1713559253.664010) can0 12D#000000000000005F
(1713559253.664257) can0 12E#000000000000C090
(1713559253.664503) can0 120#00000000070000C4
(1713559253.664747) can0 121#00000000000000D4
(1713559253.664989) can0 129#00000001000000D0
(1713559253.665239) can0 140#0000030000000000
(1713559253.665472) can0 174#F07F00552F790F58
(1713559253.665700) can0 178#FC7F096F14930F16
(1713559253.665944) can0 17C#008001003A690FD5
(1713559253.666192) can0 290#0000000200000057
(1713559253.666434) can0 541#0440E800007FFF67
(1713559253.666672) can0 5A0#0000006244928029
(1713559253.669205) can0 400#28800000000000CB
(1713559253.670852) can0 410#2880008B9F6E8BAA
(1713559253.673435) can0 12F#F800012000000073
(1713559253.673680) can0 12D#000000000000006A
(1713559253.673916) can0 174#F47F00552A790003
(1713559253.674149) can0 178#FE7F0A731F9300DE
(1713559253.674387) can0 17C#FE7F010043690004
(1713559253.674635) can0 290#0000000200000062
(1713559253.674985) can0 551#000000000004C000
(1713559253.675235) can0 5D1#9958000200000000
(1713559253.678769) can0 5D0#9958010200000000
(1713559253.679006) can0 5B1#008A9A6800000028
(1713559253.679244) can0 5CF#7444540000000000
(1713559253.679495) can0 400#288000000000002A
(1713559253.680847) can0 410#2880008B9F6E8BC0
(1713559253.683216) can0 12F#F7F0012000000094
(1713559253.683452) can0 128#1388030000EC78A3
(1713559253.683697) can0 12D#000000000000008B
(1713559253.683940) can0 12E#000000000000C0A5
(1713559253.684170) can0 174#F47F00552D790194
(1713559253.684418) can0 120#0000000007000025
(1713559253.684667) can0 121#0000000000000035
(1713559253.684911) can0 129#0000000100000031
(1713559253.685173) can0 140#0000030000000000
(1713559253.685405) can0 178#FC7F0B631F930136
(1713559253.685641) can0 17C#0280010043690102
(1713559253.685879) can0 290#0010000200000088
(1713559253.686126) can0 541#0440E800007FFF86
(1713559253.689296) can0 400#2880000000000040
(1713559253.690855) can0 410#2880008B9F6E8B21
(1713559253.693406) can0 12F#F8000120000000A7
(1713559253.693652) can0 12D#00000000000000BE
(1713559253.693898) can0 290#00100002000000BD
(1713559253.694132) can0 174#F47F00552F7902B0
(1713559253.694366) can0 178#F87F0C681C9302D9
(1713559253.694605) can0 17C#0480010034690234
(1713559253.694983) can0 551#000000000004C000
(1713559253.695233) can0 5D1#9958000200000000
(1713559253.699300) can0 400#2880000000000075
(1713559253.700856) can0 410#2880008B9F6E8B4B
(1713559253.703219) can0 12F#F7F00120000000CB
(1713559253.703457) can0 128#1388030000EC78C9
(1713559253.703698) can0 12D#00000000000000D4
(1713559253.703942) can0 12E#000000000000C0CF
(1713559253.704174) can0 174#F47F00552F7903AD
(1713559253.704407) can0 178#F67F0D201A9303A2
(1713559253.704650) can0 120#000000000700004F
(1713559253.704898) can0 121#000000000000005F
(1713559253.705143) can0 129#000000010000005B
(1713559253.705393) can0 140#0000030000000000
(1713559253.705633) can0 17C#FE7F01001F690351
(1713559253.705881) can0 290#00000002000000DC
(1713559253.706123) can0 541#0440E800007FFFB3
(1713559253.706377) can0 552#00FFFFFFFFFFFF2E
(1713559253.706623) can0 450#005520001B004A00
(1713559253.709125) can0 550#48000C00010000A8
(1713559253.709389) can0 400#2880000000000094
(1713559253.710860) can0 410#2880008B9F6E8B7E
(1713559253.713522) can0 12F#F80001200000002C
(1713559253.713754) can0 12A#1428701C605800C7
(1713559253.714000) can0 12D#0000000000000035
(1713559253.714238) can0 174#F87F00552F790445
(1713559253.714468) can0 178#FA7F0E471C9304DB
(1713559253.714701) can0 17C#F87F010016690452
(1713559253.714909) can0 290#000000020000003D
(1713559253.715154) can0 551#000000000004C000
(1713559253.715403) can0 5D1#9958000200000000
(1713559253.719397) can0 400#28800000000000A1
(1713559253.720807) can0 410#2880008B9F6E8B9F
(1713559253.723235) can0 12F#F7F0012000000040
(1713559253.723473) can0 128#1388030000EC7828
(1713559253.723722) can0 12D#000000000000005F
(1713559253.723966) can0 12E#000000000000C02E
(1713559253.724203) can0 174#FA7F00553079057C
(1713559253.724438) can0 178#02800F6D2093050D
(1713559253.724685) can0 120#000000000700007A
(1713559253.724938) can0 121#000000000000006A
(1713559253.725188) can0 129#000000010000006E
(1713559253.725424) can0 17C#F47F01001769057B
(1713559253.725674) can0 140#0000030000000000
(1713559253.725920) can0 290#0000000200000057
(1713559253.726163) can0 541#0440E800007FFFD9
(1713559253.729495) can0 400#28800000000000CB
(1713559253.730841) can0 410#2880008B9F6E8BAA
(1713559253.733460) can0 12F#F800012000000073
(1713559253.733703) can0 12D#000000000000006A
(1713559253.733951) can0 290#0000000200000062
(1713559253.734187) can0 174#F87F00552F79067F
(1713559253.734425) can0 178#048000621F930643
(1713559253.734661) can0 17C#F47F01001C6906DC
(1713559253.734978) can0 551#000000000004C000
(1713559253.735227) can0 5D1#9958000200000000
(1713559253.739490) can0 400#288000000000002A
(1713559253.740082) can0 540#0000001040009E00
(1713559253.740321) can0 5B0#63420000000000C9
(1713559253.740570) can0 6B9#0020400000000000
(1713559253.740813) can0 5A2#1410140000000000
(1713559253.741054) can0 410#2880008B9F6E8BC0
(1713559253.743262) can0 12F#F7F0012000000094
(1713559253.743496) can0 128#1388030000EC7842
(1713559253.743740) can0 12D#000000000000008B
(1713559253.743985) can0 12E#000000000000C044
(1713559253.744217) can0 174#F47F0055297907DC
(1713559253.744456) can0 178#FE7F0148209307A3
(1713559253.744695) can0 17C#F47F01001E6907C2
(1713559253.744940) can0 120#000000000700009B
(1713559253.745185) can0 121#000000000000008B
(1713559253.745427) can0 129#000000010000008F
(1713559253.745679) can0 290#0000000200000083
(1713559253.745925) can0 541#0440E800007FFF38
(1713559253.746174) can0 140#0000030000000000
(1713559253.749589) can0 400#2880000000000040
(1713559253.750842) can0 410#2880008B9F6E8B21
(1713559253.752361) can0 4EA#0000000000000000
(1713559253.752598) can0 5B2#0800000000000000
(1713559253.752842) can0 310#FFFFFFFF7D7D0000
(1713559253.753452) can0 12F#F8000120000000A7
(1713559253.753700) can0 12D#00000000000000BE
(1713559253.753946) can0 290#00000002000000B6
(1713559253.754175) can0 174#F27F0055217908B8
(1713559253.754409) can0 178#F67F0000209308A8
(1713559253.754644) can0 17C#F67F01001C6908C0
(1713559253.755047) can0 551#000000000004C000
(1713559253.755301) can0 552#00FFFFFFFFFFFF44
(1713559253.755549) can0 5D1#9958000200000000
(1713559253.755793) can0 5D2#7444540000000000
(1713559253.756037) can0 450#005520001B004A00
(1713559253.759076) can0 550#48000C00010000C2
(1713559253.759584) can0 400#2880000000000075
(1713559253.760795) can0 410#2880008B9F6E8B4B
(1713559253.763234) can0 12F#F7F00120000000CB
(1713559253.763469) can0 128#1388030000EC7877
(1713559253.763701) can0 12A#1428701C60580026
(1713559253.763945) can0 12D#00000000000000D4
(1713559253.764194) can0 12E#000000000000C071
(1713559253.764422) can0 174#F27F0055217909A5
(1713559253.764657) can0 178#F47F00001893092B
(1713559253.764950) can0 120#00000000070000AE
(1713559253.765197) can0 121#00000000000000BE
(1713559253.765438) can0 129#00000001000000BA
(1713559253.765679) can0 17C#F67F0100266909FA
(1713559253.765929) can0 290#00000002000000DC
(1713559253.766171) can0 541#0440E800007FFF52
(1713559253.766407) can0 5A0#0000006244928043
(1713559253.766657) can0 140#0000030000000000
(1713559253.769684) can0 400#2880000000000094
(1713559253.770840) can0 410#2880008B9F6E8B7E
(1713559253.773488) can0 12F#F80001200000002C
(1713559253.773726) can0 12D#0000000000000035
(1713559253.773972) can0 290#000000020000003D
(1713559253.774204) can0 174#F47F00551F790A70
(1713559253.774436) can0 178#FA7F000D09930AD5
(1713559253.774672) can0 17C#F67F010031690A4F
(1713559253.775028) can0 551#000000000004C000
(1713559253.775276) can0 5D1#9958000200000000
(1713559253.778762) can0 5D0#9958010200000000
(1713559253.778997) can0 5B1#008A9A6800000042
(1713559253.779236) can0 5CF#7444540000000000
(1713559253.779682) can0 400#28800000000000A1
(1713559253.780765) can0 410#2880008B9F6E8B9F
(1713559253.783183) can0 12F#F7F0012000000040
(1713559253.783418) can0 128#1388030000EC7896
(1713559253.783668) can0 12D#000000000000005F
(1713559253.783913) can0 12E#000000000000C090
(1713559253.784141) can0 174#F67F005517790BDB
(1713559253.784381) can0 178#02800000FF920B34
(1713559253.784615) can0 17C#F47F010032690B64
(1713559253.784874) can0 120#00000000070000C4
(1713559253.785154) can0 121#00000000000000D4
(1713559253.785396) can0 129#00000001000000D0
(1713559253.785642) can0 290#0000000200000057
(1713559253.785886) can0 541#0440E800007FFF67
(1713559253.787072) can0 140#0000030000000000
(1713559253.789786) can0 400#28800000000000CB
(1713559253.790783) can0 410#2880008B9F6E8BAA
(1713559253.793453) can0 12F#F800012000000073
(1713559253.793699) can0 12D#000000000000006A
(1713559253.793945) can0 290#0000000200000062
(1713559253.794176) can0 174#F67F005513790C8E
(1713559253.794410) can0 178#0280013606930C4C
(1713559253.794646) can0 17C#F47F010037690CBE
(1713559253.795026) can0 551#000000000004C000
(1713559253.795276) can0 5D1#9958000200000000
(1713559253.799782) can0 400#288000000000002A
(1713559253.800712) can0 410#2880008B9F6E8BC0
(1713559253.803170) can0 12F#F7F0012000000094
(1713559253.803407) can0 128#1388030000EC78A3
(1713559253.803653) can0 12D#000000000000008B
(1713559253.803897) can0 12E#000000000000C0A5
(1713559253.804127) can0 174#F07F005517790D46
(1713559253.804358) can0 178#0280023012930D98
(1713559253.804594) can0 17C#F47F010038690D25
(1713559253.804847) can0 290#0000000200000083
(1713559253.805117) can0 120#0000000007000025
(1713559253.805391) can0 121#0000000000000035
(1713559253.805635) can0 129#0000000100000031
(1713559253.805877) can0 541#0440E800007FFF86
(1713559253.806130) can0 552#00FFFFFFFFFFFF71
(1713559253.806375) can0 450#005520001B004A00
(1713559253.807600) can0 140#0000030000000000
(1713559253.809130) can0 550#48000C0001000023
(1713559253.809882) can0 400#2880000000000040
(1713559253.810730) can0 410#2880008B9F6E8B21
(1713559253.813555) can0 12F#F8000120000000A7
(1713559253.813792) can0 12A#1428701C6058004C
(1713559253.814037) can0 12D#00000000000000BE
(1713559253.814262) can0 174#EA7F005521790E9D
(1713559253.814494) can0 178#0280033117930EC1
(1713559253.814732) can0 17C#F47F010032690E0D
(1713559253.814979) can0 290#00000002000000B6
(1713559253.815225) can0 551#000000000004C000
(1713559253.815475) can0 5D1#9958000200000000
(1713559253.819877) can0 400#2880000000000075
(1713559253.820657) can0 410#2880008B9F6E8B4B
(1713559253.823185) can0 12F#F7F00120000000CB
(1713559253.823422) can0 128#1388030000EC78C9
(1713559253.823665) can0 12D#00000000000000D4
(1713559253.823910) can0 12E#000000000000C0CF
(1713559253.824142) can0 174#EC7F005522790FDF
(1713559253.824377) can0 178#0080043817930F6C
(1713559253.824613) can0 17C#F67F01002D690F34
(1713559253.824863) can0 290#00000002000000DC
(1713559253.825108) can0 120#000000000700004F
(1713559253.825399) can0 121#000000000000005F
(1713559253.825648) can0 129#000000010000005B
(1713559253.825891) can0 541#0440E800007FFFB3
(1713559253.828127) can0 140#0000030000000000
(1713559253.829979) can0 400#2880000000000094
(1713559253.830679) can0 410#2880008B9F6E8B7E
(1713559253.833455) can0 12F#F80001200000002C
(1713559253.833699) can0 12D#0000000000000035
(1713559253.833947) can0 290#000000020000003D
(1713559253.834184) can0 174#EE7F0055247900DB
(1713559253.834413) can0 178#FE7F05311593001E
(1713559253.834651) can0 17C#FA7F01002A6900BE
(1713559253.835020) can0 551#000000000004C000
(1713559253.835268) can0 5D1#9958000200000000
(1713559253.839974) can0 400#28800000000000A1
(1713559253.840300) can0 410#2880008B9F6E8B9F
(1713559253.840548) can0 6B9#0020400000000000
(1713559253.840794) can0 540#0000001040009E00
(1713559253.841038) can0 5A2#1410140000000000
(1713559253.841280) can0 5B0#6342000000000028
(1713559253.843216) can0 12F#F7F0012000000040
(1713559253.843455) can0 128#1388030000EC7828
(1713559253.843704) can0 12D#000000000000005F
(1713559253.843949) can0 12E#000000000000C02E
(1713559253.844181) can0 174#EE7F00552C7901CA
(1713559253.844417) can0 178#068006320F930162
(1713559253.844655) can0 17C#FA7F01002C6901A6
(1713559253.844901) can0 290#0000000200000057
(1713559253.845143) can0 541#0440E800007FFFD9
(1713559253.845391) can0 120#000000000700007A
(1713559253.845694) can0 121#000000000000006A
(1713559253.845940) can0 129#000000010000006E
(1713559253.848650) can0 140#0000030000000000
(1713559253.850075) can0 400#28800000000000CB
(1713559253.850319) can0 410#2880008B9F6E8BAA
(1713559253.852149) can0 4EA#0000000000000000
(1713559253.852392) can0 5B2#0800000000000000
(1713559253.852638) can0 310#FFFFFFFF7D7D0000
(1713559253.853474) can0 12F#F800012000000073
(1713559253.853720) can0 12D#000000000000006A
(1713559253.853968) can0 290#0000000200000062
(1713559253.854198) can0 174#EE7F005535790276
(1713559253.854439) can0 178#0E8007390C930257
(1713559253.854675) can0 17C#FC7F010034690246
(1713559253.855043) can0 551#000000000004C000
(1713559253.855299) can0 552#00FFFFFFFFFFFF90
(1713559253.855551) can0 5D1#9958000200000000
(1713559253.855789) can0 5D2#7444540000000000
(1713559253.856035) can0 450#005520001B004A00
(1713559253.859077) can0 550#48000C0001000049
(1713559253.860070) can0 400#288000000000002A
(1713559253.860309) can0 410#2880008B9F6E8BC0
(1713559253.863231) can0 12F#F7F0012000000094
(1713559253.863466) can0 128#1388030000EC7842
(1713559253.863697) can0 12A#1428701C60580079
(1713559253.863943) can0 12D#000000000000008B
(1713559253.864188) can0 12E#000000000000C044
(1713559253.864420) can0 174#EE7F00553D790367
(1713559253.864655) can0 178#0C80082D0D930368
(1713559253.864894) can0 17C#008001003869034A
(1713559253.865146) can0 290#0000000200000083
(1713559253.865392) can0 120#000000000700009B
(1713559253.865638) can0 121#000000000000008B
(1713559253.865927) can0 129#000000010000008F
(1713559253.866171) can0 541#0440E800007FFF38
(1713559253.866409) can0 5A0#0000006244928076
(1713559253.869173) can0 140#0000030000000000
(1713559253.870173) can0 400#2880000000000040
(1713559253.870409) can0 410#2880008B9F6E8B21
(1713559253.873470) can0 12F#F8000120000000A7
(1713559253.873716) can0 12D#00000000000000BE
(1713559253.873962) can0 290#00000002000000B6
(1713559253.874196) can0 174#EE7F00553F790437
(1713559253.874428) can0 178#FE7F09300C9304AE
(1713559253.874673) can0 17C#0280010035690426
(1713559253.875026) can0 551#000000000004C000
(1713559253.875276) can0 5D1#9958000200000000
(1713559253.878769) can0 5D0#9958010200000000
(1713559253.879004) can0 5B1#008A9A6800000077
(1713559253.879241) can0 5CF#7444540000000000
(1713559253.880166) can0 400#2880000000000075
(1713559253.880403) can0 410#2880008B9F6E8B4B
(1713559253.883163) can0 12F#F7F00120000000CB
(1713559253.883398) can0 128#1388030000EC7877
(1713559253.883642) can0 12D#00000000000000D4
(1713559253.883890) can0 12E#000000000000C071
(1713559253.884120) can0 174#EE7F00553D790529
(1713559253.884352) can0 178#F67F0A3209930571
(1713559253.884592) can0 17C#FE7F01002F690537
(1713559253.884841) can0 290#00000002000000DC
(1713559253.885082) can0 541#0440E800007FFF52
(1713559253.885335) can0 120#00000000070000AE
(1713559253.885581) can0 121#00000000000000BE
(1713559253.885823) can0 129#00000001000000BA
(1713559253.889700) can0 140#0000030000000000
(1713559253.890214) can0 410#2880008B9F6E8B7E
(1713559253.890459) can0 400#2880000000000094
(1713559253.893498) can0 12F#F80001200000002C
(1713559253.893742) can0 12D#0000000000000035
(1713559253.893989) can0 290#000000020000003D
(1713559253.894220) can0 174#EC7F00553B7906B1
(1713559253.894460) can0 178#F87F0B360A9306FF
(1713559253.894708) can0 17C#FA7F010027690675
(1713559253.895022) can0 551#000000000004C000
(1713559253.895271) can0 5D1#9958000200000000
(1713559253.900142) can0 410#2880008B9F6E8B9F
(1713559253.900386) can0 400#28800000000000A1
(1713559253.903181) can0 12F#F7F0012000000040
(1713559253.903415) can0 128#1388030000EC7896
(1713559253.903665) can0 12D#000000000000005F
(1713559253.903912) can0 12E#000000000000C090
(1713559253.904145) can0 174#EC7F00553A790723
(1713559253.904383) can0 178#00800C30149307E3
(1713559253.904629) can0 17C#F87F01001B6907F0
(1713559253.904876) can0 290#0000000200000057
